EC-Lab ASCII FILE
Nb header lines : 67                          

Potentio Electrochemical Impedance Spectroscopy

Run on channel : 15 (SN 19485)
User : 
Electrode connection : standard
Potential control : Ewe
Ewe ctrl range : min = -1.00 V, max = 1.00 V
Ewe,I filtering : 50 kHz
Safety Limits :
	Do not start on E overload
Channel : Floating
Acquisition started on : 02/23/2024 15:54:32.363
Loaded Setting File :  NONE
Saved on :
	File : 240223-OCV-EIS-Fe2Fe3_5mM-HCl1M-225RPM-Ag_AgCl_BLF8-GC-RDE-1minRestVSEoc-3ppf-14p1mVAmplitude_02_PEIS_C15.mpr
	Directory : C:\Data\mathias\RDE-RPM-variation\
	Host : 192.168.0.1
Device : VMP-300 (SN 0826)
Address : USB
EC-Lab for windows v11.52 (software)
Internet server v11.52 (firmware)
Command interpretor v11.52 (firmware)
Electrode material : 
Initial state : 
Electrolyte : 
Comments : 
Cable : special
Reference electrode : SCE Saturated Calomel Electrode (0.241 V)
Electrode surface area : 0.001 cm²
Characteristic mass : 0.001 g
Equivalent Weight : 0.000 g/eq.
Density : 0.000 g/cm3
Volume (V) : 0.001 cm³
Record EIS quality indicators
Cycle Definition : Charge/Discharge alternance
Mode                Single sine         
E (V)               0.0000              
vs.                 Eoc                 
tE (h:m:s)          0:01:0.0000         
record              0                   
dI                  0.000               
unit dI             mA                  
dt (s)              0.000               
fi                  1.000               
unit fi             MHz                 
ff                  100.000             
unit ff             mHz                 
Nd                  10                  
Points              per decade          
spacing             Logarithmic         
Va (mV)             14.1                
pw                  0.10                
Na                  3                   
corr                0                   
E range min (V)     -1.000              
E range max (V)     1.000               
I Range             Auto                
Bandwidth           8                   
nc cycles           0                   
goto Ns'            0                   
nr cycles           0                   
inc. cycle          1                   

freq/Hz	Re(Z)/Ohm	-Im(Z)/Ohm	|Z|/Ohm	Phase(Z)/deg	time/s	<Ewe>/V	<I>/mA	Cs/µF	Cp/µF	cycle number	I Range	|Ewe|/V	|I|/A	Ns	(Q-Qo)/mA.h	THD Ewe/%	NSD Ewe/%	NSR Ewe/%	|Ewe h2|/V	|Ewe h3|/V	|Ewe h4|/V	|Ewe h5|/V	|Ewe h6|/V	|Ewe h7|/V	THD I/%	NSD I/%	NSR I/%	|I h2|/A	|I h3|/A	|I h4|/A	|I h5|/A	|I h6|/A	|I h7|/A	Re(Y)/Ohm-1	Im(Y)/Ohm-1	|Y|/Ohm-1	Phase(Y)/deg	Re(C)/nF	Im(C)/nF	|C|/nF	Phase(C)/deg	Re(M)	Im(M)	|M|	Phase(M)/deg	Re(Permittivity)	Im(Permittivity)	|Permittivity|	Phase(Permittivity)/deg	Re(Resistivity)/Ohm.cm	Im(Resistivity)/Ohm.cm	|Resistivity|/Ohm.cm	Phase(Resistivity)/deg	Re(Conductivity)/mS/cm	Im(Conductivity)/mS/cm	|Conductivity|/mS/cm	Phase(Conductivity)/deg	Tan(Delta)	Loss Angle(Delta)/deg	dq/mA.h	
1.0000186E+006	3.5135663E+000	4.0862331E+000	5.3891048E+000	-4.9309261E+001	1.197614994651667E+002	4.5953587E-001	-1.1734212E-002	3.8948338E-002	2.2392467E-002	1.000000000000000E+000	38	1.1140030E-002	2.0671391E-003	0	-3.423346432706846E-006	-1	-1	-1	0	0	0	0	0	0	-1	-1	-1	0	0	0	0	0	0	1.2098036E-001	1.4069864E-001	1.8555957E-001	4.9309261E+001	2.2392469E+001	1.9254265E+001	2.9532175E+001	-4.0690739E+001	0.0000000E+000	0.0000000E+000	0.0000000E+000	4.0690739E+001	0.0000000E+000	0.0000000E+000	0.0000000E+000	-4.0690739E+001	0.0000000E+000	0.0000000E+000	0.0000000E+000	-4.9309261E+001	0.0000000E+000	0.0000000E+000	0.0000000E+000	4.9309261E+001	8.5985458E-001	4.0690735E+001	-3.423346432706846E-006
7.9433269E+005	3.5550072E+000	3.2053449E+000	4.7866807E+000	-4.2039158E+001	1.207734940732043E+002	4.5951569E-001	-2.2624880E-003	6.2509052E-002	2.8030029E-002	1.000000000000000E+000	38	1.3894883E-002	2.9028223E-003	0	-2.856650242038692E-006	-1	-1	-1	0	0	0	0	0	0	-1	-1	-1	0	0	0	0	0	0	1.5515707E-001	1.3989618E-001	2.0891304E-001	4.2039158E+001	2.8030029E+001	3.1087748E+001	4.1858459E+001	-4.7960842E+001	0.0000000E+000	0.0000000E+000	0.0000000E+000	4.7960842E+001	0.0000000E+000	0.0000000E+000	0.0000000E+000	-4.7960842E+001	0.0000000E+000	0.0000000E+000	0.0000000E+000	-4.2039158E+001	0.0000000E+000	0.0000000E+000	0.0000000E+000	4.2039158E+001	1.1090872E+000	4.7960846E+001	5.666961906681539E-007
6.3095681E+005	3.5385013E+000	2.5196884E+000	4.3439407E+000	-3.5453823E+001	1.219204888210079E+002	4.5953515E-001	-2.7111808E-003	1.0010912E-001	3.3682130E-002	1.000000000000000E+000	38	1.4451590E-002	3.3268388E-003	0	-1.032159116533067E-006	-1	-1	-1	0	0	0	0	0	0	-1	-1	-1	0	0	0	0	0	0	1.8752173E-001	1.3353005E-001	2.3020571E-001	3.5453823E+001	3.3682125E+001	4.7301189E+001	5.8067963E+001	-5.4546177E+001	0.0000000E+000	0.0000000E+000	0.0000000E+000	5.4546177E+001	0.0000000E+000	0.0000000E+000	0.0000000E+000	-5.4546177E+001	0.0000000E+000	0.0000000E+000	0.0000000E+000	-3.5453823E+001	0.0000000E+000	0.0000000E+000	0.0000000E+000	3.5453823E+001	1.4043409E+000	5.4546173E+001	1.824491125505624E-006
5.0120622E+005	3.5051947E+000	2.0257843E+000	4.0484800E+000	-3.0025238E+001	1.230674782888527E+002	4.5951727E-001	-2.6776616E-003	1.5675107E-001	3.9247580E-002	1.000000000000000E+000	38	1.4567197E-002	3.5981892E-003	0	-1.164440578884549E-006	-1	-1	-1	0	0	0	0	0	0	-1	-1	-1	0	0	0	0	0	0	2.1385929E-001	1.2359735E-001	2.4700628E-001	3.0025238E+001	3.9247578E+001	6.7909698E+001	7.8435318E+001	-5.9974762E+001	0.0000000E+000	0.0000000E+000	0.0000000E+000	5.9974762E+001	0.0000000E+000	0.0000000E+000	0.0000000E+000	-5.9974762E+001	0.0000000E+000	0.0000000E+000	0.0000000E+000	-3.0025238E+001	0.0000000E+000	0.0000000E+000	0.0000000E+000	3.0025238E+001	1.7302902E+000	5.9974762E+001	-1.322814623514811E-007
3.9810347E+005	3.4661305E+000	1.6292872E+000	3.8299658E+000	-2.5176311E+001	1.242154975433514E+002	4.5955157E-001	-1.4376038E-003	2.4537286E-001	4.4405017E-002	1.000000000000000E+000	38	1.4571618E-002	3.8046341E-003	0	-3.589173746295273E-007	-1	-1	-1	0	0	0	0	0	0	-1	-1	-1	0	0	0	0	0	0	2.3629531E-001	1.1107283E-001	2.6109892E-001	2.5176311E+001	4.4405022E+001	9.4466820E+001	1.0438288E+002	-6.4823685E+001	0.0000000E+000	0.0000000E+000	0.0000000E+000	6.4823685E+001	0.0000000E+000	0.0000000E+000	0.0000000E+000	-6.4823685E+001	0.0000000E+000	0.0000000E+000	0.0000000E+000	-2.5176311E+001	0.0000000E+000	0.0000000E+000	0.0000000E+000	2.5176311E+001	2.1273906E+000	6.4823685E+001	8.055232042550211E-007
3.1622997E+005	3.4390450E+000	1.3584653E+000	3.6976287E+000	-2.1554632E+001	1.253624997311999E+002	4.5953205E-001	-1.1899634E-003	3.7048322E-001	5.0005648E-002	1.000000000000000E+000	38	1.4586908E-002	3.9449357E-003	0	-2.785367758967267E-006	-1	-1	-1	0	0	0	0	0	0	-1	-1	-1	0	0	0	0	0	0	2.5153086E-001	9.9357791E-002	2.7044359E-001	2.1554632E+001	5.0005646E+001	1.2659261E+002	1.3611118E+002	-6.8445366E+001	0.0000000E+000	0.0000000E+000	0.0000000E+000	6.8445366E+001	0.0000000E+000	0.0000000E+000	0.0000000E+000	-6.8445366E+001	0.0000000E+000	0.0000000E+000	0.0000000E+000	-2.1554632E+001	0.0000000E+000	0.0000000E+000	0.0000000E+000	2.1554632E+001	2.5315661E+000	6.8445366E+001	-2.426450384337740E-006
2.5118764E+005	3.4097054E+000	1.1756445E+000	3.6066926E+000	-1.9023865E+001	1.265094841590180E+002	4.5954195E-001	-1.8695708E-003	5.3894675E-001	5.7263732E-002	1.000000000000000E+000	38	1.4548420E-002	4.0337290E-003	0	-4.452213620547101E-006	-1	-1	-1	0	0	0	0	0	0	-1	-1	-1	0	0	0	0	0	0	2.6211905E-001	9.0376973E-002	2.7726233E-001	1.9023865E+001	5.7263737E+001	1.6608121E+002	1.7567613E+002	-7.0976135E+001	0.0000000E+000	0.0000000E+000	0.0000000E+000	7.0976135E+001	0.0000000E+000	0.0000000E+000	0.0000000E+000	-7.0976135E+001	0.0000000E+000	0.0000000E+000	0.0000000E+000	-1.9023865E+001	0.0000000E+000	0.0000000E+000	0.0000000E+000	1.9023865E+001	2.9002860E+000	7.0976135E+001	-1.666845861579834E-006
1.9954350E+005	3.4039829E+000	1.0762725E+000	3.5700786E+000	-1.7545931E+001	1.276564898668003E+002	4.5952976E-001	-1.2402325E-003	7.4107182E-001	6.7351803E-002	1.000000000000000E+000	38	1.4574605E-002	4.0824325E-003	0	-4.981763129445931E-006	-1	-1	-1	0	0	0	0	0	0	-1	-1	-1	0	0	0	0	0	0	2.6707414E-001	8.4443592E-002	2.8010589E-001	1.7545931E+001	6.7351799E+001	2.1301704E+002	2.2341112E+002	-7.2454071E+001	0.0000000E+000	0.0000000E+000	0.0000000E+000	7.2454071E+001	0.0000000E+000	0.0000000E+000	0.0000000E+000	-7.2454071E+001	0.0000000E+000	0.0000000E+000	0.0000000E+000	-1.7545931E+001	0.0000000E+000	0.0000000E+000	0.0000000E+000	1.7545931E+001	3.1627519E+000	7.2454071E+001	-5.295495088988301E-007
1.5848613E+005	3.3940413E+000	1.0100752E+000	3.5411534E+000	-1.6573137E+001	1.288034814146376E+002	4.5951304E-001	-1.6870989E-003	9.9420327E-001	8.0889679E-002	1.000000000000000E+000	38	1.4562572E-002	4.1123810E-003	0	-1.382755486906454E-005	-1	-1	-1	0	0	0	0	0	0	-1	-1	-1	0	0	0	0	0	0	2.7066222E-001	8.0549754E-002	2.8239387E-001	1.6573137E+001	8.0889664E+001	2.7180441E+002	2.8358557E+002	-7.3426865E+001	0.0000000E+000	0.0000000E+000	0.0000000E+000	7.3426865E+001	0.0000000E+000	0.0000000E+000	0.0000000E+000	-7.3426865E+001	0.0000000E+000	0.0000000E+000	0.0000000E+000	-1.6573137E+001	0.0000000E+000	0.0000000E+000	0.0000000E+000	1.6573137E+001	3.3601868E+000	7.3426865E+001	-8.845791739618613E-006
1.2590929E+005	3.4015560E+000	1.0091730E+000	3.5481000E+000	-1.6524561E+001	1.299514835758164E+002	4.5951027E-001	-1.8565360E-003	1.2525548E+000	1.0132959E-001	1.000000000000000E+000	38	1.4535949E-002	4.0968261E-003	0	-1.108775193424663E-005	-1	-1	-1	0	0	0	0	0	0	-1	-1	-1	0	0	0	0	0	0	2.7020034E-001	8.0162995E-002	2.8184098E-001	1.6524561E+001	1.0132959E+002	3.4154529E+002	3.5625955E+002	-7.3475441E+001	0.0000000E+000	0.0000000E+000	0.0000000E+000	7.3475441E+001	0.0000000E+000	0.0000000E+000	0.0000000E+000	-7.3475441E+001	0.0000000E+000	0.0000000E+000	0.0000000E+000	-1.6524561E+001	0.0000000E+000	0.0000000E+000	0.0000000E+000	1.6524561E+001	3.3706369E+000	7.3475441E+001	2.739802934817918E-006
1.0000371E+005	3.4131656E+000	1.0590227E+000	3.5736854E+000	-1.7237852E+001	1.310974841102288E+002	4.5954439E-001	-9.0136460E-004	1.5027915E+000	1.3197042E-001	1.000000000000000E+000	38	1.4513559E-002	4.0612300E-003	0	-1.704761378258829E-005	5.5032361E-001	2.9646787E-001	9.1516352E+000	1.8754708E-005	2.2832579E-005	4.1871812E-005	3.5350728E-005	3.9472274E-005	1.2490119E-005	6.6549435E-002	4.9371660E-002	7.0882171E-001	1.4491566E-006	1.4237861E-006	7.7091789E-007	4.4228418E-007	1.0319656E-006	8.5776134E-007	2.6725432E-001	8.2922548E-002	2.7982318E-001	1.7237852E+001	1.3197044E+002	4.2533267E+002	4.4533591E+002	-7.2762146E+001	0.0000000E+000	0.0000000E+000	0.0000000E+000	7.2762146E+001	0.0000000E+000	0.0000000E+000	0.0000000E+000	-7.2762146E+001	0.0000000E+000	0.0000000E+000	0.0000000E+000	-1.7237852E+001	0.0000000E+000	0.0000000E+000	0.0000000E+000	1.7237852E+001	3.2229390E+000	7.2762146E+001	-5.959861848341664E-006
7.9433273E+004	3.4370449E+000	1.1688873E+000	3.6303685E+000	-1.8782396E+001	1.322454878447606E+002	4.5954591E-001	-5.9600832E-004	1.7141352E+000	1.7770059E-001	1.000000000000000E+000	38	1.4615662E-002	4.0259445E-003	0	-1.250663499055210E-005	4.4715092E-001	3.6784056E-001	9.0551949E+000	2.9704866E-005	1.4752623E-005	4.5478049E-005	1.3823782E-005	1.0565683E-005	2.4427251E-005	5.1816173E-002	5.1104095E-002	7.2798902E-001	1.2288566E-006	1.0185877E-006	7.3699988E-007	7.5374533E-007	4.1706551E-007	5.6323927E-007	2.6078570E-001	8.8689297E-002	2.7545413E-001	1.8782396E+001	1.7770059E+002	5.2251831E+002	5.5190839E+002	-7.1217606E+001	0.0000000E+000	0.0000000E+000	0.0000000E+000	7.1217606E+001	0.0000000E+000	0.0000000E+000	0.0000000E+000	-7.1217606E+001	0.0000000E+000	0.0000000E+000	0.0000000E+000	-1.8782396E+001	0.0000000E+000	0.0000000E+000	0.0000000E+000	1.8782396E+001	2.9404416E+000	7.1217606E+001	4.540978792036186E-006
6.3093828E+004	3.4677117E+000	1.3152099E+000	3.7087467E+000	-2.0770390E+001	1.333924856859521E+002	4.5950845E-001	-1.8379320E-003	1.9179540E+000	2.4119815E-001	1.000000000000000E+000	38	1.4576681E-002	3.9303522E-003	0	-1.985741008673924E-005	4.0433237E-001	4.2255014E-001	9.3017330E+000	2.2668857E-005	2.4445755E-005	2.8606664E-005	1.3641019E-005	2.5608373E-005	1.1698344E-005	6.1170463E-002	5.4433189E-002	7.3966825E-001	1.3809546E-006	1.2035139E-006	8.7028707E-007	5.4290854E-007	7.0594211E-007	4.8796687E-007	2.5210917E-001	9.5618233E-002	2.6963288E-001	2.0770390E+001	2.4119810E+002	6.3594843E+002	6.8015216E+002	-6.9229614E+001	0.0000000E+000	0.0000000E+000	0.0000000E+000	6.9229614E+001	0.0000000E+000	0.0000000E+000	0.0000000E+000	-6.9229614E+001	0.0000000E+000	0.0000000E+000	0.0000000E+000	-2.0770390E+001	0.0000000E+000	0.0000000E+000	0.0000000E+000	2.0770390E+001	2.6366224E+000	6.9229614E+001	-7.350775096187134E-006
5.0122477E+004	3.4993157E+000	1.5281576E+000	3.8184390E+000	-2.3590982E+001	1.345394909137540E+002	4.5953798E-001	-1.7131760E-003	2.0778751E+000	3.3280054E-001	1.000000000000000E+000	38	1.4571398E-002	3.8160614E-003	0	-2.559866911795042E-005	5.3186423E-001	3.5490227E-001	9.1129675E+000	3.3429620E-005	3.1811396E-005	2.3084758E-005	3.2169726E-005	3.2530792E-005	2.2648246E-005	6.3580275E-002	3.6444288E-002	7.7229422E-001	1.0423811E-006	1.4304777E-006	7.4351982E-007	8.3461964E-007	8.5163896E-007	5.5362631E-007	2.4000011E-001	1.0480849E-001	2.6188713E-001	2.3590982E+001	3.3280051E+002	7.6207727E+002	8.3157556E+002	-6.6409019E+001	0.0000000E+000	0.0000000E+000	0.0000000E+000	6.6409019E+001	0.0000000E+000	0.0000000E+000	0.0000000E+000	-6.6409019E+001	0.0000000E+000	0.0000000E+000	0.0000000E+000	-2.3590982E+001	0.0000000E+000	0.0000000E+000	0.0000000E+000	2.3590982E+001	2.2898920E+000	6.6409019E+001	-5.741259031211182E-006
3.9814063E+004	3.5606692E+000	1.8055478E+000	3.9922886E+000	-2.6888700E+001	1.356854881415056E+002	4.5951909E-001	-2.8042709E-003	2.2139850E+000	4.5284417E-001	1.000000000000000E+000	38	1.4649295E-002	3.6693979E-003	0	-3.167019278259896E-005	4.6027553E-001	3.8432565E-001	9.3195457E+000	2.2551438E-005	1.2894069E-005	2.7560918E-005	2.8994851E-005	1.9915507E-005	3.3573739E-005	6.2272929E-002	7.9083264E-002	8.0517173E-001	9.4865453E-007	1.3308487E-006	5.2309025E-007	8.4570092E-007	6.5672413E-007	4.6238435E-007	2.2340237E-001	1.1328310E-001	2.5048289E-001	2.6888700E+001	4.5284418E+002	8.9304102E+002	1.0012942E+003	-6.3111298E+001	0.0000000E+000	0.0000000E+000	0.0000000E+000	6.3111298E+001	0.0000000E+000	0.0000000E+000	0.0000000E+000	-6.3111298E+001	0.0000000E+000	0.0000000E+000	0.0000000E+000	-2.6888700E+001	0.0000000E+000	0.0000000E+000	0.0000000E+000	2.6888700E+001	1.9720714E+000	6.3111298E+001	-6.071523664648540E-006
3.1621143E+004	3.6100745E+000	2.1685615E+000	4.2113295E+000	-3.0993116E+001	1.368324938760052E+002	4.5953751E-001	-2.2903816E-003	2.3209770E+000	6.1542606E-001	1.000000000000000E+000	38	1.4723699E-002	3.4962117E-003	0	-3.614626951214288E-005	4.9454916E-001	3.2950282E-001	8.9094801E+000	3.1531439E-005	2.6598025E-005	3.4073470E-005	2.0902315E-005	2.6640393E-005	2.3641443E-005	5.5433922E-002	8.9327492E-002	8.2295853E-001	7.5008717E-007	9.6908343E-007	7.0881265E-007	7.8172167E-007	7.9623237E-007	4.0871001E-007	2.0355311E-001	1.2227377E-001	2.3745471E-001	3.0993116E+001	6.1542603E+002	1.0245197E+003	1.1951526E+003	-5.9006882E+001	0.0000000E+000	0.0000000E+000	0.0000000E+000	5.9006882E+001	0.0000000E+000	0.0000000E+000	0.0000000E+000	-5.9006882E+001	0.0000000E+000	0.0000000E+000	0.0000000E+000	-3.0993116E+001	0.0000000E+000	0.0000000E+000	0.0000000E+000	3.0993116E+001	1.6647325E+000	5.9006882E+001	-4.476076729543925E-006
2.5116906E+004	3.6775951E+000	2.6257179E+000	4.5187497E+000	-3.5525959E+001	1.379784963037382E+002	4.5952195E-001	-1.1192390E-003	2.4132702E+000	8.1482714E-001	1.000000000000000E+000	38	1.4741767E-002	3.2623552E-003	0	-4.202494809528192E-005	4.7187594E-001	3.0435485E-001	9.1519852E+000	2.5578656E-005	3.0916839E-005	1.8258448E-005	2.4176634E-005	3.6652087E-005	2.3411247E-005	5.8522459E-002	1.1550390E-001	9.0058208E-001	6.4155353E-007	1.0366250E-006	7.0934902E-007	6.7295531E-007	6.3413700E-007	6.4759189E-007	1.8010564E-001	1.2859127E-001	2.2130015E-001	3.5525959E+001	8.1482715E+002	1.1412515E+003	1.4022832E+003	-5.4474041E+001	0.0000000E+000	0.0000000E+000	0.0000000E+000	5.4474041E+001	0.0000000E+000	0.0000000E+000	0.0000000E+000	-5.4474041E+001	0.0000000E+000	0.0000000E+000	0.0000000E+000	-3.5525959E+001	0.0000000E+000	0.0000000E+000	0.0000000E+000	3.5525959E+001	1.4006056E+000	5.4474045E+001	-5.878678583139035E-006
1.9948781E+004	3.7728794E+000	3.1947801E+000	4.9438081E+000	-4.0257095E+001	1.391244985448575E+002	4.5953053E-001	-1.3650367E-003	2.4972544E+000	1.0428492E+000	1.000000000000000E+000	38	1.4785857E-002	2.9907830E-003	0	-4.726945180254471E-005	6.1644334E-001	3.0987352E-001	8.9611511E+000	4.9457474E-005	3.4148714E-005	2.5372328E-005	3.2544587E-005	2.8480245E-005	3.2338794E-005	6.1065868E-002	6.5043032E-002	9.6803766E-001	9.8257374E-007	8.1951356E-007	5.0671696E-007	4.5080984E-007	6.1978159E-007	6.9905246E-007	1.5436530E-001	1.3071269E-001	2.0227322E-001	4.0257095E+001	1.0428492E+003	1.2315541E+003	1.6137720E+003	-4.9742905E+001	0.0000000E+000	0.0000000E+000	0.0000000E+000	4.9742905E+001	0.0000000E+000	0.0000000E+000	0.0000000E+000	-4.9742905E+001	0.0000000E+000	0.0000000E+000	0.0000000E+000	-4.0257095E+001	0.0000000E+000	0.0000000E+000	0.0000000E+000	4.0257095E+001	1.1809512E+000	4.9742905E+001	-5.244503707262789E-006
1.5847683E+004	3.8958776E+000	3.9061985E+000	5.5169058E+000	-4.5075794E+001	1.402714818526438E+002	4.5952615E-001	-1.2216700E-003	2.5709879E+000	1.2888950E+000	1.000000000000000E+000	38	1.4758573E-002	2.6751540E-003	0	-5.395746290932423E-005	5.0618780E-001	3.7529656E-001	9.0022259E+000	2.0032208E-005	3.5068530E-005	2.3280378E-005	2.6329313E-005	2.3378756E-005	3.1599790E-005	1.1069787E-001	1.7824011E-001	1.0902001E+000	2.2654629E-006	1.1471917E-006	8.0618832E-007	8.6215704E-007	5.2789699E-007	5.6595661E-007	1.2800124E-001	1.2834035E-001	1.8126103E-001	4.5075794E+001	1.2888949E+003	1.2854894E+003	1.8203662E+003	-4.4924206E+001	0.0000000E+000	0.0000000E+000	0.0000000E+000	4.4924206E+001	0.0000000E+000	0.0000000E+000	0.0000000E+000	-4.4924206E+001	0.0000000E+000	0.0000000E+000	0.0000000E+000	-4.5075794E+001	0.0000000E+000	0.0000000E+000	0.0000000E+000	4.5075794E+001	9.9735779E-001	4.4924210E+001	-6.688011106779519E-006
1.2590930E+004	4.0332484E+000	4.7959323E+000	6.2664232E+000	-4.9937077E+001	1.414184918804822E+002	4.5953059E-001	-1.6778467E-003	2.6356597E+000	1.5438175E+000	1.000000000000000E+000	38	1.4800345E-002	2.3618490E-003	0	-5.899855909713855E-005	4.7790921E-001	4.9789575E-001	9.0412464E+000	3.5365512E-005	3.2637170E-005	2.2400885E-005	1.8007637E-005	2.9629256E-005	1.9268606E-005	1.3842598E-001	1.9075871E-001	1.2519516E+000	2.8599716E-006	6.0535581E-007	8.8380358E-007	5.6704880E-007	6.2897959E-007	5.9957478E-007	1.0271066E-001	1.2213316E-001	1.5958066E-001	4.9937077E+001	1.5438174E+003	1.2983085E+003	2.0171705E+003	-4.0062923E+001	0.0000000E+000	0.0000000E+000	0.0000000E+000	4.0062923E+001	0.0000000E+000	0.0000000E+000	0.0000000E+000	-4.0062923E+001	0.0000000E+000	0.0000000E+000	0.0000000E+000	-4.9937077E+001	0.0000000E+000	0.0000000E+000	0.0000000E+000	4.9937077E+001	8.4097278E-001	4.0062927E+001	-5.041096187814320E-006
