EC-Lab ASCII FILE
Nb header lines : 67                          

Potentio Electrochemical Impedance Spectroscopy

Run on channel : 15 (SN 19485)
User : 
Electrode connection : standard
Potential control : Ewe
Ewe ctrl range : min = -1.00 V, max = 1.00 V
Ewe,I filtering : 50 kHz
Safety Limits :
	Do not start on E overload
Channel : Floating
Acquisition started on : 02/23/2024 16:29:27.631
Loaded Setting File :  NONE
Saved on :
	File : 240223-OCV-EIS-Fe2Fe3_5mM-HCl1M-0RPM-Ag_AgCl_BLF8-GC-RDE-1minRestVSEoc-3ppf-14p1mVAmplitude_06_PEIS_C15.mpr
	Directory : C:\Data\mathias\RDE-RPM-variation\
	Host : 192.168.0.1
Device : VMP-300 (SN 0826)
Address : USB
EC-Lab for windows v11.52 (software)
Internet server v11.52 (firmware)
Command interpretor v11.52 (firmware)
Electrode material : 
Initial state : 
Electrolyte : 
Comments : 
Cable : special
Reference electrode : SCE Saturated Calomel Electrode (0.241 V)
Electrode surface area : 0.001 cm²
Characteristic mass : 0.001 g
Equivalent Weight : 0.000 g/eq.
Density : 0.000 g/cm3
Volume (V) : 0.001 cm³
Record EIS quality indicators
Cycle Definition : Charge/Discharge alternance
Mode                Single sine         
E (V)               0.0000              
vs.                 Eoc                 
tE (h:m:s)          0:01:0.0000         
record              0                   
dI                  0.000               
unit dI             mA                  
dt (s)              0.000               
fi                  1.000               
unit fi             MHz                 
ff                  100.000             
unit ff             mHz                 
Nd                  10                  
Points              per decade          
spacing             Logarithmic         
Va (mV)             14.1                
pw                  0.10                
Na                  3                   
corr                0                   
E range min (V)     -1.000              
E range max (V)     1.000               
I Range             Auto                
Bandwidth           8                   
nc cycles           0                   
goto Ns'            0                   
nr cycles           0                   
inc. cycle          1                   

freq/Hz	Re(Z)/Ohm	-Im(Z)/Ohm	|Z|/Ohm	Phase(Z)/deg	time/s	<Ewe>/V	<I>/mA	Cs/µF	Cp/µF	cycle number	I Range	|Ewe|/V	|I|/A	Ns	(Q-Qo)/mA.h	THD Ewe/%	NSD Ewe/%	NSR Ewe/%	|Ewe h2|/V	|Ewe h3|/V	|Ewe h4|/V	|Ewe h5|/V	|Ewe h6|/V	|Ewe h7|/V	THD I/%	NSD I/%	NSR I/%	|I h2|/A	|I h3|/A	|I h4|/A	|I h5|/A	|I h6|/A	|I h7|/A	Re(Y)/Ohm-1	Im(Y)/Ohm-1	|Y|/Ohm-1	Phase(Y)/deg	Re(C)/nF	Im(C)/nF	|C|/nF	Phase(C)/deg	Re(M)	Im(M)	|M|	Phase(M)/deg	Re(Permittivity)	Im(Permittivity)	|Permittivity|	Phase(Permittivity)/deg	Re(Resistivity)/Ohm.cm	Im(Resistivity)/Ohm.cm	|Resistivity|/Ohm.cm	Phase(Resistivity)/deg	Re(Conductivity)/mS/cm	Im(Conductivity)/mS/cm	|Conductivity|/mS/cm	Phase(Conductivity)/deg	Tan(Delta)	Loss Angle(Delta)/deg	dq/mA.h	
1.0000186E+006	3.5196400E+000	4.0766644E+000	5.3858199E+000	-4.9193897E+001	1.087737529607839E+003	4.5930162E-001	-9.4049331E-003	3.9039757E-002	2.2367291E-002	1.000000000000000E+000	38	1.1134663E-002	2.0674034E-003	0	-6.963108300658253E-006	-1	-1	-1	0	0	0	0	0	0	-1	-1	-1	0	0	0	0	0	0	1.2133737E-001	1.4054042E-001	1.8567275E-001	4.9193897E+001	2.2367289E+001	1.9311085E+001	2.9550188E+001	-4.0806103E+001	0.0000000E+000	0.0000000E+000	0.0000000E+000	4.0806103E+001	0.0000000E+000	0.0000000E+000	0.0000000E+000	-4.0806103E+001	0.0000000E+000	0.0000000E+000	0.0000000E+000	-4.9193897E+001	0.0000000E+000	0.0000000E+000	0.0000000E+000	4.9193897E+001	8.6336267E-001	4.0806107E+001	-6.963108300658253E-006
7.9433269E+005	3.5431747E+000	3.2040784E+000	4.7770500E+000	-4.2122910E+001	1.088748531495861E+003	4.5930710E-001	-5.2344042E-004	6.2533759E-002	2.8132042E-002	1.000000000000000E+000	38	1.3851103E-002	2.8995099E-003	0	-9.743245395935244E-006	-1	-1	-1	0	0	0	0	0	0	-1	-1	-1	0	0	0	0	0	0	1.5526479E-001	1.4040533E-001	2.0933421E-001	4.2122910E+001	2.8132044E+001	3.1109335E+001	4.1942848E+001	-4.7877090E+001	0.0000000E+000	0.0000000E+000	0.0000000E+000	4.7877090E+001	0.0000000E+000	0.0000000E+000	0.0000000E+000	-4.7877090E+001	0.0000000E+000	0.0000000E+000	0.0000000E+000	-4.2122910E+001	0.0000000E+000	0.0000000E+000	0.0000000E+000	4.2122910E+001	1.1058327E+000	4.7877090E+001	-2.780137095276991E-006
6.3095681E+005	3.5334406E+000	2.5203948E+000	4.3402295E+000	-3.5500175E+001	1.089895522910345E+003	4.5931816E-001	-1.2849409E-003	1.0008107E-001	3.3749215E-002	1.000000000000000E+000	38	1.4451995E-002	3.3297769E-003	0	-8.182942849234678E-006	-1	-1	-1	0	0	0	0	0	0	-1	-1	-1	0	0	0	0	0	0	1.8757389E-001	1.3379602E-001	2.3040256E-001	3.5500175E+001	3.3749218E+001	4.7314350E+001	5.8117619E+001	-5.4499825E+001	0.0000000E+000	0.0000000E+000	0.0000000E+000	5.4499825E+001	0.0000000E+000	0.0000000E+000	0.0000000E+000	-5.4499825E+001	0.0000000E+000	0.0000000E+000	0.0000000E+000	-3.5500175E+001	0.0000000E+000	0.0000000E+000	0.0000000E+000	3.5500175E+001	1.4019393E+000	5.4499825E+001	1.560302546700566E-006
5.0120622E+005	3.5040026E+000	2.0061369E+000	4.0376501E+000	-2.9792313E+001	1.091043537578196E+003	4.5928767E-001	-5.2898342E-004	1.5828623E-001	3.9075710E-002	1.000000000000000E+000	38	1.4539160E-002	3.6008966E-003	0	-5.256493389409217E-006	-1	-1	-1	0	0	0	0	0	0	-1	-1	-1	0	0	0	0	0	0	2.1493496E-001	1.2305611E-001	2.4766882E-001	2.9792313E+001	3.9075710E+001	6.8251266E+001	7.8645706E+001	-6.0207687E+001	0.0000000E+000	0.0000000E+000	0.0000000E+000	6.0207687E+001	0.0000000E+000	0.0000000E+000	0.0000000E+000	-6.0207687E+001	0.0000000E+000	0.0000000E+000	0.0000000E+000	-2.9792313E+001	0.0000000E+000	0.0000000E+000	0.0000000E+000	2.9792313E+001	1.7466418E+000	6.0207687E+001	2.926449459825461E-006
3.9810347E+005	3.4633534E+000	1.6208373E+000	3.8238633E+000	-2.5079430E+001	1.092190516379371E+003	4.5930618E-001	-7.4310490E-004	2.4665207E-001	4.4315834E-002	1.000000000000000E+000	38	1.4540662E-002	3.8026103E-003	0	-1.465864059385947E-005	-1	-1	-1	0	0	0	0	0	0	-1	-1	-1	0	0	0	0	0	0	2.3686020E-001	1.1084975E-001	2.6151562E-001	2.5079430E+001	4.4315830E+001	9.4692650E+001	1.0454947E+002	-6.4920570E+001	0.0000000E+000	0.0000000E+000	0.0000000E+000	6.4920570E+001	0.0000000E+000	0.0000000E+000	0.0000000E+000	-6.4920570E+001	0.0000000E+000	0.0000000E+000	0.0000000E+000	-2.5079430E+001	0.0000000E+000	0.0000000E+000	0.0000000E+000	2.5079430E+001	2.1367681E+000	6.4920570E+001	-9.402147204450253E-006
3.1622997E+005	3.4352114E+000	1.3632611E+000	3.6958299E+000	-2.1645617E+001	1.093337534993829E+003	4.5930147E-001	-1.8266312E-004	3.6917990E-001	5.0231043E-002	1.000000000000000E+000	38	1.4595509E-002	3.9491830E-003	0	-1.788703758385317E-005	-1	-1	-1	0	0	0	0	0	0	-1	-1	-1	0	0	0	0	0	0	2.5149509E-001	9.9805646E-002	2.7057523E-001	2.1645617E+001	5.0231033E+001	1.2657461E+002	1.3617741E+002	-6.8354385E+001	0.0000000E+000	0.0000000E+000	0.0000000E+000	6.8354385E+001	0.0000000E+000	0.0000000E+000	0.0000000E+000	-6.8354385E+001	0.0000000E+000	0.0000000E+000	0.0000000E+000	-2.1645617E+001	0.0000000E+000	0.0000000E+000	0.0000000E+000	2.1645617E+001	2.5198486E+000	6.8354385E+001	-3.228396989993701E-006
2.5118764E+005	3.4085667E+000	1.1678060E+000	3.6030679E+000	-1.8911928E+001	1.094484528728353E+003	4.5930049E-001	-7.7847653E-004	5.4256421E-001	5.6996435E-002	1.000000000000000E+000	38	1.4571161E-002	4.0440983E-003	0	-1.749759396227697E-005	-1	-1	-1	0	0	0	0	0	0	-1	-1	-1	0	0	0	0	0	0	2.6255900E-001	8.9955106E-002	2.7754125E-001	1.8911928E+001	5.6996429E+001	1.6635994E+002	1.7585284E+002	-7.1088074E+001	0.0000000E+000	0.0000000E+000	0.0000000E+000	7.1088074E+001	0.0000000E+000	0.0000000E+000	0.0000000E+000	-7.1088074E+001	0.0000000E+000	0.0000000E+000	0.0000000E+000	-1.8911928E+001	0.0000000E+000	0.0000000E+000	0.0000000E+000	1.8911928E+001	2.9187782E+000	7.1088074E+001	3.894436215761965E-007
1.9954350E+005	3.3973892E+000	1.0527884E+000	3.5567706E+000	-1.7217247E+001	1.095631528649479E+003	4.5931047E-001	2.7165536E-004	7.5760263E-001	6.6376135E-002	1.000000000000000E+000	38	1.4569991E-002	4.0964102E-003	0	-1.258473245786606E-005	-1	-1	-1	0	0	0	0	0	0	-1	-1	-1	0	0	0	0	0	0	2.6855522E-001	8.3220318E-002	2.8115392E-001	1.7217247E+001	6.6376129E+001	2.1419836E+002	2.2424702E+002	-7.2782753E+001	0.0000000E+000	0.0000000E+000	0.0000000E+000	7.2782753E+001	0.0000000E+000	0.0000000E+000	0.0000000E+000	-7.2782753E+001	0.0000000E+000	0.0000000E+000	0.0000000E+000	-1.7217247E+001	0.0000000E+000	0.0000000E+000	0.0000000E+000	1.7217247E+001	3.2270391E+000	7.2782753E+001	4.912861504410910E-006
1.5848613E+005	3.3847725E+000	1.0028780E+000	3.5302196E+000	-1.6504087E+001	1.096779521343997E+003	4.5929945E-001	-3.7816298E-004	1.0013382E+000	8.0811568E-002	1.000000000000000E+000	38	1.4569823E-002	4.1271718E-003	0	-9.741947021335363E-006	-1	-1	-1	0	0	0	0	0	0	-1	-1	-1	0	0	0	0	0	0	2.7159771E-001	8.0471978E-002	2.8326851E-001	1.6504087E+001	8.0811577E+001	2.7274384E+002	2.8446390E+002	-7.3495911E+001	0.0000000E+000	0.0000000E+000	0.0000000E+000	7.3495911E+001	0.0000000E+000	0.0000000E+000	0.0000000E+000	-7.3495911E+001	0.0000000E+000	0.0000000E+000	0.0000000E+000	-1.6504087E+001	0.0000000E+000	0.0000000E+000	0.0000000E+000	1.6504087E+001	3.3750594E+000	7.3495911E+001	2.842785436530701E-006
1.2590929E+005	3.3854625E+000	1.0085607E+000	3.5324993E+000	-1.6589281E+001	1.097926531638484E+003	4.5929083E-001	-1.9196930E-004	1.2533153E+000	1.0216455E-001	1.000000000000000E+000	38	1.4572485E-002	4.1252621E-003	0	-1.784559175703261E-005	-1	-1	-1	0	0	0	0	0	0	-1	-1	-1	0	0	0	0	0	0	2.7130252E-001	8.0823533E-002	2.8308567E-001	1.6589281E+001	1.0216454E+002	3.4293848E+002	3.5783292E+002	-7.3410721E+001	0.0000000E+000	0.0000000E+000	0.0000000E+000	7.3410721E+001	0.0000000E+000	0.0000000E+000	0.0000000E+000	-7.3410721E+001	0.0000000E+000	0.0000000E+000	0.0000000E+000	-1.6589281E+001	0.0000000E+000	0.0000000E+000	0.0000000E+000	1.6589281E+001	3.3567266E+000	7.3410721E+001	-8.103644735697243E-006
1.0000371E+005	3.4002047E+000	1.0532546E+000	3.5595980E+000	-1.7211000E+001	1.099073516946286E+003	4.5933971E-001	-2.8320411E-004	1.5110215E+000	1.3229257E-001	1.000000000000000E+000	38	1.4570289E-002	4.0932400E-003	0	-1.518921324631406E-005	4.9101761E-001	2.8521660E-001	8.8888779E+000	2.1701950E-005	1.2017208E-005	2.2970031E-005	2.8452740E-005	3.9521561E-005	3.4526875E-005	6.5601841E-002	2.1357996E-002	7.0797068E-001	1.8974139E-006	1.2040426E-006	7.0680682E-007	7.6198518E-007	5.9811998E-007	5.0974018E-007	2.6835099E-001	8.3124965E-002	2.8093061E-001	1.7211000E+001	1.3229257E+002	4.2707800E+002	4.4709836E+002	-7.2789001E+001	0.0000000E+000	0.0000000E+000	0.0000000E+000	7.2789001E+001	0.0000000E+000	0.0000000E+000	0.0000000E+000	-7.2789001E+001	0.0000000E+000	0.0000000E+000	0.0000000E+000	-1.7211000E+001	0.0000000E+000	0.0000000E+000	0.0000000E+000	1.7211000E+001	3.2282836E+000	7.2789001E+001	2.656378510718545E-006
7.9433273E+004	3.4129403E+000	1.1544596E+000	3.6029069E+000	-1.8688599E+001	1.100220516867412E+003	4.5931843E-001	-4.7870216E-004	1.7355573E+000	1.7819287E-001	1.000000000000000E+000	38	1.4559046E-002	4.0409165E-003	0	-1.094069132658963E-005	4.4303474E-001	3.8868561E-001	8.8617849E+000	2.0521773E-005	3.6762234E-005	1.3487163E-005	1.6425658E-005	3.0086847E-005	2.3752473E-005	5.9825003E-002	2.2009337E-002	7.1097749E-001	1.6558779E-006	9.8881640E-007	6.6488082E-007	6.1894718E-007	6.7706378E-007	5.9353755E-007	2.6291937E-001	8.8934988E-002	2.7755365E-001	1.8688599E+001	1.7819289E+002	5.2679333E+002	5.5611505E+002	-7.1311401E+001	0.0000000E+000	0.0000000E+000	0.0000000E+000	7.1311401E+001	0.0000000E+000	0.0000000E+000	0.0000000E+000	-7.1311401E+001	0.0000000E+000	0.0000000E+000	0.0000000E+000	-1.8688599E+001	0.0000000E+000	0.0000000E+000	0.0000000E+000	1.8688599E+001	2.9563098E+000	7.1311401E+001	4.248521919724428E-006
6.3093828E+004	3.4471967E+000	1.3073223E+000	3.6867678E+000	-2.0768839E+001	1.101367517108563E+003	4.5929763E-001	5.7519206E-005	1.9295259E+000	2.4261874E-001	1.000000000000000E+000	38	1.4586142E-002	3.9563496E-003	0	-1.309472374016574E-005	5.0144511E-001	3.4792548E-001	8.6704397E+000	2.8773798E-005	2.7499502E-005	3.4881828E-005	1.1891675E-005	2.5277703E-005	3.4673318E-005	6.0480714E-002	3.9379902E-002	7.2354418E-001	1.0026331E-006	1.2939531E-006	6.9776826E-007	1.0358031E-006	8.7162772E-007	6.6243769E-007	2.5361472E-001	9.6181400E-002	2.7124029E-001	2.0768839E+001	2.4261874E+002	6.3974628E+002	6.8420697E+002	-6.9231163E+001	0.0000000E+000	0.0000000E+000	0.0000000E+000	6.9231163E+001	0.0000000E+000	0.0000000E+000	0.0000000E+000	-6.9231163E+001	0.0000000E+000	0.0000000E+000	0.0000000E+000	-2.0768839E+001	0.0000000E+000	0.0000000E+000	0.0000000E+000	2.0768839E+001	2.6368377E+000	6.9231163E+001	-2.154032413576109E-006
5.0122477E+004	3.4830296E+000	1.5287704E+000	3.8037658E+000	-2.3697618E+001	1.102514524656406E+003	4.5929459E-001	-6.4814388E-004	2.0770421E+000	3.3550760E-001	1.000000000000000E+000	38	1.4584339E-002	3.8341843E-003	0	-7.257922665694625E-006	4.7395462E-001	2.3785615E-001	8.8510504E+000	1.5901322E-005	3.0926418E-005	1.7873761E-005	3.0038345E-005	2.8278007E-005	2.6136235E-005	6.1733995E-002	3.7055004E-002	7.4460483E-001	9.3713862E-007	1.2891550E-006	6.3879025E-007	5.7379225E-007	8.2306957E-007	1.0419957E-006	2.4072967E-001	1.0566100E-001	2.6289737E-001	2.3697618E+001	3.3550757E+002	7.6439398E+002	8.3478351E+002	-6.6302383E+001	0.0000000E+000	0.0000000E+000	0.0000000E+000	6.6302383E+001	0.0000000E+000	0.0000000E+000	0.0000000E+000	-6.6302383E+001	0.0000000E+000	0.0000000E+000	0.0000000E+000	-2.3697618E+001	0.0000000E+000	0.0000000E+000	0.0000000E+000	2.3697618E+001	2.2783208E+000	6.6302383E+001	5.836801074471117E-006
3.9814063E+004	3.5308230E+000	1.8090839E+000	3.9673033E+000	-2.7129192E+001	1.103661535510852E+003	4.5928052E-001	-1.5660048E-004	2.2096574E+000	4.5946407E-001	1.000000000000000E+000	38	1.4630579E-002	3.6877894E-003	0	-4.740439671945448E-006	4.8381847E-001	2.5808567E-001	8.9224834E+000	4.2404292E-005	3.4756195E-005	1.8087949E-005	1.4986116E-005	1.6963671E-005	2.6137206E-005	5.8014441E-002	5.3634342E-002	7.7528340E-001	8.2591833E-007	1.3511140E-006	4.6515683E-007	4.1585369E-007	8.0614558E-007	7.8447493E-007	2.2432885E-001	1.1493914E-001	2.5206038E-001	2.7129192E+001	4.5946411E+002	8.9674463E+002	1.0076002E+003	-6.2870808E+001	0.0000000E+000	0.0000000E+000	0.0000000E+000	6.2870808E+001	0.0000000E+000	0.0000000E+000	0.0000000E+000	-6.2870808E+001	0.0000000E+000	0.0000000E+000	0.0000000E+000	-2.7129192E+001	0.0000000E+000	0.0000000E+000	0.0000000E+000	2.7129192E+001	1.9517187E+000	6.2870804E+001	2.517482993749177E-006
3.1621143E+004	3.5866613E+000	2.1766660E+000	4.1954756E+000	-3.1252644E+001	1.104808531138697E+003	4.5930943E-001	-7.5056363E-004	2.3123353E+000	6.2240344E-001	1.000000000000000E+000	38	1.4667428E-002	3.4960110E-003	0	-1.148888176798614E-006	4.7405958E-001	2.3754315E-001	8.5180817E+000	1.9076617E-005	2.7657297E-005	2.4329573E-005	1.9062745E-005	3.2647644E-005	2.6970518E-005	4.6457332E-002	5.5739898E-002	8.2360506E-001	2.9509545E-007	9.5325657E-007	5.3659943E-007	6.8132516E-007	4.3151553E-007	6.2021456E-007	2.0376424E-001	1.2366004E-001	2.3835200E-001	3.1252644E+001	6.2240344E+002	1.0255824E+003	1.1996688E+003	-5.8747356E+001	0.0000000E+000	0.0000000E+000	0.0000000E+000	5.8747356E+001	0.0000000E+000	0.0000000E+000	0.0000000E+000	-5.8747356E+001	0.0000000E+000	0.0000000E+000	0.0000000E+000	-3.1252644E+001	0.0000000E+000	0.0000000E+000	0.0000000E+000	3.1252644E+001	1.6477776E+000	5.8747360E+001	3.591551495146834E-006
2.5116906E+004	3.6539123E+000	2.6360114E+000	4.5055113E+000	-3.5807495E+001	1.105955522926524E+003	4.5932025E-001	8.9160247E-005	2.4038465E+000	8.2283568E-001	1.000000000000000E+000	38	1.4730874E-002	3.2695234E-003	0	3.121948006297720E-006	4.3908480E-001	3.1804773E-001	8.7379866E+000	2.2740207E-005	3.1626980E-005	2.5359501E-005	2.9042358E-005	1.7378836E-005	2.3183595E-005	4.8633941E-002	7.0071384E-002	8.9289957E-001	5.9845763E-007	8.4718363E-007	4.6599823E-007	6.1021819E-007	5.8074079E-007	5.2367454E-007	1.7999895E-001	1.2985514E-001	2.2195040E-001	3.5807495E+001	8.2283569E+002	1.1405753E+003	1.4064034E+003	-5.4192505E+001	0.0000000E+000	0.0000000E+000	0.0000000E+000	5.4192505E+001	0.0000000E+000	0.0000000E+000	0.0000000E+000	-5.4192505E+001	0.0000000E+000	0.0000000E+000	0.0000000E+000	-3.5807495E+001	0.0000000E+000	0.0000000E+000	0.0000000E+000	3.5807495E+001	1.3861519E+000	5.4192505E+001	4.270836183096334E-006
1.9948781E+004	3.7406967E+000	3.2061865E+000	4.9267073E+000	-4.0600193E+001	1.107102533247671E+003	4.5928526E-001	3.8332137E-004	2.4883702E+000	1.0538505E+000	1.000000000000000E+000	38	1.4784873E-002	3.0009644E-003	0	-3.942788317799568E-007	4.2120466E-001	2.3535304E-001	8.8059244E+000	2.2779626E-005	1.5895097E-005	2.2104059E-005	1.2196845E-005	3.3516000E-005	2.8629731E-005	7.1014293E-002	3.1266447E-002	9.6069872E-001	1.2672822E-006	1.0962219E-006	8.8382484E-007	5.1389128E-007	4.7792292E-007	5.5519047E-007	1.5411289E-001	1.3209163E-001	2.0297532E-001	4.0600193E+001	1.0538506E+003	1.2295402E+003	1.6193734E+003	-4.9399807E+001	0.0000000E+000	0.0000000E+000	0.0000000E+000	4.9399807E+001	0.0000000E+000	0.0000000E+000	0.0000000E+000	-4.9399807E+001	0.0000000E+000	0.0000000E+000	0.0000000E+000	-4.0600193E+001	0.0000000E+000	0.0000000E+000	0.0000000E+000	4.0600193E+001	1.1667122E+000	4.9399811E+001	-3.516226838077677E-006
1.5847683E+004	3.8550947E+000	3.9357316E+000	5.5092411E+000	-4.5593006E+001	1.108249539248820E+003	4.5930514E-001	-2.7394228E-004	2.5516956E+000	1.3022557E+000	1.000000000000000E+000	38	1.4812508E-002	2.6886656E-003	0	2.894701341555143E-006	5.2031368E-001	2.5843820E-001	8.8942060E+000	3.8261245E-005	2.8811135E-005	2.8957822E-005	2.9051249E-005	2.0557090E-005	2.9029825E-005	9.4883151E-002	1.5479635E-002	1.0591567E+000	1.6604122E-006	1.1396513E-006	3.0507846E-007	8.3422884E-007	6.1896014E-007	9.4992407E-007	1.2701397E-001	1.2967072E-001	1.8151321E-001	4.5593006E+001	1.3022557E+003	1.2755745E+003	1.8228989E+003	-4.4406994E+001	0.0000000E+000	0.0000000E+000	0.0000000E+000	4.4406994E+001	0.0000000E+000	0.0000000E+000	0.0000000E+000	-4.4406994E+001	0.0000000E+000	0.0000000E+000	0.0000000E+000	-4.5593006E+001	0.0000000E+000	0.0000000E+000	0.0000000E+000	4.5593006E+001	9.7951156E-001	4.4406998E+001	3.288980173335100E-006
1.2590930E+004	3.9973676E+000	4.8393755E+000	6.2768226E+000	-5.0442986E+001	1.109396522103285E+003	4.5930290E-001	-3.6518442E-004	2.6119993E+000	1.5526443E+000	1.000000000000000E+000	38	1.4782087E-002	2.3550270E-003	0	4.595630290038470E-006	3.5181850E-001	3.4370184E-001	8.5505037E+000	1.1318461E-005	1.6303955E-005	1.5609452E-005	2.0681457E-005	3.4620985E-005	1.6563114E-005	1.4909796E-001	3.5575461E-002	1.2096403E+000	3.0866192E-006	9.4524876E-007	6.5130143E-007	3.5947400E-007	8.2512906E-007	5.8048983E-007	1.0145989E-001	1.2283145E-001	1.5931627E-001	5.0442986E+001	1.5526440E+003	1.2824980E+003	2.0138284E+003	-3.9557014E+001	0.0000000E+000	0.0000000E+000	0.0000000E+000	3.9557014E+001	0.0000000E+000	0.0000000E+000	0.0000000E+000	-3.9557014E+001	0.0000000E+000	0.0000000E+000	0.0000000E+000	-5.0442986E+001	0.0000000E+000	0.0000000E+000	0.0000000E+000	5.0442986E+001	8.2600898E-001	3.9557007E+001	1.700928948483326E-006
