EC-Lab ASCII FILE
Nb header lines : 67                          

Potentio Electrochemical Impedance Spectroscopy

Run on channel : 15 (SN 19485)
User : 
Electrode connection : standard
Potential control : Ewe
Ewe ctrl range : min = -1.00 V, max = 1.00 V
Ewe,I filtering : 50 kHz
Safety Limits :
	Do not start on E overload
Channel : Floating
Acquisition started on : 02/23/2024 14:08:11.747
Loaded Setting File :  NONE
Saved on :
	File : 240223-OCV-EIS-Fe2Fe3_5mM-HCl1M-2000RPM-Ag_AgCl_BLF8-GC-RDE-1minRest-3ppf-14p1mVAmplitude_02_PEIS_C15.mpr
	Directory : C:\Data\mathias\RDE-RPM-variation\
	Host : 192.168.0.1
Device : VMP-300 (SN 0826)
Address : USB
EC-Lab for windows v11.52 (software)
Internet server v11.52 (firmware)
Command interpretor v11.52 (firmware)
Electrode material : 
Initial state : 
Electrolyte : 
Comments : 
Cable : special
Reference electrode : SCE Saturated Calomel Electrode (0.241 V)
Electrode surface area : 0.001 cm²
Characteristic mass : 0.001 g
Equivalent Weight : 0.000 g/eq.
Density : 0.000 g/cm3
Volume (V) : 0.001 cm³
Record EIS quality indicators
Cycle Definition : Charge/Discharge alternance
Mode                Single sine         
E (V)               0.0000              
vs.                 Ref                 
tE (h:m:s)          0:01:0.0000         
record              0                   
dI                  0.000               
unit dI             mA                  
dt (s)              0.000               
fi                  1.000               
unit fi             MHz                 
ff                  100.000             
unit ff             mHz                 
Nd                  10                  
Points              per decade          
spacing             Logarithmic         
Va (mV)             14.1                
pw                  0.10                
Na                  3                   
corr                0                   
E range min (V)     -1.000              
E range max (V)     1.000               
I Range             Auto                
Bandwidth           8                   
nc cycles           0                   
goto Ns'            0                   
nr cycles           0                   
inc. cycle          1                   

freq/Hz	Re(Z)/Ohm	-Im(Z)/Ohm	|Z|/Ohm	Phase(Z)/deg	time/s	<Ewe>/V	<I>/mA	Cs/µF	Cp/µF	cycle number	I Range	|Ewe|/V	|I|/A	Ns	(Q-Qo)/mA.h	THD Ewe/%	NSD Ewe/%	NSR Ewe/%	|Ewe h2|/V	|Ewe h3|/V	|Ewe h4|/V	|Ewe h5|/V	|Ewe h6|/V	|Ewe h7|/V	THD I/%	NSD I/%	NSR I/%	|I h2|/A	|I h3|/A	|I h4|/A	|I h5|/A	|I h6|/A	|I h7|/A	Re(Y)/Ohm-1	Im(Y)/Ohm-1	|Y|/Ohm-1	Phase(Y)/deg	Re(C)/nF	Im(C)/nF	|C|/nF	Phase(C)/deg	Re(M)	Im(M)	|M|	Phase(M)/deg	Re(Permittivity)	Im(Permittivity)	|Permittivity|	Phase(Permittivity)/deg	Re(Resistivity)/Ohm.cm	Im(Resistivity)/Ohm.cm	|Resistivity|/Ohm.cm	Phase(Resistivity)/deg	Re(Conductivity)/mS/cm	Im(Conductivity)/mS/cm	|Conductivity|/mS/cm	Phase(Conductivity)/deg	Tan(Delta)	Loss Angle(Delta)/deg	dq/mA.h	
1.0000186E+006	3.5500283E+000	4.0887499E+000	5.4148479E+000	-4.9034081E+001	1.182814801148634E+002	-1.7343913E-004	-5.1249045E-001	3.8924363E-002	2.2193719E-002	1.000000000000000E+000	38	1.1128861E-002	2.0552489E-003	0	-8.670935752667745E-003	-1	-1	-1	0	0	0	0	0	0	-1	-1	-1	0	0	0	0	0	0	1.2107635E-001	1.3944983E-001	1.8467739E-001	4.9034081E+001	2.2193720E+001	1.9269541E+001	2.9391775E+001	-4.0965919E+001	0.0000000E+000	0.0000000E+000	0.0000000E+000	4.0965919E+001	0.0000000E+000	0.0000000E+000	0.0000000E+000	-4.0965919E+001	0.0000000E+000	0.0000000E+000	0.0000000E+000	-4.9034081E+001	0.0000000E+000	0.0000000E+000	0.0000000E+000	4.9034081E+001	8.6824298E-001	4.0965912E+001	-8.670935752667745E-003
7.9433269E+005	3.5848842E+000	3.2009640E+000	4.8059926E+000	-4.1761852E+001	1.192934924296133E+002	-1.5973818E-004	-5.1283485E-001	6.2594607E-002	2.7767213E-002	1.000000000000000E+000	38	1.3858523E-002	2.8835924E-003	0	-8.816106564583360E-003	-1	-1	-1	0	0	0	0	0	0	-1	-1	-1	0	0	0	0	0	0	1.5520614E-001	1.3858448E-001	2.0807356E-001	4.1761852E+001	2.7767214E+001	3.1097584E+001	4.1690262E+001	-4.8238148E+001	0.0000000E+000	0.0000000E+000	0.0000000E+000	4.8238148E+001	0.0000000E+000	0.0000000E+000	0.0000000E+000	-4.8238148E+001	0.0000000E+000	0.0000000E+000	0.0000000E+000	-4.1761852E+001	0.0000000E+000	0.0000000E+000	0.0000000E+000	4.1761852E+001	1.1199390E+000	4.8238144E+001	-1.451708119156146E-004
6.3095681E+005	3.5670085E+000	2.5042484E+000	4.3583035E+000	-3.5071098E+001	1.204415000307636E+002	-1.6736222E-004	-5.1117027E-001	1.0072635E-001	3.3255462E-002	1.000000000000000E+000	38	1.4422906E-002	3.3092937E-003	0	-8.985179268318745E-003	-1	-1	-1	0	0	0	0	0	0	-1	-1	-1	0	0	0	0	0	0	1.8778859E-001	1.3183858E-001	2.2944708E-001	3.5071098E+001	3.3255459E+001	4.7368507E+001	5.7876602E+001	-5.4928902E+001	0.0000000E+000	0.0000000E+000	0.0000000E+000	5.4928902E+001	0.0000000E+000	0.0000000E+000	0.0000000E+000	-5.4928902E+001	0.0000000E+000	0.0000000E+000	0.0000000E+000	-3.5071098E+001	0.0000000E+000	0.0000000E+000	0.0000000E+000	3.5071098E+001	1.4243829E+000	5.4928902E+001	-1.690727037353852E-004
5.0120622E+005	3.5363708E+000	1.9795156E+000	4.0527029E+000	-2.9238316E+001	1.215894909386552E+002	-1.9144600E-004	-5.1233584E-001	1.6041493E-001	3.8271286E-002	1.000000000000000E+000	38	1.4551054E-002	3.5904564E-003	0	-9.143866049532986E-003	-1	-1	-1	0	0	0	0	0	0	-1	-1	-1	0	0	0	0	0	0	2.1531202E-001	1.2052285E-001	2.4674891E-001	2.9238316E+001	3.8271286E+001	6.8371002E+001	7.8353592E+001	-6.0761684E+001	0.0000000E+000	0.0000000E+000	0.0000000E+000	6.0761684E+001	0.0000000E+000	0.0000000E+000	0.0000000E+000	-6.0761684E+001	0.0000000E+000	0.0000000E+000	0.0000000E+000	-2.9238316E+001	0.0000000E+000	0.0000000E+000	0.0000000E+000	2.9238316E+001	1.7864829E+000	6.0761688E+001	-1.586867812142408E-004
3.9810347E+005	3.4927647E+000	1.5924764E+000	3.8386698E+000	-2.4509939E+001	1.227354905930843E+002	-1.7850935E-004	-5.1242703E-001	2.5104478E-001	4.3205164E-002	1.000000000000000E+000	38	1.4554280E-002	3.7914906E-003	0	-9.295413467762940E-003	-1	-1	-1	0	0	0	0	0	0	-1	-1	-1	0	0	0	0	0	0	2.3703244E-001	1.0807157E-001	2.6050690E-001	2.4509939E+001	4.3205166E+001	9.4761505E+001	1.0414619E+002	-6.5490059E+001	0.0000000E+000	0.0000000E+000	0.0000000E+000	6.5490059E+001	0.0000000E+000	0.0000000E+000	0.0000000E+000	-6.5490059E+001	0.0000000E+000	0.0000000E+000	0.0000000E+000	-2.4509939E+001	0.0000000E+000	0.0000000E+000	0.0000000E+000	2.4509939E+001	2.1932914E+000	6.5490059E+001	-1.515474182299543E-004
3.1622997E+005	3.4553723E+000	1.3135144E+000	3.6966090E+000	-2.0813643E+001	1.238824951542338E+002	-1.7994469E-004	-5.1330960E-001	3.8316187E-001	4.8377663E-002	1.000000000000000E+000	38	1.4537040E-002	3.9325338E-003	0	-9.465482558476505E-003	-1	-1	-1	0	0	0	0	0	0	-1	-1	-1	0	0	0	0	0	0	2.5286445E-001	9.6123099E-002	2.7051818E-001	2.0813643E+001	4.8377670E+001	1.2726381E+002	1.3614873E+002	-6.9186356E+001	0.0000000E+000	0.0000000E+000	0.0000000E+000	6.9186356E+001	0.0000000E+000	0.0000000E+000	0.0000000E+000	-6.9186356E+001	0.0000000E+000	0.0000000E+000	0.0000000E+000	-2.0813643E+001	0.0000000E+000	0.0000000E+000	0.0000000E+000	2.0813643E+001	2.6306317E+000	6.9186356E+001	-1.700690907135653E-004
2.5118764E+005	3.4294975E+000	1.1216054E+000	3.6082478E+000	-1.8110155E+001	1.250294792620261E+002	-1.5675565E-004	-5.1143092E-001	5.6491327E-001	5.4584488E-002	1.000000000000000E+000	38	1.4557370E-002	4.0344708E-003	0	-9.627141360297619E-003	-1	-1	-1	0	0	0	0	0	0	-1	-1	-1	0	0	0	0	0	0	2.6341334E-001	8.6148433E-002	2.7714282E-001	1.8110155E+001	5.4584484E+001	1.6690128E+002	1.7560040E+002	-7.1889847E+001	0.0000000E+000	0.0000000E+000	0.0000000E+000	7.1889847E+001	0.0000000E+000	0.0000000E+000	0.0000000E+000	-7.1889847E+001	0.0000000E+000	0.0000000E+000	0.0000000E+000	-1.8110155E+001	0.0000000E+000	0.0000000E+000	0.0000000E+000	1.8110155E+001	3.0576684E+000	7.1889847E+001	-1.616588018211133E-004
1.9954350E+005	3.4154286E+000	9.8874205E-001	3.5556664E+000	-1.6145350E+001	1.261774830765353E+002	-1.7308490E-004	-5.1059675E-001	8.0667675E-001	6.2376864E-002	1.000000000000000E+000	38	1.4539528E-002	4.0891147E-003	0	-9.788271825136436E-003	-1	-1	-1	0	0	0	0	0	0	-1	-1	-1	0	0	0	0	0	0	2.7014890E-001	7.8206167E-002	2.8124124E-001	1.6145350E+001	6.2376854E+001	2.1546947E+002	2.2431667E+002	-7.3854652E+001	0.0000000E+000	0.0000000E+000	0.0000000E+000	7.3854652E+001	0.0000000E+000	0.0000000E+000	0.0000000E+000	-7.3854652E+001	0.0000000E+000	0.0000000E+000	0.0000000E+000	-1.6145350E+001	0.0000000E+000	0.0000000E+000	0.0000000E+000	1.6145350E+001	3.4543171E+000	7.3854652E+001	-1.611304648388174E-004
1.5848613E+005	3.4133203E+000	9.2909217E-001	3.5375087E+000	-1.5226783E+001	1.273244970510277E+002	-1.5071606E-004	-5.1204723E-001	1.0808616E+000	7.4557722E-002	1.000000000000000E+000	38	1.4563232E-002	4.1168043E-003	0	-9.956064288761571E-003	-1	-1	-1	0	0	0	0	0	0	-1	-1	-1	0	0	0	0	0	0	2.7276081E-001	7.4244402E-002	2.8268480E-001	1.5226783E+001	7.4557732E+001	2.7391193E+002	2.8387778E+002	-7.4773216E+001	0.0000000E+000	0.0000000E+000	0.0000000E+000	7.4773216E+001	0.0000000E+000	0.0000000E+000	0.0000000E+000	-7.4773216E+001	0.0000000E+000	0.0000000E+000	0.0000000E+000	-1.5226783E+001	0.0000000E+000	0.0000000E+000	0.0000000E+000	1.5226783E+001	3.6738231E+000	7.4773216E+001	-1.677924636251348E-004
1.2590929E+005	3.4095800E+000	9.0339488E-001	3.5272310E+000	-1.4839969E+001	1.284724771055771E+002	-1.7481850E-004	-5.1210493E-001	1.3992159E+000	9.1785103E-002	1.000000000000000E+000	38	1.4543942E-002	4.1233315E-003	0	-1.011824882936033E-002	-1	-1	-1	0	0	0	0	0	0	-1	-1	-1	0	0	0	0	0	0	2.7405208E-001	7.2612241E-002	2.8350851E-001	1.4839969E+001	9.1785080E+001	3.4641400E+002	3.5836737E+002	-7.5160034E+001	0.0000000E+000	0.0000000E+000	0.0000000E+000	7.5160034E+001	0.0000000E+000	0.0000000E+000	0.0000000E+000	-7.5160034E+001	0.0000000E+000	0.0000000E+000	0.0000000E+000	-1.4839969E+001	0.0000000E+000	0.0000000E+000	0.0000000E+000	1.4839969E+001	3.7741857E+000	7.5160034E+001	-1.621845405987560E-004
1.0000371E+005	3.4302914E+000	9.2489117E-001	3.5527909E+000	-1.5089529E+001	1.296194815333729E+002	-1.7972100E-004	-5.1143652E-001	1.7207326E+000	1.1661525E-001	1.000000000000000E+000	38	1.4549450E-002	4.0952172E-003	0	-1.028697378461042E-002	5.4417014E-001	2.4894828E-001	8.9477081E+000	3.1578857E-005	3.7961057E-005	2.5257810E-005	2.8225722E-005	2.7746864E-005	2.3544670E-005	6.4809375E-002	3.4623373E-002	6.9654787E-001	1.7198616E-006	1.2217910E-006	9.2525011E-007	7.5640395E-007	4.5362029E-007	6.4939496E-007	2.7176389E-001	7.3274247E-002	2.8146887E-001	1.5089529E+001	1.1661526E+002	4.3250955E+002	4.4795496E+002	-7.4910469E+001	0.0000000E+000	0.0000000E+000	0.0000000E+000	7.4910469E+001	0.0000000E+000	0.0000000E+000	0.0000000E+000	-7.4910469E+001	0.0000000E+000	0.0000000E+000	0.0000000E+000	-1.5089529E+001	0.0000000E+000	0.0000000E+000	0.0000000E+000	1.5089529E+001	3.7088594E+000	7.4910469E+001	-1.687249552500946E-004
7.9433273E+004	3.4460821E+000	9.9341792E-001	3.5864134E+000	-1.6080927E+001	1.307684963079664E+002	-1.6344765E-004	-5.1076621E-001	2.0169060E+000	1.5474939E-001	1.000000000000000E+000	38	1.4542527E-002	4.0548942E-003	0	-1.045130348953372E-002	4.8735175E-001	3.0758518E-001	8.8019152E+000	3.0408270E-005	2.0093035E-005	3.2293312E-005	3.5666522E-005	2.2306303E-005	1.6552953E-005	7.2646551E-002	2.8751314E-002	7.1441317E-001	1.6067501E-006	1.6466598E-006	1.2234941E-006	6.5644355E-007	4.7049124E-007	6.3667267E-007	2.6791990E-001	7.7234492E-002	2.7883011E-001	1.6080927E+001	1.5474937E+002	5.3681250E+002	5.5867255E+002	-7.3919075E+001	0.0000000E+000	0.0000000E+000	0.0000000E+000	7.3919075E+001	0.0000000E+000	0.0000000E+000	0.0000000E+000	-7.3919075E+001	0.0000000E+000	0.0000000E+000	0.0000000E+000	-1.6080927E+001	0.0000000E+000	0.0000000E+000	0.0000000E+000	1.6080927E+001	3.4689147E+000	7.3919075E+001	-1.643297049232981E-004
6.3093828E+004	3.4839504E+000	1.1033267E+000	3.6544821E+000	-1.7572392E+001	1.319154928957723E+002	-1.6823832E-004	-5.1048505E-001	2.2862785E+000	2.0839423E-001	1.000000000000000E+000	38	1.4582717E-002	3.9903647E-003	0	-1.061334744949189E-002	4.9648920E-001	2.4644367E-001	8.9001703E+000	3.1125732E-005	3.9434766E-005	1.7499682E-005	2.4697294E-005	3.1497508E-005	1.9816607E-005	6.4593732E-002	4.0010411E-002	7.1540260E-001	1.3672678E-006	1.4770403E-006	7.2490542E-007	9.8302451E-007	4.7740855E-007	5.4303774E-007	2.6086769E-001	8.2613774E-002	2.7363658E-001	1.7572392E+001	2.0839420E+002	6.5804187E+002	6.9025159E+002	-7.2427612E+001	0.0000000E+000	0.0000000E+000	0.0000000E+000	7.2427612E+001	0.0000000E+000	0.0000000E+000	0.0000000E+000	-7.2427612E+001	0.0000000E+000	0.0000000E+000	0.0000000E+000	-1.7572392E+001	0.0000000E+000	0.0000000E+000	0.0000000E+000	1.7572392E+001	3.1576779E+000	7.2427612E+001	-1.620439599581674E-004
5.0122477E+004	3.5271578E+000	1.2677085E+000	3.7480564E+000	-1.9769129E+001	1.330624935635860E+002	-1.9418618E-004	-5.1179028E-001	2.5047719E+000	2.8654629E-001	1.000000000000000E+000	38	1.4576915E-002	3.8891931E-003	0	-1.077007264615916E-002	5.1289713E-001	2.3160110E-001	8.9195337E+000	1.3375396E-005	2.9733797E-005	1.8789782E-005	3.0182846E-005	4.2234158E-005	3.4098339E-005	5.9675831E-002	1.6589528E-002	7.2129375E-001	9.9795977E-007	1.4756180E-006	8.1020886E-007	8.6271353E-007	2.9194359E-007	5.0453167E-007	2.5108030E-001	9.0241686E-002	2.6680496E-001	1.9769129E+001	2.8654623E+002	7.9726044E+002	8.4719122E+002	-7.0230873E+001	0.0000000E+000	0.0000000E+000	0.0000000E+000	7.0230873E+001	0.0000000E+000	0.0000000E+000	0.0000000E+000	-7.0230873E+001	0.0000000E+000	0.0000000E+000	0.0000000E+000	-1.9769129E+001	0.0000000E+000	0.0000000E+000	0.0000000E+000	1.9769129E+001	2.7823098E+000	7.0230873E+001	-1.567251966672744E-004
3.9814063E+004	3.5846586E+000	1.4759820E+000	3.8766351E+000	-2.2379398E+001	1.342095007380849E+002	-1.7509810E-004	-5.1021695E-001	2.7083364E+000	3.9260411E-001	1.000000000000000E+000	38	1.4616769E-002	3.7704783E-003	0	-1.092985322253014E-002	5.1085067E-001	3.8991445E-001	8.8489952E+000	3.7842590E-005	1.1618205E-005	2.1828380E-005	1.7805767E-005	3.2389922E-005	3.7209276E-005	5.5599693E-002	5.7578515E-002	7.6523727E-001	3.9125382E-007	1.1323493E-006	8.3109018E-007	8.0058709E-007	6.8389858E-007	7.2772673E-007	2.3852722E-001	9.8213501E-002	2.5795567E-001	2.2379398E+001	3.9260406E+002	9.5350201E+002	1.0311664E+003	-6.7620605E+001	0.0000000E+000	0.0000000E+000	0.0000000E+000	6.7620605E+001	0.0000000E+000	0.0000000E+000	0.0000000E+000	-6.7620605E+001	0.0000000E+000	0.0000000E+000	0.0000000E+000	-2.2379398E+001	0.0000000E+000	0.0000000E+000	0.0000000E+000	2.2379398E+001	2.4286602E+000	6.7620605E+001	-1.597805763709804E-004
3.1621143E+004	3.6469569E+000	1.7474487E+000	4.0439920E+000	-2.5601530E+001	1.353564810325188E+002	-1.6139717E-004	-5.0947034E-001	2.8803027E+000	5.3780693E-001	1.000000000000000E+000	38	1.4652375E-002	3.6232453E-003	0	-1.109060255965920E-002	5.4058301E-001	2.0709682E-001	8.8607359E+000	2.5181200E-005	2.3833671E-005	4.3183751E-005	2.6556840E-005	2.6494125E-005	3.1610285E-005	5.3220626E-002	5.5108856E-002	7.9760551E-001	6.3698735E-007	8.6156837E-007	8.5896710E-007	5.8535545E-007	2.4115002E-007	8.2398287E-007	2.2300266E-001	1.0685229E-001	2.4728040E-001	2.5601530E+001	5.3780701E+002	1.1224128E+003	1.2446072E+003	-6.4398468E+001	0.0000000E+000	0.0000000E+000	0.0000000E+000	6.4398468E+001	0.0000000E+000	0.0000000E+000	0.0000000E+000	-6.4398468E+001	0.0000000E+000	0.0000000E+000	0.0000000E+000	-2.5601530E+001	0.0000000E+000	0.0000000E+000	0.0000000E+000	2.5601530E+001	2.0870180E+000	6.4398468E+001	-1.607493371290607E-004
2.5116906E+004	3.7275753E+000	2.0908546E+000	4.2739315E+000	-2.9288742E+001	1.365034931670089E+002	-1.7239520E-004	-5.1172882E-001	3.0306108E+000	7.2530842E-001	1.000000000000000E+000	38	1.4700287E-002	3.4395233E-003	0	-1.125354484073722E-002	4.1643226E-001	2.5527406E-001	8.8123436E+000	2.2583901E-005	1.7555858E-005	1.9731118E-005	2.4780595E-005	3.3678865E-005	1.4621760E-005	4.7772843E-002	5.9034187E-002	8.5262024E-001	5.0239487E-007	1.0587112E-006	6.8633693E-007	4.1974593E-007	5.0128455E-007	4.3972625E-007	2.0406631E-001	1.1446395E-001	2.3397660E-001	2.9288742E+001	7.2530841E+002	1.2930797E+003	1.4826083E+003	-6.0711258E+001	0.0000000E+000	0.0000000E+000	0.0000000E+000	6.0711258E+001	0.0000000E+000	0.0000000E+000	0.0000000E+000	-6.0711258E+001	0.0000000E+000	0.0000000E+000	0.0000000E+000	-2.9288742E+001	0.0000000E+000	0.0000000E+000	0.0000000E+000	2.9288742E+001	1.7827998E+000	6.0711258E+001	-1.629422810780178E-004
1.9948781E+004	3.8280447E+000	2.5168223E+000	4.5813012E+000	-3.3323696E+001	1.376505034348374E+002	-1.4010949E-004	-5.1053721E-001	3.1699412E+000	9.5670629E-001	1.000000000000000E+000	38	1.4689318E-002	3.2063636E-003	0	-1.141829124206092E-002	4.2240733E-001	2.4171342E-001	8.8116255E+000	2.4573141E-005	2.3810177E-005	2.5408628E-005	2.0874773E-005	2.6057540E-005	2.3905233E-005	5.7437398E-002	4.0196970E-002	9.0934724E-001	9.5998791E-007	8.2884480E-007	5.1484562E-007	4.7039956E-007	5.5986078E-007	8.3020041E-007	1.8238929E-001	1.1991537E-001	2.1827860E-001	3.3323696E+001	9.5670630E+002	1.4551343E+003	1.7414657E+003	-5.6676304E+001	0.0000000E+000	0.0000000E+000	0.0000000E+000	5.6676304E+001	0.0000000E+000	0.0000000E+000	0.0000000E+000	-5.6676304E+001	0.0000000E+000	0.0000000E+000	0.0000000E+000	-3.3323696E+001	0.0000000E+000	0.0000000E+000	0.0000000E+000	3.3323696E+001	1.5209832E+000	5.6676300E+001	-1.647464013237038E-004
1.5847683E+004	3.9556212E+000	3.0480776E+000	4.9937677E+000	-3.7616718E+001	1.387974904760049E+002	-1.7731635E-004	-5.0860828E-001	3.2947946E+000	1.2275062E+000	1.000000000000000E+000	38	1.4726154E-002	2.9489063E-003	0	-1.157775285222609E-002	5.1342309E-001	2.2709709E-001	8.8390799E+000	2.2442828E-005	3.9493705E-005	3.7988160E-005	1.7332393E-005	2.2104594E-005	2.7142523E-005	8.3009958E-002	2.9496441E-002	9.8658633E-001	1.6963301E-006	7.8738685E-007	4.2879569E-007	1.2365138E-006	4.6528010E-007	5.0035749E-007	1.5862003E-001	1.2222761E-001	2.0024960E-001	3.7616718E+001	1.2275062E+003	1.5929877E+003	2.0110647E+003	-5.2383282E+001	0.0000000E+000	0.0000000E+000	0.0000000E+000	5.2383282E+001	0.0000000E+000	0.0000000E+000	0.0000000E+000	-5.2383282E+001	0.0000000E+000	0.0000000E+000	0.0000000E+000	-3.7616718E+001	0.0000000E+000	0.0000000E+000	0.0000000E+000	3.7616718E+001	1.2977430E+000	5.2383286E+001	-1.594616101651663E-004
1.2590930E+004	4.1117697E+000	3.7055681E+000	5.5351501E+000	-4.2025490E+001	1.399444836504554E+002	-1.8247981E-004	-5.1037335E-001	3.4112031E+000	1.5288271E+000	1.000000000000000E+000	38	1.4700261E-002	2.6558016E-003	0	-1.173538364949385E-002	4.2352420E-001	2.3090595E-001	8.7687206E+000	2.6304895E-005	1.5136661E-005	2.2967359E-005	3.6501850E-005	1.7551600E-005	1.4720813E-005	1.1892359E-001	4.2352971E-002	1.0903020E+000	2.5686884E-006	1.1238409E-006	9.3042087E-007	5.0722338E-007	7.3086954E-007	4.8073451E-007	1.3420540E-001	1.2094724E-001	1.8066357E-001	4.2025490E+001	1.5288268E+003	1.6964159E+003	2.2836677E+003	-4.7974510E+001	0.0000000E+000	0.0000000E+000	0.0000000E+000	4.7974510E+001	0.0000000E+000	0.0000000E+000	0.0000000E+000	-4.7974510E+001	0.0000000E+000	0.0000000E+000	0.0000000E+000	-4.2025490E+001	0.0000000E+000	0.0000000E+000	0.0000000E+000	4.2025490E+001	1.1096193E+000	4.7974518E+001	-1.576307972677628E-004
