EC-Lab ASCII FILE
Nb header lines : 67                          

Potentio Electrochemical Impedance Spectroscopy

Run on channel : 15 (SN 19485)
User : 
Electrode connection : standard
Potential control : Ewe
Ewe ctrl range : min = -1.00 V, max = 1.00 V
Ewe,I filtering : 50 kHz
Safety Limits :
	Do not start on E overload
Channel : Floating
Acquisition started on : 02/23/2024 15:19:09.853
Loaded Setting File :  NONE
Saved on :
	File : 240223-OCV-EIS-Fe2Fe3_5mM-HCl1M-625RPM-Ag_AgCl_BLF8-GC-RDE-1minRestVSEoc-3ppf-14p1mVAmplitude_06_PEIS_C15.mpr
	Directory : C:\Data\mathias\RDE-RPM-variation\
	Host : 192.168.0.1
Device : VMP-300 (SN 0826)
Address : USB
EC-Lab for windows v11.52 (software)
Internet server v11.52 (firmware)
Command interpretor v11.52 (firmware)
Electrode material : 
Initial state : 
Electrolyte : 
Comments : 
Cable : special
Reference electrode : SCE Saturated Calomel Electrode (0.241 V)
Electrode surface area : 0.001 cm²
Characteristic mass : 0.001 g
Equivalent Weight : 0.000 g/eq.
Density : 0.000 g/cm3
Volume (V) : 0.001 cm³
Record EIS quality indicators
Cycle Definition : Charge/Discharge alternance
Mode                Single sine         
E (V)               0.0000              
vs.                 Eoc                 
tE (h:m:s)          0:01:0.0000         
record              0                   
dI                  0.000               
unit dI             mA                  
dt (s)              0.000               
fi                  1.000               
unit fi             MHz                 
ff                  100.000             
unit ff             mHz                 
Nd                  10                  
Points              per decade          
spacing             Logarithmic         
Va (mV)             14.1                
pw                  0.10                
Na                  3                   
corr                0                   
E range min (V)     -1.000              
E range max (V)     1.000               
I Range             Auto                
Bandwidth           8                   
nc cycles           0                   
goto Ns'            0                   
nr cycles           0                   
inc. cycle          1                   

freq/Hz	Re(Z)/Ohm	-Im(Z)/Ohm	|Z|/Ohm	Phase(Z)/deg	time/s	<Ewe>/V	<I>/mA	Cs/µF	Cp/µF	cycle number	I Range	|Ewe|/V	|I|/A	Ns	(Q-Qo)/mA.h	THD Ewe/%	NSD Ewe/%	NSR Ewe/%	|Ewe h2|/V	|Ewe h3|/V	|Ewe h4|/V	|Ewe h5|/V	|Ewe h6|/V	|Ewe h7|/V	THD I/%	NSD I/%	NSR I/%	|I h2|/A	|I h3|/A	|I h4|/A	|I h5|/A	|I h6|/A	|I h7|/A	Re(Y)/Ohm-1	Im(Y)/Ohm-1	|Y|/Ohm-1	Phase(Y)/deg	Re(C)/nF	Im(C)/nF	|C|/nF	Phase(C)/deg	Re(M)	Im(M)	|M|	Phase(M)/deg	Re(Permittivity)	Im(Permittivity)	|Permittivity|	Phase(Permittivity)/deg	Re(Resistivity)/Ohm.cm	Im(Resistivity)/Ohm.cm	|Resistivity|/Ohm.cm	Phase(Resistivity)/deg	Re(Conductivity)/mS/cm	Im(Conductivity)/mS/cm	|Conductivity|/mS/cm	Phase(Conductivity)/deg	Tan(Delta)	Loss Angle(Delta)/deg	dq/mA.h	
1.0000186E+006	3.5326929E+000	4.0875244E+000	5.4025712E+000	-4.9164383E+001	1.085188134935874E+003	4.5950308E-001	-1.0451341E-002	3.8936034E-002	2.2288017E-002	1.000000000000000E+000	38	1.1161285E-002	2.0659210E-003	0	-7.755507453875098E-006	-1	-1	-1	0	0	0	0	0	0	-1	-1	-1	0	0	0	0	0	0	1.2103331E-001	1.4004235E-001	1.8509705E-001	4.9164383E+001	2.2288015E+001	1.9262690E+001	2.9458561E+001	-4.0835617E+001	0.0000000E+000	0.0000000E+000	0.0000000E+000	4.0835617E+001	0.0000000E+000	0.0000000E+000	0.0000000E+000	-4.0835617E+001	0.0000000E+000	0.0000000E+000	0.0000000E+000	-4.9164383E+001	0.0000000E+000	0.0000000E+000	0.0000000E+000	4.9164383E+001	8.6426222E-001	4.0835617E+001	-7.755507453875098E-006
7.9433269E+005	3.5590174E+000	3.2046998E+000	4.7892280E+000	-4.2001301E+001	1.086199120210556E+003	4.5953852E-001	-1.3240754E-003	6.2521636E-002	2.7994584E-002	1.000000000000000E+000	38	1.3894771E-002	2.9012549E-003	0	-7.728574754062316E-006	-1	-1	-1	0	0	0	0	0	0	-1	-1	-1	0	0	0	0	0	0	1.5516689E-001	1.3971928E-001	2.0880193E-001	4.2001301E+001	2.7994585E+001	3.1089718E+001	4.1836197E+001	-4.7998699E+001	0.0000000E+000	0.0000000E+000	0.0000000E+000	4.7998699E+001	0.0000000E+000	0.0000000E+000	0.0000000E+000	-4.7998699E+001	0.0000000E+000	0.0000000E+000	0.0000000E+000	-4.2001301E+001	0.0000000E+000	0.0000000E+000	0.0000000E+000	4.2001301E+001	1.1105618E+000	4.7998703E+001	2.693269981278215E-008
6.3095681E+005	3.5493701E+000	2.5237927E+000	4.3551760E+000	-3.5414867E+001	1.087346113571679E+003	4.5952764E-001	-1.3463864E-003	9.9946320E-002	3.3563156E-002	1.000000000000000E+000	38	1.4457882E-002	3.3197009E-003	0	-7.362865373822084E-006	-1	-1	-1	0	0	0	0	0	0	-1	-1	-1	0	0	0	0	0	0	1.8712847E-001	1.3305838E-001	2.2961184E-001	3.5414867E+001	3.3563152E+001	4.7202000E+001	5.7918167E+001	-5.4585133E+001	0.0000000E+000	0.0000000E+000	0.0000000E+000	5.4585133E+001	0.0000000E+000	0.0000000E+000	0.0000000E+000	-5.4585133E+001	0.0000000E+000	0.0000000E+000	0.0000000E+000	-3.5414867E+001	0.0000000E+000	0.0000000E+000	0.0000000E+000	3.5414867E+001	1.4063635E+000	5.4585129E+001	3.657093802402316E-007
5.0120622E+005	3.5184135E+000	2.0087125E+000	4.0514393E+000	-2.9722664E+001	1.088494135839530E+003	4.5951998E-001	-1.4431975E-003	1.5808326E-001	3.8860001E-002	1.000000000000000E+000	38	1.4576732E-002	3.5979145E-003	0	-2.547168855581226E-006	-1	-1	-1	0	0	0	0	0	0	-1	-1	-1	0	0	0	0	0	0	2.1435232E-001	1.2237681E-001	2.4682586E-001	2.9722664E+001	3.8860001E+001	6.8066261E+001	7.8378029E+001	-6.0277336E+001	0.0000000E+000	0.0000000E+000	0.0000000E+000	6.0277336E+001	0.0000000E+000	0.0000000E+000	0.0000000E+000	-6.0277336E+001	0.0000000E+000	0.0000000E+000	0.0000000E+000	-2.9722664E+001	0.0000000E+000	0.0000000E+000	0.0000000E+000	2.9722664E+001	1.7515764E+000	6.0277336E+001	4.815696518240859E-006
3.9810347E+005	3.4742818E+000	1.6283021E+000	3.8369260E+000	-2.5111217E+001	1.089641120427361E+003	4.5953509E-001	-1.7969571E-003	2.4552132E-001	4.4217311E-002	1.000000000000000E+000	38	1.4575285E-002	3.7986881E-003	0	3.684380794028079E-006	-1	-1	-1	0	0	0	0	0	0	-1	-1	-1	0	0	0	0	0	0	2.3599249E-001	1.1060331E-001	2.6062530E-001	2.5111217E+001	4.4217316E+001	9.4345757E+001	1.0419353E+002	-6.4888779E+001	0.0000000E+000	0.0000000E+000	0.0000000E+000	6.4888779E+001	0.0000000E+000	0.0000000E+000	0.0000000E+000	-6.4888779E+001	0.0000000E+000	0.0000000E+000	0.0000000E+000	-2.5111217E+001	0.0000000E+000	0.0000000E+000	0.0000000E+000	2.5111217E+001	2.1336837E+000	6.4888779E+001	6.231549649609305E-006
3.1622997E+005	3.4378917E+000	1.3591846E+000	3.6968205E+000	-2.1571569E+001	1.090788120135156E+003	4.5951414E-001	-2.0259807E-003	3.7028715E-001	5.0054006E-002	1.000000000000000E+000	38	1.4545579E-002	3.9346186E-003	0	1.061508797253999E-005	-1	-1	-1	0	0	0	0	0	0	-1	-1	-1	0	0	0	0	0	0	2.5155646E-001	9.9453881E-002	2.7050272E-001	2.1571569E+001	5.0054012E+001	1.2660550E+002	1.3614095E+002	-6.8428429E+001	0.0000000E+000	0.0000000E+000	0.0000000E+000	6.8428429E+001	0.0000000E+000	0.0000000E+000	0.0000000E+000	-6.8428429E+001	0.0000000E+000	0.0000000E+000	0.0000000E+000	-2.1571569E+001	0.0000000E+000	0.0000000E+000	0.0000000E+000	2.1571569E+001	2.5293779E+000	6.8428429E+001	6.930707178511916E-006
2.5118764E+005	3.4180117E+000	1.1737053E+000	3.6139159E+000	-1.8951874E+001	1.091936128323039E+003	4.5949179E-001	-2.5026200E-003	5.3983718E-001	5.6940969E-002	1.000000000000000E+000	38	1.4551717E-002	4.0265787E-003	0	1.805624374550664E-006	-1	-1	-1	0	0	0	0	0	0	-1	-1	-1	0	0	0	0	0	0	2.6170829E-001	8.9867570E-002	2.7670816E-001	1.8951874E+001	5.6940968E+001	1.6582091E+002	1.7532498E+002	-7.1048126E+001	0.0000000E+000	0.0000000E+000	0.0000000E+000	7.1048126E+001	0.0000000E+000	0.0000000E+000	0.0000000E+000	-7.1048126E+001	0.0000000E+000	0.0000000E+000	0.0000000E+000	-1.8951874E+001	0.0000000E+000	0.0000000E+000	0.0000000E+000	1.8951874E+001	2.9121549E+000	7.1048126E+001	-8.809463597989331E-006
1.9954350E+005	3.4040265E+000	1.0536385E+000	3.5633624E+000	-1.7198713E+001	1.093083137070833E+003	4.5951521E-001	-1.5213911E-003	7.5699145E-001	6.6184178E-002	1.000000000000000E+000	38	1.4558896E-002	4.0857187E-003	0	8.451315211675440E-006	-1	-1	-1	0	0	0	0	0	0	-1	-1	-1	0	0	0	0	0	0	2.6808530E-001	8.2979664E-002	2.8063384E-001	1.7198713E+001	6.6184189E+001	2.1382355E+002	2.2383220E+002	-7.2801285E+001	0.0000000E+000	0.0000000E+000	0.0000000E+000	7.2801285E+001	0.0000000E+000	0.0000000E+000	0.0000000E+000	-7.2801285E+001	0.0000000E+000	0.0000000E+000	0.0000000E+000	-1.7198713E+001	0.0000000E+000	0.0000000E+000	0.0000000E+000	1.7198713E+001	3.2307348E+000	7.2801285E+001	6.645690837124777E-006
1.5848613E+005	3.4039037E+000	1.0083581E+000	3.5501192E+000	-1.6501175E+001	1.094229118351956E+003	4.5951059E-001	-3.9306001E-004	9.9589622E-001	8.0344811E-002	1.000000000000000E+000	38	1.4592451E-002	4.1104117E-003	0	1.517418607280383E-006	-1	-1	-1	0	0	0	0	0	0	-1	-1	-1	0	0	0	0	0	0	2.7007934E-001	8.0007173E-002	2.8168067E-001	1.6501175E+001	8.0344810E+001	2.7121912E+002	2.8286938E+002	-7.3498825E+001	0.0000000E+000	0.0000000E+000	0.0000000E+000	7.3498825E+001	0.0000000E+000	0.0000000E+000	0.0000000E+000	-7.3498825E+001	0.0000000E+000	0.0000000E+000	0.0000000E+000	-1.6501175E+001	0.0000000E+000	0.0000000E+000	0.0000000E+000	1.6501175E+001	3.3756893E+000	7.3498825E+001	-6.933896604395058E-006
1.2590929E+005	3.4078379E+000	1.0079937E+000	3.5537882E+000	-1.6477526E+001	1.095378137606502E+003	4.5950726E-001	-1.0205287E-003	1.2540202E+000	1.0088744E-001	1.000000000000000E+000	38	1.4575624E-002	4.1014329E-003	0	6.350485308858980E-007	-1	-1	-1	0	0	0	0	0	0	-1	-1	-1	0	0	0	0	0	0	2.6983348E-001	7.9813205E-002	2.8138986E-001	1.6477526E+001	1.0088744E+002	3.4108154E+002	3.5568933E+002	-7.3522476E+001	0.0000000E+000	0.0000000E+000	0.0000000E+000	7.3522476E+001	0.0000000E+000	0.0000000E+000	0.0000000E+000	-7.3522476E+001	0.0000000E+000	0.0000000E+000	0.0000000E+000	-1.6477526E+001	0.0000000E+000	0.0000000E+000	0.0000000E+000	1.6477526E+001	3.3808126E+000	7.3522476E+001	-8.823700763944846E-007
1.0000371E+005	3.4201579E+000	1.0604980E+000	3.5808010E+000	-1.7227243E+001	1.096524121154289E+003	4.5950142E-001	-1.2495460E-003	1.5007008E+000	1.3162957E-001	1.000000000000000E+000	38	1.4587446E-002	4.0737940E-003	0	6.226161543422172E-007	4.6839061E-001	2.6243931E-001	9.1580725E+000	1.1270782E-005	2.4708837E-005	2.9434445E-005	3.4505458E-005	1.5961032E-005	3.1012380E-005	6.3731767E-002	4.8087448E-002	7.0335525E-001	1.8643204E-006	1.2205176E-006	5.7323354E-007	7.7193863E-007	4.4901233E-007	4.0502178E-007	2.6673856E-001	8.2708381E-002	2.7926713E-001	1.7227243E+001	1.3162958E+002	4.2451184E+002	4.4445096E+002	-7.2772758E+001	0.0000000E+000	0.0000000E+000	0.0000000E+000	7.2772758E+001	0.0000000E+000	0.0000000E+000	0.0000000E+000	-7.2772758E+001	0.0000000E+000	0.0000000E+000	0.0000000E+000	-1.7227243E+001	0.0000000E+000	0.0000000E+000	0.0000000E+000	1.7227243E+001	3.2250490E+000	7.2772758E+001	-1.243237654368081E-008
7.9433273E+004	3.4404788E+000	1.1552149E+000	3.6292446E+000	-1.8560587E+001	1.097671134382093E+003	4.5950678E-001	-1.4394663E-003	1.7344224E+000	1.7573084E-001	1.000000000000000E+000	38	1.4598505E-002	4.0224637E-003	0	-1.062255041308365E-007	5.1123863E-001	3.5886693E-001	9.1079130E+000	3.4557110E-005	2.8289789E-005	2.2667205E-005	4.5109820E-005	1.4975886E-005	1.8148348E-005	6.1685879E-002	5.2602399E-002	7.2150970E-001	1.6671470E-006	1.2410761E-006	7.7626237E-007	5.1476997E-007	5.9411661E-007	6.7092105E-007	2.6120797E-001	8.7706208E-002	2.7553943E-001	1.8560587E+001	1.7573083E+002	5.2336432E+002	5.5207928E+002	-7.1439415E+001	0.0000000E+000	0.0000000E+000	0.0000000E+000	7.1439415E+001	0.0000000E+000	0.0000000E+000	0.0000000E+000	-7.1439415E+001	0.0000000E+000	0.0000000E+000	0.0000000E+000	-1.8560587E+001	0.0000000E+000	0.0000000E+000	0.0000000E+000	1.8560587E+001	2.9782155E+000	7.1439415E+001	-7.288416584730536E-007
6.3093828E+004	3.4666874E+000	1.3085399E+000	3.7054281E+000	-2.0679575E+001	1.098818132649889E+003	4.5953354E-001	-1.4264386E-003	1.9277303E+000	2.4040496E-001	1.000000000000000E+000	38	1.4601931E-002	3.9406866E-003	0	-3.770679150779162E-006	5.0968754E-001	2.4152005E-001	9.0536547E+000	4.3144984E-005	3.4356264E-005	1.9842679E-005	2.5974674E-005	2.7305898E-005	1.9125735E-005	5.6273833E-002	4.0305708E-002	7.3521346E-001	7.8740703E-007	1.2076842E-006	5.7695024E-007	7.7267674E-007	9.9911813E-007	3.7871132E-007	2.5248632E-001	9.5303789E-002	2.6987433E-001	2.0679575E+001	2.4040497E+002	6.3689990E+002	6.8076135E+002	-6.9320427E+001	0.0000000E+000	0.0000000E+000	0.0000000E+000	6.9320427E+001	0.0000000E+000	0.0000000E+000	0.0000000E+000	-6.9320427E+001	0.0000000E+000	0.0000000E+000	0.0000000E+000	-2.0679575E+001	0.0000000E+000	0.0000000E+000	0.0000000E+000	2.0679575E+001	2.6492791E+000	6.9320427E+001	-3.664453646648326E-006
5.0122477E+004	3.5050192E+000	1.5115740E+000	3.8170691E+000	-2.3328596E+001	1.099966128411135E+003	4.5948172E-001	-1.0875656E-003	2.1006718E+000	3.2942533E-001	1.000000000000000E+000	38	1.4567458E-002	3.8163988E-003	0	-8.129820418573218E-006	5.8000791E-001	3.5980135E-001	9.0441217E+000	2.9151541E-005	3.2848824E-005	3.2009168E-005	2.8569069E-005	3.3685224E-005	3.8718281E-005	5.9203908E-002	5.2796017E-002	7.5820035E-001	1.0573111E-006	1.3655130E-006	4.3775711E-007	8.3940859E-007	3.5079700E-007	8.2198659E-007	2.4056384E-001	1.0374552E-001	2.6198110E-001	2.3328596E+001	3.2942535E+002	7.6386743E+002	8.3187408E+002	-6.6671402E+001	0.0000000E+000	0.0000000E+000	0.0000000E+000	6.6671402E+001	0.0000000E+000	0.0000000E+000	0.0000000E+000	-6.6671402E+001	0.0000000E+000	0.0000000E+000	0.0000000E+000	-2.3328596E+001	0.0000000E+000	0.0000000E+000	0.0000000E+000	2.3328596E+001	2.3187876E+000	6.6671402E+001	-4.359141267794055E-006
3.9814063E+004	3.5532656E+000	1.7958871E+000	3.9813197E+000	-2.6812891E+001	1.101113127318924E+003	4.5949104E-001	-9.4978372E-004	2.2258947E+000	4.5290655E-001	1.000000000000000E+000	38	1.4622071E-002	3.6726694E-003	0	-1.100817713417604E-005	4.6792552E-001	2.7913934E-001	9.0076847E+000	1.6856469E-005	1.5842212E-005	3.6671590E-005	2.3267499E-005	2.3309083E-005	3.4691991E-005	5.9750009E-002	8.4163778E-002	7.8962010E-001	8.9792405E-007	1.4057476E-006	6.5732797E-007	5.2109033E-007	8.6428651E-007	5.8084220E-007	2.2416796E-001	1.1329870E-001	2.5117299E-001	2.6812891E+001	4.5290646E+002	8.9610144E+002	1.0040528E+003	-6.3187111E+001	0.0000000E+000	0.0000000E+000	0.0000000E+000	6.3187111E+001	0.0000000E+000	0.0000000E+000	0.0000000E+000	-6.3187111E+001	0.0000000E+000	0.0000000E+000	0.0000000E+000	-2.6812891E+001	0.0000000E+000	0.0000000E+000	0.0000000E+000	2.6812891E+001	1.9785573E+000	6.3187111E+001	-2.878356715602827E-006
3.1621143E+004	3.6084106E+000	2.1590278E+000	4.2050004E+000	-3.0893438E+001	1.102260120813400E+003	4.5951793E-001	-2.2810719E-003	2.3312256E+000	6.1456627E-001	1.000000000000000E+000	38	1.4656018E-002	3.4853786E-003	0	-1.251421821286203E-005	5.1686531E-001	2.5151166E-001	9.0206871E+000	2.4480154E-005	2.2143709E-005	3.9683960E-005	3.1585052E-005	2.0417800E-005	3.3591525E-005	7.0672818E-002	9.1338806E-002	8.3459216E-001	9.1717015E-007	1.3978321E-006	1.0529142E-006	8.6479196E-007	6.1474549E-007	6.1646722E-007	2.0407221E-001	1.2210295E-001	2.3781210E-001	3.0893438E+001	6.1456641E+002	1.0271324E+003	1.1969515E+003	-5.9106560E+001	0.0000000E+000	0.0000000E+000	0.0000000E+000	5.9106560E+001	0.0000000E+000	0.0000000E+000	0.0000000E+000	-5.9106560E+001	0.0000000E+000	0.0000000E+000	0.0000000E+000	-3.0893438E+001	0.0000000E+000	0.0000000E+000	0.0000000E+000	3.0893438E+001	1.6713127E+000	5.9106560E+001	-1.506041078685989E-006
2.5116906E+004	3.6792638E+000	2.6142685E+000	4.5134668E+000	-3.5395363E+001	1.103407115827853E+003	4.5951092E-001	-1.5474815E-003	2.4238391E+000	8.1317437E-001	1.000000000000000E+000	38	1.4737331E-002	3.2651909E-003	0	-1.447036005112265E-005	4.7138965E-001	3.3088648E-001	9.1619034E+000	4.0574771E-005	1.6937824E-005	2.5372261E-005	3.0748255E-005	1.5967857E-005	2.3775368E-005	5.2702226E-002	7.7718638E-002	8.9384657E-001	3.0290900E-007	6.0776017E-007	9.9753311E-007	6.3020502E-007	4.7595378E-007	7.1512926E-007	1.8060943E-001	1.2833044E-001	2.2155918E-001	3.5395363E+001	8.1317438E+002	1.1444436E+003	1.4039244E+003	-5.4604637E+001	0.0000000E+000	0.0000000E+000	0.0000000E+000	5.4604637E+001	0.0000000E+000	0.0000000E+000	0.0000000E+000	-5.4604637E+001	0.0000000E+000	0.0000000E+000	0.0000000E+000	-3.5395363E+001	0.0000000E+000	0.0000000E+000	0.0000000E+000	3.5395363E+001	1.4073780E+000	5.4604637E+001	-1.956141838260617E-006
1.9948781E+004	3.7755272E+000	3.1818085E+000	4.9374599E+000	-4.0122360E+001	1.104554126735675E+003	4.5953375E-001	-2.1284318E-003	2.5074351E+000	1.0412874E+000	1.000000000000000E+000	38	1.4801819E-002	2.9978610E-003	0	-1.974287055543391E-005	5.0158864E-001	2.0975319E-001	8.8744402E+000	2.9786650E-005	2.3632034E-005	2.9262750E-005	2.2451377E-005	4.1664363E-005	2.1847029E-005	6.7188710E-002	7.8488462E-002	9.7516882E-001	8.1304302E-007	9.9444082E-007	9.9070758E-007	6.9832026E-007	3.8361623E-007	6.7064485E-007	1.5487112E-001	1.3051693E-001	2.0253329E-001	4.0122360E+001	1.0412874E+003	1.2355895E+003	1.6158468E+003	-4.9877640E+001	0.0000000E+000	0.0000000E+000	0.0000000E+000	4.9877640E+001	0.0000000E+000	0.0000000E+000	0.0000000E+000	-4.9877640E+001	0.0000000E+000	0.0000000E+000	0.0000000E+000	-4.0122360E+001	0.0000000E+000	0.0000000E+000	0.0000000E+000	4.0122360E+001	1.1865979E+000	4.9877640E+001	-5.272510504311262E-006
1.5847683E+004	3.8905926E+000	3.8872089E+000	5.4997368E+000	-4.4975075E+001	1.105701123456834E+003	4.5949587E-001	-2.1005010E-003	2.5835476E+000	1.2906498E+000	1.000000000000000E+000	38	1.4782210E-002	2.6878032E-003	0	-2.376629487954132E-005	5.4102170E-001	2.9571739E-001	8.9245024E+000	1.9175754E-005	2.4472751E-005	1.1047853E-005	5.1236679E-005	3.2126678E-005	3.4239136E-005	9.3904659E-002	1.0808304E-001	1.0775752E+000	1.8877126E-006	7.0239435E-007	7.5785391E-007	4.3049829E-007	7.9910723E-007	7.9431766E-007	1.2862694E-001	1.2851508E-001	1.8182689E-001	4.4975075E+001	1.2906499E+003	1.2917733E+003	1.8260491E+003	-4.5024925E+001	0.0000000E+000	0.0000000E+000	0.0000000E+000	4.5024925E+001	0.0000000E+000	0.0000000E+000	0.0000000E+000	-4.5024925E+001	0.0000000E+000	0.0000000E+000	0.0000000E+000	-4.4975075E+001	0.0000000E+000	0.0000000E+000	0.0000000E+000	4.4975075E+001	1.0008705E+000	4.5024933E+001	-4.023424324107408E-006
1.2590930E+004	4.0311708E+000	4.7747483E+000	6.2488847E+000	-4.9826641E+001	1.106848138151297E+003	4.5948872E-001	-2.4393792E-003	2.6473529E+000	1.5456381E+000	1.000000000000000E+000	38	1.4858632E-002	2.3778055E-003	0	-2.691180888240665E-005	4.3817896E-001	2.5793487E-001	9.1325693E+000	7.7510249E-006	1.4954278E-005	2.6421098E-005	3.5001780E-005	2.9090552E-005	2.2947293E-005	1.3015555E-001	1.5803710E-001	1.2279071E+000	2.6636574E-006	8.3502846E-007	9.7874045E-007	5.8672771E-007	2.0625590E-007	2.2300627E-007	1.0323482E-001	1.2227719E-001	1.6002856E-001	4.9826641E+001	1.5456381E+003	1.3049341E+003	2.0228322E+003	-4.0173359E+001	0.0000000E+000	0.0000000E+000	0.0000000E+000	4.0173359E+001	0.0000000E+000	0.0000000E+000	0.0000000E+000	-4.0173359E+001	0.0000000E+000	0.0000000E+000	0.0000000E+000	-4.9826641E+001	0.0000000E+000	0.0000000E+000	0.0000000E+000	4.9826641E+001	8.4426874E-001	4.0173355E+001	-3.145514002865333E-006
