EC-Lab ASCII FILE
Nb header lines : 67                          

Potentio Electrochemical Impedance Spectroscopy

Run on channel : 15 (SN 19485)
User : 
Electrode connection : standard
Potential control : Ewe
Ewe ctrl range : min = -1.00 V, max = 1.00 V
Ewe,I filtering : 50 kHz
Safety Limits :
	Do not start on E overload
Channel : Floating
Acquisition started on : 02/23/2024 14:14:06.635
Loaded Setting File :  NONE
Saved on :
	File : 240223-OCV-EIS-Fe2Fe3_5mM-HCl1M-2000RPM-Ag_AgCl_BLF8-GC-RDE-1minRestVSEoc-3ppf-14p1mVAmplitude_04_PEIS_C15.mpr
	Directory : C:\Data\mathias\RDE-RPM-variation\
	Host : 192.168.0.1
Device : VMP-300 (SN 0826)
Address : USB
EC-Lab for windows v11.52 (software)
Internet server v11.52 (firmware)
Command interpretor v11.52 (firmware)
Electrode material : 
Initial state : 
Electrolyte : 
Comments : 
Cable : special
Reference electrode : SCE Saturated Calomel Electrode (0.241 V)
Electrode surface area : 0.001 cm²
Characteristic mass : 0.001 g
Equivalent Weight : 0.000 g/eq.
Density : 0.000 g/cm3
Volume (V) : 0.001 cm³
Record EIS quality indicators
Cycle Definition : Charge/Discharge alternance
Mode                Single sine         
E (V)               0.0000              
vs.                 Eoc                 
tE (h:m:s)          0:01:0.0000         
record              0                   
dI                  0.000               
unit dI             mA                  
dt (s)              0.000               
fi                  1.000               
unit fi             MHz                 
ff                  100.000             
unit ff             mHz                 
Nd                  10                  
Points              per decade          
spacing             Logarithmic         
Va (mV)             14.1                
pw                  0.10                
Na                  3                   
corr                0                   
E range min (V)     -1.000              
E range max (V)     1.000               
I Range             Auto                
Bandwidth           8                   
nc cycles           0                   
goto Ns'            0                   
nr cycles           0                   
inc. cycle          1                   

freq/Hz	Re(Z)/Ohm	-Im(Z)/Ohm	|Z|/Ohm	Phase(Z)/deg	time/s	<Ewe>/V	<I>/mA	Cs/µF	Cp/µF	cycle number	I Range	|Ewe|/V	|I|/A	Ns	(Q-Qo)/mA.h	THD Ewe/%	NSD Ewe/%	NSR Ewe/%	|Ewe h2|/V	|Ewe h3|/V	|Ewe h4|/V	|Ewe h5|/V	|Ewe h6|/V	|Ewe h7|/V	THD I/%	NSD I/%	NSR I/%	|I h2|/A	|I h3|/A	|I h4|/A	|I h5|/A	|I h6|/A	|I h7|/A	Re(Y)/Ohm-1	Im(Y)/Ohm-1	|Y|/Ohm-1	Phase(Y)/deg	Re(C)/nF	Im(C)/nF	|C|/nF	Phase(C)/deg	Re(M)	Im(M)	|M|	Phase(M)/deg	Re(Permittivity)	Im(Permittivity)	|Permittivity|	Phase(Permittivity)/deg	Re(Resistivity)/Ohm.cm	Im(Resistivity)/Ohm.cm	|Resistivity|/Ohm.cm	Phase(Resistivity)/deg	Re(Conductivity)/mS/cm	Im(Conductivity)/mS/cm	|Conductivity|/mS/cm	Phase(Conductivity)/deg	Tan(Delta)	Loss Angle(Delta)/deg	dq/mA.h	
1.0000186E+006	3.5514951E+000	4.0868163E+000	5.4143500E+000	-4.9008945E+001	6.057957074558362E+002	4.5968074E-001	-1.2339339E-002	3.8942780E-002	2.2187304E-002	1.000000000000000E+000	38	1.1160009E-002	2.0611908E-003	0	-6.698020422274971E-006	-1	-1	-1	0	0	0	0	0	0	-1	-1	-1	0	0	0	0	0	0	1.2114865E-001	1.3940953E-001	1.8469438E-001	4.9008945E+001	2.2187305E+001	1.9281048E+001	2.9394478E+001	-4.0991055E+001	0.0000000E+000	0.0000000E+000	0.0000000E+000	4.0991055E+001	0.0000000E+000	0.0000000E+000	0.0000000E+000	-4.0991055E+001	0.0000000E+000	0.0000000E+000	0.0000000E+000	-4.9008945E+001	0.0000000E+000	0.0000000E+000	0.0000000E+000	4.9008945E+001	8.6901265E-001	4.0991058E+001	-6.698020422274971E-006
7.9433269E+005	3.5910542E+000	3.2010763E+000	4.8106713E+000	-4.1713905E+001	6.068086949706194E+002	4.5970267E-001	-3.9270595E-003	6.2592410E-002	2.7714200E-002	1.000000000000000E+000	38	1.3905055E-002	2.8904604E-003	0	-8.520784656387856E-006	-1	-1	-1	0	0	0	0	0	0	-1	-1	-1	0	0	0	0	0	0	1.5517101E-001	1.3831989E-001	2.0787120E-001	4.1713905E+001	2.7714199E+001	3.1090540E+001	4.1649712E+001	-4.8286095E+001	0.0000000E+000	0.0000000E+000	0.0000000E+000	4.8286095E+001	0.0000000E+000	0.0000000E+000	0.0000000E+000	-4.8286095E+001	0.0000000E+000	0.0000000E+000	0.0000000E+000	-4.1713905E+001	0.0000000E+000	0.0000000E+000	0.0000000E+000	4.1713905E+001	1.1218271E+000	4.8286102E+001	-1.822764234112885E-006
6.3095681E+005	3.5669432E+000	2.5164616E+000	4.3652792E+000	-3.5202789E+001	6.079557183050783E+002	4.5965907E-001	-2.3574149E-003	1.0023750E-001	3.3310931E-002	1.000000000000000E+000	38	1.4442083E-002	3.3083986E-003	0	-1.168002144134759E-005	-1	-1	-1	0	0	0	0	0	0	-1	-1	-1	0	0	0	0	0	0	1.8718547E-001	1.3205847E-001	2.2908042E-001	3.5202789E+001	3.3310932E+001	4.7216377E+001	5.7784119E+001	-5.4797211E+001	0.0000000E+000	0.0000000E+000	0.0000000E+000	5.4797211E+001	0.0000000E+000	0.0000000E+000	0.0000000E+000	-5.4797211E+001	0.0000000E+000	0.0000000E+000	0.0000000E+000	-3.5202789E+001	0.0000000E+000	0.0000000E+000	0.0000000E+000	3.5202789E+001	1.4174439E+000	5.4797211E+001	-3.159236784959730E-006
5.0120622E+005	3.5389211E+000	2.0014775E+000	4.0656948E+000	-2.9490828E+001	6.091026955328998E+002	4.5970735E-001	-3.3051281E-003	1.5865472E-001	3.8448982E-002	1.000000000000000E+000	38	1.4562870E-002	3.5818897E-003	0	-9.937460981063648E-006	-1	-1	-1	0	0	0	0	0	0	-1	-1	-1	0	0	0	0	0	0	2.1409243E-001	1.2108243E-001	2.4596041E-001	2.9490828E+001	3.8448982E+001	6.7983734E+001	7.8103218E+001	-6.0509171E+001	0.0000000E+000	0.0000000E+000	0.0000000E+000	6.0509171E+001	0.0000000E+000	0.0000000E+000	0.0000000E+000	-6.0509171E+001	0.0000000E+000	0.0000000E+000	0.0000000E+000	-2.9490828E+001	0.0000000E+000	0.0000000E+000	0.0000000E+000	2.9490828E+001	1.7681544E+000	6.0509171E+001	1.742560460283939E-006
3.9810347E+005	3.4873338E+000	1.6180986E+000	3.8444428E+000	-2.4890972E+001	6.102496972407098E+002	4.5968691E-001	-2.9141214E-003	2.4706955E-001	4.3768570E-002	1.000000000000000E+000	38	1.4516279E-002	3.7759123E-003	0	-2.047909941458299E-005	-1	-1	-1	0	0	0	0	0	0	-1	-1	-1	0	0	0	0	0	0	2.3595366E-001	1.0948085E-001	2.6011571E-001	2.4890972E+001	4.3768578E+001	9.4330223E+001	1.0398981E+002	-6.5109024E+001	0.0000000E+000	0.0000000E+000	0.0000000E+000	6.5109024E+001	0.0000000E+000	0.0000000E+000	0.0000000E+000	-6.5109024E+001	0.0000000E+000	0.0000000E+000	0.0000000E+000	-2.4890972E+001	0.0000000E+000	0.0000000E+000	0.0000000E+000	2.4890972E+001	2.1552048E+000	6.5109024E+001	-1.054163843351934E-005
3.1622997E+005	3.4625466E+000	1.3494363E+000	3.7162087E+000	-2.1292040E+001	6.113967139085289E+002	4.5968598E-001	-3.6905503E-003	3.7296212E-001	4.9177822E-002	1.000000000000000E+000	38	1.4586110E-002	3.9249975E-003	0	-3.086551406590701E-005	-1	-1	-1	0	0	0	0	0	0	-1	-1	-1	0	0	0	0	0	0	2.5072372E-001	9.7712971E-002	2.6909146E-001	2.1292040E+001	4.9177822E+001	1.2618639E+002	1.3543066E+002	-6.8707962E+001	0.0000000E+000	0.0000000E+000	0.0000000E+000	6.8707962E+001	0.0000000E+000	0.0000000E+000	0.0000000E+000	-6.8707962E+001	0.0000000E+000	0.0000000E+000	0.0000000E+000	-2.1292040E+001	0.0000000E+000	0.0000000E+000	0.0000000E+000	2.1292040E+001	2.5659208E+000	6.8707962E+001	-1.038641465132403E-005
2.5118764E+005	3.4365554E+000	1.1668698E+000	3.6292558E+000	-1.8754732E+001	6.125447097763536E+002	4.5970207E-001	-3.5006204E-003	5.4299957E-001	5.6131817E-002	1.000000000000000E+000	38	1.4555294E-002	4.0105451E-003	0	-2.876931272028014E-005	-1	-1	-1	0	0	0	0	0	0	-1	-1	-1	0	0	0	0	0	0	2.6090848E-001	8.8590525E-002	2.7553859E-001	1.8754732E+001	5.6131817E+001	1.6531416E+002	1.7458394E+002	-7.1245270E+001	0.0000000E+000	0.0000000E+000	0.0000000E+000	7.1245270E+001	0.0000000E+000	0.0000000E+000	0.0000000E+000	-7.1245270E+001	0.0000000E+000	0.0000000E+000	0.0000000E+000	-1.8754732E+001	0.0000000E+000	0.0000000E+000	0.0000000E+000	1.8754732E+001	2.9451063E+000	7.1245270E+001	2.096201345626873E-006
1.9954350E+005	3.4215565E+000	1.0444065E+000	3.5774059E+000	-1.6974449E+001	6.136917162041646E+002	4.5968160E-001	-3.5899940E-003	7.6368272E-001	6.5090217E-002	1.000000000000000E+000	38	1.4562425E-002	4.0706662E-003	0	-2.833829344058823E-005	-1	-1	-1	0	0	0	0	0	0	-1	-1	-1	0	0	0	0	0	0	2.6735437E-001	8.1608079E-002	2.7953216E-001	1.6974449E+001	6.5090210E+001	2.1324054E+002	2.2295351E+002	-7.3025551E+001	0.0000000E+000	0.0000000E+000	0.0000000E+000	7.3025551E+001	0.0000000E+000	0.0000000E+000	0.0000000E+000	-7.3025551E+001	0.0000000E+000	0.0000000E+000	0.0000000E+000	-1.6974449E+001	0.0000000E+000	0.0000000E+000	0.0000000E+000	1.6974449E+001	3.2760773E+000	7.3025551E+001	4.310192796919073E-007
1.5848613E+005	3.4180284E+000	9.8359513E-001	3.5567369E+000	-1.6054062E+001	6.148397129253717E+002	4.5967782E-001	-3.7985363E-003	1.0209689E+000	7.8080356E-002	1.000000000000000E+000	38	1.4569138E-002	4.0962091E-003	0	-2.381083205632038E-005	-1	-1	-1	0	0	0	0	0	0	-1	-1	-1	0	0	0	0	0	0	2.7019179E-001	7.7752233E-002	2.8115657E-001	1.6054062E+001	7.8080353E+001	2.7133203E+002	2.8234308E+002	-7.3945938E+001	0.0000000E+000	0.0000000E+000	0.0000000E+000	7.3945938E+001	0.0000000E+000	0.0000000E+000	0.0000000E+000	-7.3945938E+001	0.0000000E+000	0.0000000E+000	0.0000000E+000	-1.6054062E+001	0.0000000E+000	0.0000000E+000	0.0000000E+000	1.6054062E+001	3.4750359E+000	7.3945938E+001	4.527461384267857E-006
1.2590929E+005	3.4185135E+000	9.7793728E-001	3.5556428E+000	-1.5964285E+001	6.159877135399147E+002	4.5969492E-001	-3.0276927E-003	1.2925619E+000	9.7777091E-002	1.000000000000000E+000	38	1.4554725E-002	4.0934160E-003	0	-1.783026772869441E-005	-1	-1	-1	0	0	0	0	0	0	-1	-1	-1	0	0	0	0	0	0	2.7039647E-001	7.7352569E-002	2.8124309E-001	1.5964285E+001	9.7777107E+001	3.4179321E+002	3.5550381E+002	-7.4035713E+001	0.0000000E+000	0.0000000E+000	0.0000000E+000	7.4035713E+001	0.0000000E+000	0.0000000E+000	0.0000000E+000	-7.4035713E+001	0.0000000E+000	0.0000000E+000	0.0000000E+000	-1.5964285E+001	0.0000000E+000	0.0000000E+000	0.0000000E+000	1.5964285E+001	3.4956367E+000	7.4035713E+001	5.980564327625971E-006
1.0000371E+005	3.4391150E+000	1.0282090E+000	3.5895300E+000	-1.6645344E+001	6.171347149010398E+002	4.5969024E-001	-3.9847237E-003	1.5478277E+000	1.2700190E-001	1.000000000000000E+000	38	1.4575553E-002	4.0605743E-003	0	-2.139548471361761E-005	4.8995203E-001	1.7033474E-001	8.7913465E+000	3.9239563E-005	1.6891307E-005	3.1197080E-005	1.9201725E-005	2.3392844E-005	2.4575771E-005	5.9608597E-002	3.0819552E-002	7.1089149E-001	1.7432403E-006	1.3185273E-006	6.5890441E-007	2.0208905E-007	3.2140807E-007	5.1140887E-007	2.6691410E-001	7.9800613E-002	2.7858800E-001	1.6645344E+001	1.2700188E+002	4.2479123E+002	4.4337012E+002	-7.3354660E+001	0.0000000E+000	0.0000000E+000	0.0000000E+000	7.3354660E+001	0.0000000E+000	0.0000000E+000	0.0000000E+000	-7.3354660E+001	0.0000000E+000	0.0000000E+000	0.0000000E+000	-1.6645344E+001	0.0000000E+000	0.0000000E+000	0.0000000E+000	1.6645344E+001	3.3447628E+000	7.3354660E+001	-3.565216984923204E-006
7.9433273E+004	3.4617109E+000	1.1179401E+000	3.6377511E+000	-1.7897570E+001	6.182827121822629E+002	4.5970106E-001	-2.7577169E-003	1.7922523E+000	1.6926619E-001	1.000000000000000E+000	38	1.4591536E-002	4.0111421E-003	0	-2.326534797241038E-005	4.3350789E-001	2.4219897E-001	8.6915035E+000	2.1309841E-005	1.6750360E-005	1.7801272E-005	3.1151758E-005	1.8525934E-005	3.1185682E-005	4.9288865E-002	2.1167565E-002	7.1529198E-001	1.3103190E-006	7.0654073E-007	4.5527102E-007	7.2989729E-007	5.8397734E-007	5.5820749E-007	2.6159221E-001	8.4479734E-002	2.7489510E-001	1.7897570E+001	1.6926617E+002	5.2413422E+002	5.5078827E+002	-7.2102432E+001	0.0000000E+000	0.0000000E+000	0.0000000E+000	7.2102432E+001	0.0000000E+000	0.0000000E+000	0.0000000E+000	-7.2102432E+001	0.0000000E+000	0.0000000E+000	0.0000000E+000	-1.7897570E+001	0.0000000E+000	0.0000000E+000	0.0000000E+000	1.7897570E+001	3.0965085E+000	7.2102432E+001	-1.869863258792773E-006
6.3093828E+004	3.4858725E+000	1.2631273E+000	3.7076674E+000	-1.9918295E+001	6.194296963167144E+002	4.5971721E-001	-3.8376495E-003	1.9970371E+000	2.3178154E-001	1.000000000000000E+000	38	1.4593735E-002	3.9360961E-003	0	-2.091586842719052E-005	4.4587970E-001	2.8272477E-001	8.6547327E+000	2.3159062E-005	2.6905209E-005	2.0025609E-005	2.8083678E-005	1.9329033E-005	3.0847154E-005	5.5857614E-002	3.5234969E-002	7.3036242E-001	9.5735822E-007	1.2218289E-006	1.0212746E-006	6.3363166E-007	5.5981263E-007	4.9628522E-007	2.5357705E-001	9.1885202E-002	2.6971135E-001	1.9918295E+001	2.3178154E+002	6.3965112E+002	6.8035010E+002	-7.0081703E+001	0.0000000E+000	0.0000000E+000	0.0000000E+000	7.0081703E+001	0.0000000E+000	0.0000000E+000	0.0000000E+000	-7.0081703E+001	0.0000000E+000	0.0000000E+000	0.0000000E+000	-1.9918295E+001	0.0000000E+000	0.0000000E+000	0.0000000E+000	1.9918295E+001	2.7597158E+000	7.0081703E+001	2.349479545219866E-006
5.0122477E+004	3.5265343E+000	1.4635534E+000	3.8181715E+000	-2.2539026E+001	6.205767011178541E+002	4.5969114E-001	-4.1299621E-003	2.1695967E+000	3.1877577E-001	1.000000000000000E+000	38	1.4631362E-002	3.8320336E-003	0	-2.672174210863240E-005	4.9312082E-001	2.3481055E-001	8.6748333E+000	2.7975510E-005	2.1240034E-005	2.0445865E-005	2.4179421E-005	4.3700551E-005	2.0425754E-005	6.0463883E-002	2.1551710E-002	7.4397624E-001	8.5687049E-007	1.4452562E-006	5.5844674E-007	8.6363366E-007	7.8048635E-007	6.5532862E-007	2.4190077E-001	1.0039167E-001	2.6190546E-001	2.2539026E+001	3.1877573E+002	7.6811255E+002	8.3163385E+002	-6.7460976E+001	0.0000000E+000	0.0000000E+000	0.0000000E+000	6.7460976E+001	0.0000000E+000	0.0000000E+000	0.0000000E+000	-6.7460976E+001	0.0000000E+000	0.0000000E+000	0.0000000E+000	-2.2539026E+001	0.0000000E+000	0.0000000E+000	0.0000000E+000	2.2539026E+001	2.4095700E+000	6.7460976E+001	-5.805873681441880E-006
3.9814063E+004	3.5717645E+000	1.7176790E+000	3.9633222E+000	-2.5683130E+001	6.217237022390473E+002	4.5969227E-001	-4.0629399E-003	2.3272426E+000	4.3712628E-001	1.000000000000000E+000	38	1.4663544E-002	3.6998112E-003	0	-3.304359552458239E-005	4.3981248E-001	3.1878346E-001	8.7740116E+000	2.3359789E-005	2.0636542E-005	1.4306279E-005	1.8110175E-005	3.0509271E-005	3.4277422E-005	6.3042715E-002	6.5739192E-002	7.7605474E-001	9.6461440E-007	1.3967355E-006	8.0437047E-007	8.3097848E-007	4.5192181E-007	7.4925384E-007	2.2738618E-001	1.0935114E-001	2.5231358E-001	2.5683130E+001	4.3712628E+002	9.0896619E+002	1.0086124E+003	-6.4316872E+001	0.0000000E+000	0.0000000E+000	0.0000000E+000	6.4316872E+001	0.0000000E+000	0.0000000E+000	0.0000000E+000	-6.4316872E+001	0.0000000E+000	0.0000000E+000	0.0000000E+000	-2.5683130E+001	0.0000000E+000	0.0000000E+000	0.0000000E+000	2.5683130E+001	2.0794132E+000	6.4316872E+001	-6.321853415949992E-006
3.1621143E+004	3.6273246E+000	2.0602846E+000	4.1716013E+000	-2.9596149E+001	6.228707004268654E+002	4.5967403E-001	-3.2865140E-003	2.4429543E+000	5.9588742E-001	1.000000000000000E+000	38	1.4724210E-002	3.5296304E-003	0	-3.576769402292040E-005	4.1610354E-001	2.4046227E-001	8.9697876E+000	1.5275835E-005	2.8829199E-005	3.0500154E-005	2.0717365E-005	2.0322343E-005	2.7705615E-005	6.3614264E-002	4.5939710E-002	8.2023954E-001	4.7190483E-007	1.5109321E-006	1.0692848E-006	7.3940140E-007	7.6245425E-007	3.5664593E-007	2.0843989E-001	1.1839181E-001	2.3971610E-001	2.9596149E+001	5.9588745E+002	1.0491157E+003	1.2065345E+003	-6.0403851E+001	0.0000000E+000	0.0000000E+000	0.0000000E+000	6.0403851E+001	0.0000000E+000	0.0000000E+000	0.0000000E+000	-6.0403851E+001	0.0000000E+000	0.0000000E+000	0.0000000E+000	-2.9596149E+001	0.0000000E+000	0.0000000E+000	0.0000000E+000	2.9596149E+001	1.7605939E+000	6.0403854E+001	-2.724098498338009E-006
2.5116906E+004	3.6941321E+000	2.4869628E+000	4.4532681E+000	-3.3949219E+001	6.240177000546246E+002	4.5968920E-001	-3.1487413E-003	2.5479138E+000	7.9463118E-001	1.000000000000000E+000	38	1.4721184E-002	3.3057034E-003	0	-3.533423377924029E-005	4.6315891E-001	2.8094909E-001	8.7257376E+000	2.1327427E-005	2.9850518E-005	1.7113553E-005	3.6753539E-005	2.4155679E-005	1.7461633E-005	5.5490367E-002	5.2308697E-002	8.5844868E-001	5.4536031E-007	1.1066102E-006	6.7479613E-007	3.8033420E-007	4.5482784E-007	7.7596928E-007	1.8627508E-001	1.2540406E-001	2.2455420E-001	3.3949219E+001	7.9463123E+002	1.1803445E+003	1.4229026E+003	-5.6050781E+001	0.0000000E+000	0.0000000E+000	0.0000000E+000	5.6050781E+001	0.0000000E+000	0.0000000E+000	0.0000000E+000	-5.6050781E+001	0.0000000E+000	0.0000000E+000	0.0000000E+000	-3.3949219E+001	0.0000000E+000	0.0000000E+000	0.0000000E+000	3.3949219E+001	1.4853990E+000	5.6050781E+001	4.334602436801023E-007
1.9948781E+004	3.7883632E+000	3.0303698E+000	4.8512716E+000	-3.8656849E+001	6.251657053625095E+002	4.5969719E-001	-3.5062602E-003	2.6327410E+000	1.0272785E+000	1.000000000000000E+000	38	1.4807579E-002	3.0523089E-003	0	-3.685475579897563E-005	3.7808591E-001	3.2606432E-001	8.5985336E+000	3.3323307E-005	2.4886636E-005	1.0582557E-005	1.9657209E-005	2.1234007E-005	1.5365218E-005	5.8756147E-002	5.0650261E-002	9.4222093E-001	7.4938720E-007	5.3922378E-007	8.2953312E-007	6.9236080E-007	3.3592917E-007	8.8101268E-007	1.6096832E-001	1.2876102E-001	2.0613152E-001	3.8656849E+001	1.0272784E+003	1.2842340E+003	1.6445541E+003	-5.1343151E+001	0.0000000E+000	0.0000000E+000	0.0000000E+000	5.1343151E+001	0.0000000E+000	0.0000000E+000	0.0000000E+000	-5.1343151E+001	0.0000000E+000	0.0000000E+000	0.0000000E+000	-3.8656849E+001	0.0000000E+000	0.0000000E+000	0.0000000E+000	3.8656849E+001	1.2501323E+000	5.1343155E+001	-1.520522019735333E-006
1.5847683E+004	3.8915944E+000	3.6989856E+000	5.3690782E+000	-4.3546448E+001	6.263127022436820E+002	4.5967993E-001	-3.1301517E-003	2.7150118E+000	1.2886575E+000	1.000000000000000E+000	38	1.4841073E-002	2.7641754E-003	0	-3.344752044869690E-005	4.9066406E-001	2.3535393E-001	8.6303396E+000	3.9366416E-005	1.0234829E-005	2.1703214E-005	2.1746122E-005	2.4145202E-005	4.0156163E-005	9.8255083E-002	2.6186828E-002	1.0494074E+000	1.8213121E-006	1.4807716E-006	7.8959368E-007	7.1463296E-007	3.2687637E-007	7.1281028E-007	1.3499825E-001	1.2831670E-001	1.8625171E-001	4.3546448E+001	1.2886576E+003	1.3557590E+003	1.8704868E+003	-4.6453552E+001	0.0000000E+000	0.0000000E+000	0.0000000E+000	4.6453552E+001	0.0000000E+000	0.0000000E+000	0.0000000E+000	-4.6453552E+001	0.0000000E+000	0.0000000E+000	0.0000000E+000	-4.3546448E+001	0.0000000E+000	0.0000000E+000	0.0000000E+000	4.3546448E+001	1.0520707E+000	4.6453552E+001	3.407235350278725E-006
1.2590930E+004	4.0345879E+000	4.5258508E+000	6.0631037E+000	-4.8284466E+001	6.274597065114649E+002	4.5969263E-001	-3.3368294E-003	2.7929432E+000	1.5562258E+000	1.000000000000000E+000	38	1.4751256E-002	2.4329547E-003	0	-3.418370926362049E-005	4.4004205E-001	1.8834567E-001	8.8889256E+000	3.1423624E-005	3.3292377E-005	1.4879678E-005	2.0851743E-005	1.8586530E-005	2.3774877E-005	1.2358158E-001	5.9527609E-002	1.1704843E+000	2.5820161E-006	9.3793938E-007	7.3493788E-007	4.5365528E-007	4.7672145E-007	4.3438195E-007	1.0975117E-001	1.2311479E-001	1.6493203E-001	4.8284466E+001	1.5562258E+003	1.3873037E+003	2.0848142E+003	-4.1715534E+001	0.0000000E+000	0.0000000E+000	0.0000000E+000	4.1715534E+001	0.0000000E+000	0.0000000E+000	0.0000000E+000	-4.1715534E+001	0.0000000E+000	0.0000000E+000	0.0000000E+000	-4.8284466E+001	0.0000000E+000	0.0000000E+000	0.0000000E+000	4.8284466E+001	8.9145404E-001	4.1715530E+001	-7.361888149235837E-007
