EC-Lab ASCII FILE
Nb header lines : 67                          

Potentio Electrochemical Impedance Spectroscopy

Run on channel : 15 (SN 19485)
User : 
Electrode connection : standard
Potential control : Ewe
Ewe ctrl range : min = -1.00 V, max = 1.00 V
Ewe,I filtering : 50 kHz
Safety Limits :
	Do not start on E overload
Channel : Floating
Acquisition started on : 02/23/2024 14:14:06.635
Loaded Setting File :  NONE
Saved on :
	File : 240223-OCV-EIS-Fe2Fe3_5mM-HCl1M-2000RPM-Ag_AgCl_BLF8-GC-RDE-1minRestVSEoc-3ppf-14p1mVAmplitude_02_PEIS_C15.mpr
	Directory : C:\Data\mathias\RDE-RPM-variation\
	Host : 192.168.0.1
Device : VMP-300 (SN 0826)
Address : USB
EC-Lab for windows v11.52 (software)
Internet server v11.52 (firmware)
Command interpretor v11.52 (firmware)
Electrode material : 
Initial state : 
Electrolyte : 
Comments : 
Cable : special
Reference electrode : SCE Saturated Calomel Electrode (0.241 V)
Electrode surface area : 0.001 cm²
Characteristic mass : 0.001 g
Equivalent Weight : 0.000 g/eq.
Density : 0.000 g/cm3
Volume (V) : 0.001 cm³
Record EIS quality indicators
Cycle Definition : Charge/Discharge alternance
Mode                Single sine         
E (V)               0.0000              
vs.                 Eoc                 
tE (h:m:s)          0:01:0.0000         
record              0                   
dI                  0.000               
unit dI             mA                  
dt (s)              0.000               
fi                  1.000               
unit fi             MHz                 
ff                  100.000             
unit ff             mHz                 
Nd                  10                  
Points              per decade          
spacing             Logarithmic         
Va (mV)             14.1                
pw                  0.10                
Na                  3                   
corr                0                   
E range min (V)     -1.000              
E range max (V)     1.000               
I Range             Auto                
Bandwidth           8                   
nc cycles           0                   
goto Ns'            0                   
nr cycles           0                   
inc. cycle          1                   

freq/Hz	Re(Z)/Ohm	-Im(Z)/Ohm	|Z|/Ohm	Phase(Z)/deg	time/s	<Ewe>/V	<I>/mA	Cs/µF	Cp/µF	cycle number	I Range	|Ewe|/V	|I|/A	Ns	(Q-Qo)/mA.h	THD Ewe/%	NSD Ewe/%	NSR Ewe/%	|Ewe h2|/V	|Ewe h3|/V	|Ewe h4|/V	|Ewe h5|/V	|Ewe h6|/V	|Ewe h7|/V	THD I/%	NSD I/%	NSR I/%	|I h2|/A	|I h3|/A	|I h4|/A	|I h5|/A	|I h6|/A	|I h7|/A	Re(Y)/Ohm-1	Im(Y)/Ohm-1	|Y|/Ohm-1	Phase(Y)/deg	Re(C)/nF	Im(C)/nF	|C|/nF	Phase(C)/deg	Re(M)	Im(M)	|M|	Phase(M)/deg	Re(Permittivity)	Im(Permittivity)	|Permittivity|	Phase(Permittivity)/deg	Re(Resistivity)/Ohm.cm	Im(Resistivity)/Ohm.cm	|Resistivity|/Ohm.cm	Phase(Resistivity)/deg	Re(Conductivity)/mS/cm	Im(Conductivity)/mS/cm	|Conductivity|/mS/cm	Phase(Conductivity)/deg	Tan(Delta)	Loss Angle(Delta)/deg	dq/mA.h	
1.0000186E+006	3.5575883E+000	4.0902505E+000	5.4209394E+000	-4.8984142E+001	1.231859019920230E+002	4.5964190E-001	-1.2644699E-002	3.8910083E-002	2.2151995E-002	1.000000000000000E+000	38	1.1166046E-002	2.0597992E-003	0	-4.554996999219939E-006	-1	-1	-1	0	0	0	0	0	0	-1	-1	-1	0	0	0	0	0	0	1.2106165E-001	1.3918768E-001	1.8446986E-001	4.8984142E+001	2.2151997E+001	1.9267202E+001	2.9358747E+001	-4.1015858E+001	0.0000000E+000	0.0000000E+000	0.0000000E+000	4.1015858E+001	0.0000000E+000	0.0000000E+000	0.0000000E+000	-4.1015858E+001	0.0000000E+000	0.0000000E+000	0.0000000E+000	-4.8984142E+001	0.0000000E+000	0.0000000E+000	0.0000000E+000	4.8984142E+001	8.6977273E-001	4.1015854E+001	-4.554996999219939E-006
7.9433269E+005	3.5846586E+000	3.1952682E+000	4.8020325E+000	-4.1712952E+001	1.241978856401402E+002	4.5963100E-001	-3.4634359E-003	6.2706187E-002	2.7763538E-002	1.000000000000000E+000	38	1.3871475E-002	2.8886674E-003	0	-5.509966743450301E-006	-1	-1	-1	0	0	0	0	0	0	-1	-1	-1	0	0	0	0	0	0	1.5545247E-001	1.3856615E-001	2.0824516E-001	4.1712952E+001	2.7763538E+001	3.1146935E+001	4.1724640E+001	-4.8287048E+001	0.0000000E+000	0.0000000E+000	0.0000000E+000	4.8287048E+001	0.0000000E+000	0.0000000E+000	0.0000000E+000	-4.8287048E+001	0.0000000E+000	0.0000000E+000	0.0000000E+000	-4.1712952E+001	0.0000000E+000	0.0000000E+000	0.0000000E+000	4.1712952E+001	1.1218647E+000	4.8287048E+001	-9.549697442303622E-007
6.3095681E+005	3.5712707E+000	2.5176449E+000	4.3694978E+000	-3.5182755E+001	1.253448780679028E+002	4.5962438E-001	-3.7948284E-003	1.0019038E-001	3.3262275E-002	1.000000000000000E+000	38	1.4461379E-002	3.3096203E-003	0	-9.138781432631528E-006	-1	-1	-1	0	0	0	0	0	0	-1	-1	-1	0	0	0	0	0	0	1.8705088E-001	1.3186558E-001	2.2885926E-001	3.5182755E+001	3.3262276E+001	4.7182423E+001	5.7728329E+001	-5.4817245E+001	0.0000000E+000	0.0000000E+000	0.0000000E+000	5.4817245E+001	0.0000000E+000	0.0000000E+000	0.0000000E+000	-5.4817245E+001	0.0000000E+000	0.0000000E+000	0.0000000E+000	-3.5182755E+001	0.0000000E+000	0.0000000E+000	0.0000000E+000	3.5182755E+001	1.4184966E+000	5.4817245E+001	-3.628814689181227E-006
5.0120622E+005	3.5410819E+000	2.0071154E+000	4.0703530E+000	-2.9544933E+001	1.264918861491024E+002	4.5963222E-001	-3.9903256E-003	1.5820906E-001	3.8469087E-002	1.000000000000000E+000	38	1.4536842E-002	3.5713960E-003	0	-7.675081725413394E-006	-1	-1	-1	0	0	0	0	0	0	-1	-1	-1	0	0	0	0	0	0	2.1373312E-001	1.2114575E-001	2.4567893E-001	2.9544933E+001	3.8469086E+001	6.7869637E+001	7.8013832E+001	-6.0455067E+001	0.0000000E+000	0.0000000E+000	0.0000000E+000	6.0455067E+001	0.0000000E+000	0.0000000E+000	0.0000000E+000	-6.0455067E+001	0.0000000E+000	0.0000000E+000	0.0000000E+000	-2.9544933E+001	0.0000000E+000	0.0000000E+000	0.0000000E+000	2.9544933E+001	1.7642642E+000	6.0455063E+001	1.463699707218135E-006
3.9810347E+005	3.4965167E+000	1.6160244E+000	3.8519039E+000	-2.4805494E+001	1.276378932435182E+002	4.5960966E-001	-3.5397280E-003	2.4738668E-001	4.3543287E-002	1.000000000000000E+000	38	1.4524158E-002	3.7706438E-003	0	-6.507986842809866E-006	-1	-1	-1	0	0	0	0	0	0	-1	-1	-1	0	0	0	0	0	0	2.3565938E-001	1.0891734E-001	2.5961187E-001	2.4805494E+001	4.3543293E+001	9.4212578E+001	1.0378838E+002	-6.5194504E+001	0.0000000E+000	0.0000000E+000	0.0000000E+000	6.5194504E+001	0.0000000E+000	0.0000000E+000	0.0000000E+000	-6.5194504E+001	0.0000000E+000	0.0000000E+000	0.0000000E+000	-2.4805494E+001	0.0000000E+000	0.0000000E+000	0.0000000E+000	2.4805494E+001	2.1636534E+000	6.5194504E+001	1.167094882603528E-006
3.1622997E+005	3.4598815E+000	1.3396689E+000	3.7101877E+000	-2.1166443E+001	1.287848940446274E+002	4.5963073E-001	-3.9903214E-003	3.7568137E-001	4.8980456E-002	1.000000000000000E+000	38	1.4571206E-002	3.9273500E-003	0	-8.669511919702927E-006	-1	-1	-1	0	0	0	0	0	0	-1	-1	-1	0	0	0	0	0	0	2.5134456E-001	9.7320810E-002	2.6952815E-001	2.1166443E+001	4.8980457E+001	1.2649886E+002	1.3565045E+002	-6.8833557E+001	0.0000000E+000	0.0000000E+000	0.0000000E+000	6.8833557E+001	0.0000000E+000	0.0000000E+000	0.0000000E+000	-6.8833557E+001	0.0000000E+000	0.0000000E+000	0.0000000E+000	-2.1166443E+001	0.0000000E+000	0.0000000E+000	0.0000000E+000	2.1166443E+001	2.5826395E+000	6.8833557E+001	-2.161525076893061E-006
2.5118764E+005	3.4360864E+000	1.1565763E+000	3.6255150E+000	-1.8603077E+001	1.299318837524625E+002	4.5964241E-001	-3.9493558E-003	5.4783219E-001	5.5751521E-002	1.000000000000000E+000	38	1.4566111E-002	4.0176669E-003	0	-3.285773519814635E-006	-1	-1	-1	0	0	0	0	0	0	-1	-1	-1	0	0	0	0	0	0	2.6141149E-001	8.7990314E-002	2.7582288E-001	1.8603077E+001	5.5751511E+001	1.6563287E+002	1.7476407E+002	-7.1396927E+001	0.0000000E+000	0.0000000E+000	0.0000000E+000	7.1396927E+001	0.0000000E+000	0.0000000E+000	0.0000000E+000	-7.1396927E+001	0.0000000E+000	0.0000000E+000	0.0000000E+000	-1.8603077E+001	0.0000000E+000	0.0000000E+000	0.0000000E+000	1.8603077E+001	2.9709120E+000	7.1396927E+001	5.383738399888291E-006
1.9954350E+005	3.4281526E+000	1.0292712E+000	3.5793335E+000	-1.6711903E+001	1.310788795936387E+002	4.5963559E-001	-3.3386329E-003	7.7491260E-001	6.4077869E-002	1.000000000000000E+000	38	1.4568038E-002	4.0700422E-003	0	-6.631226660877777E-006	-1	-1	-1	0	0	0	0	0	0	-1	-1	-1	0	0	0	0	0	0	2.6758131E-001	8.0338843E-002	2.7938163E-001	1.6711903E+001	6.4077858E+001	2.1342159E+002	2.2283345E+002	-7.3288101E+001	0.0000000E+000	0.0000000E+000	0.0000000E+000	7.3288101E+001	0.0000000E+000	0.0000000E+000	0.0000000E+000	-7.3288101E+001	0.0000000E+000	0.0000000E+000	0.0000000E+000	-1.6711903E+001	0.0000000E+000	0.0000000E+000	0.0000000E+000	1.6711903E+001	3.3306601E+000	7.3288101E+001	-3.345453141063141E-006
1.5848613E+005	3.4199154E+000	9.7668940E-001	3.5566478E+000	-1.5938746E+001	1.322259007147513E+002	4.5964679E-001	-3.9791428E-003	1.0281878E+000	7.7536047E-002	1.000000000000000E+000	38	1.4569773E-002	4.0964903E-003	0	-1.818297926584880E-005	-1	-1	-1	0	0	0	0	0	0	-1	-1	-1	0	0	0	0	0	0	2.7035454E-001	7.7210218E-002	2.8116363E-001	1.5938746E+001	7.7536034E+001	2.7149545E+002	2.8235016E+002	-7.4061256E+001	0.0000000E+000	0.0000000E+000	0.0000000E+000	7.4061256E+001	0.0000000E+000	0.0000000E+000	0.0000000E+000	-7.4061256E+001	0.0000000E+000	0.0000000E+000	0.0000000E+000	-1.5938746E+001	0.0000000E+000	0.0000000E+000	0.0000000E+000	1.5938746E+001	3.5015385E+000	7.4061256E+001	-1.155175260497102E-005
1.2590929E+005	3.4203022E+000	9.7404778E-001	3.5562952E+000	-1.5896112E+001	1.333738929292886E+002	4.5963824E-001	-2.8992181E-003	1.2977233E+000	9.7352482E-002	1.000000000000000E+000	38	1.4533195E-002	4.0866109E-003	0	-1.410843120861359E-005	-1	-1	-1	0	0	0	0	0	0	-1	-1	-1	0	0	0	0	0	0	2.7043870E-001	7.7016652E-002	2.8119150E-001	1.5896112E+001	9.7352478E+001	3.4184659E+002	3.5543860E+002	-7.4103889E+001	0.0000000E+000	0.0000000E+000	0.0000000E+000	7.4103889E+001	0.0000000E+000	0.0000000E+000	0.0000000E+000	-7.4103889E+001	0.0000000E+000	0.0000000E+000	0.0000000E+000	-1.5896112E+001	0.0000000E+000	0.0000000E+000	0.0000000E+000	1.5896112E+001	3.5114317E+000	7.4103889E+001	4.074548057235208E-006
1.0000371E+005	3.4368558E+000	1.0120832E+000	3.5827768E+000	-1.6408615E+001	1.345208977570874E+002	4.5962325E-001	-2.7781927E-003	1.5724896E+000	1.2548178E-001	1.000000000000000E+000	38	1.4575054E-002	4.0680887E-003	0	-1.189020372743511E-005	4.7028571E-001	2.5494897E-001	8.8485336E+000	2.0491641E-005	4.0746992E-005	1.6790200E-005	2.5759386E-005	2.5689114E-005	2.3015267E-005	6.2732130E-002	2.7736079E-002	7.1374148E-001	1.6973923E-006	1.3332943E-006	4.0250472E-007	2.6344171E-007	6.9638776E-007	6.5536318E-007	2.6774526E-001	7.8845464E-002	2.7911311E-001	1.6408615E+001	1.2548180E+002	4.2611401E+002	4.4420584E+002	-7.3591385E+001	0.0000000E+000	0.0000000E+000	0.0000000E+000	7.3591385E+001	0.0000000E+000	0.0000000E+000	0.0000000E+000	-7.3591385E+001	0.0000000E+000	0.0000000E+000	0.0000000E+000	-1.6408615E+001	0.0000000E+000	0.0000000E+000	0.0000000E+000	1.6408615E+001	3.3958235E+000	7.3591385E+001	2.218227481178474E-006
7.9433273E+004	3.4524980E+000	1.1014560E+000	3.6239409E+000	-1.7694326E+001	1.356678957848926E+002	4.5963442E-001	-2.8042661E-003	1.8190746E+000	1.6804385E-001	1.000000000000000E+000	38	1.4566106E-002	4.0194103E-003	0	-1.219174909865898E-005	4.7966561E-001	2.5184226E-001	8.8518238E+000	2.6531903E-005	3.5017882E-005	2.3875022E-005	2.4240207E-005	2.2351645E-005	3.2698747E-005	5.0849579E-002	3.0082667E-002	7.1632838E-001	1.1759869E-006	1.0414985E-006	4.6568786E-007	5.7472130E-007	6.5542417E-007	3.2645644E-007	2.6288828E-001	8.3869666E-002	2.7594268E-001	1.7694326E+001	1.6804385E+002	5.2673096E+002	5.5288721E+002	-7.2305672E+001	0.0000000E+000	0.0000000E+000	0.0000000E+000	7.2305672E+001	0.0000000E+000	0.0000000E+000	0.0000000E+000	-7.2305672E+001	0.0000000E+000	0.0000000E+000	0.0000000E+000	-1.7694326E+001	0.0000000E+000	0.0000000E+000	0.0000000E+000	1.7694326E+001	3.1344855E+000	7.2305672E+001	-3.015453712238614E-007
6.3093828E+004	3.4886067E+000	1.2397077E+000	3.7023306E+000	-1.9563128E+001	1.368148837594199E+002	4.5962849E-001	-3.5825653E-003	2.0347636E+000	2.2814038E-001	1.000000000000000E+000	38	1.4595796E-002	3.9423266E-003	0	-1.773225645653696E-005	4.2704365E-001	3.2657957E-001	9.0321960E+000	2.1787569E-005	3.2727898E-005	2.6294088E-005	1.4442538E-005	2.4073712E-005	1.9075385E-005	6.0480822E-002	3.9295442E-002	7.4637949E-001	1.7840563E-006	9.0317161E-007	8.3523588E-007	5.4511395E-007	4.1537817E-007	5.8333973E-007	2.5450811E-001	9.0441748E-002	2.7010015E-001	1.9563128E+001	2.2814038E+002	6.4199976E+002	6.8133087E+002	-7.0436874E+001	0.0000000E+000	0.0000000E+000	0.0000000E+000	7.0436874E+001	0.0000000E+000	0.0000000E+000	0.0000000E+000	-7.0436874E+001	0.0000000E+000	0.0000000E+000	0.0000000E+000	-1.9563128E+001	0.0000000E+000	0.0000000E+000	0.0000000E+000	1.9563128E+001	2.8140559E+000	7.0436874E+001	-5.540507357877990E-006
5.0122477E+004	3.5244689E+000	1.4296043E+000	3.8033733E+000	-2.2078588E+001	1.379619025338907E+002	4.5962110E-001	-4.4520772E-003	2.2211187E+000	3.1380910E-001	1.000000000000000E+000	38	1.4591471E-002	3.8364551E-003	0	-2.304724052664824E-005	3.6091256E-001	2.6896265E-001	8.8994942E+000	2.0804669E-005	2.3706203E-005	1.8868339E-005	2.0495609E-005	1.6811533E-005	1.3512177E-005	6.3251846E-002	2.8259918E-002	7.4909240E-001	9.5150108E-007	1.6198228E-006	6.6718871E-007	8.7920449E-007	7.4010956E-007	4.6147872E-007	2.4364401E-001	9.8827533E-002	2.6292449E-001	2.2078588E+001	3.1380911E+002	7.7364789E+002	8.3486957E+002	-6.7921410E+001	0.0000000E+000	0.0000000E+000	0.0000000E+000	6.7921410E+001	0.0000000E+000	0.0000000E+000	0.0000000E+000	-6.7921410E+001	0.0000000E+000	0.0000000E+000	0.0000000E+000	-2.2078588E+001	0.0000000E+000	0.0000000E+000	0.0000000E+000	2.2078588E+001	2.4653459E+000	6.7921410E+001	-5.314984070111274E-006
3.9814063E+004	3.5707362E+000	1.6735066E+000	3.9434478E+000	-2.5111204E+001	1.391088896816946E+002	4.5961124E-001	-3.9512226E-003	2.3886704E+000	4.3018860E-001	1.000000000000000E+000	38	1.4611229E-002	3.7051914E-003	0	-1.919613910031815E-005	4.8241833E-001	1.7803171E-001	8.8607426E+000	2.6636633E-005	2.5713236E-005	1.5557214E-005	3.0543400E-005	1.8975878E-005	4.0569139E-005	7.3478729E-002	5.0032578E-002	7.8537375E-001	1.4642724E-006	1.4088387E-006	5.7936052E-007	7.1887581E-007	1.0620267E-006	8.9000764E-007	2.2961779E-001	1.0761560E-001	2.5358519E-001	2.5111204E+001	4.3018857E+002	9.1788690E+002	1.0136955E+003	-6.4888794E+001	0.0000000E+000	0.0000000E+000	0.0000000E+000	6.4888794E+001	0.0000000E+000	0.0000000E+000	0.0000000E+000	-6.4888794E+001	0.0000000E+000	0.0000000E+000	0.0000000E+000	-2.5111204E+001	0.0000000E+000	0.0000000E+000	0.0000000E+000	2.5111204E+001	2.1336851E+000	6.4888794E+001	3.851101426330084E-006
3.1621143E+004	3.6218252E+000	2.0055172E+000	4.1400142E+000	-2.8974663E+001	1.402558796828380E+002	4.5963240E-001	-3.5527716E-003	2.5096674E+000	5.8893222E-001	1.000000000000000E+000	38	1.4639552E-002	3.5361114E-003	0	-1.413107890141611E-005	4.5739987E-001	2.7835962E-001	8.9460678E+000	2.9789140E-005	1.6401431E-005	4.2798303E-005	1.7470007E-005	2.2024096E-005	2.1585261E-005	6.3563652E-002	5.4971274E-002	8.0735844E-001	1.0412572E-006	1.0020308E-006	1.0442116E-006	7.1384579E-007	4.9075948E-007	5.4465124E-007	2.1131185E-001	1.1700994E-001	2.4154507E-001	2.8974663E+001	5.8893225E+002	1.0635708E+003	1.2157401E+003	-6.1025337E+001	0.0000000E+000	0.0000000E+000	0.0000000E+000	6.1025337E+001	0.0000000E+000	0.0000000E+000	0.0000000E+000	-6.1025337E+001	0.0000000E+000	0.0000000E+000	0.0000000E+000	-2.8974663E+001	0.0000000E+000	0.0000000E+000	0.0000000E+000	2.8974663E+001	1.8059307E+000	6.1025337E+001	5.065060198902049E-006
2.5116906E+004	3.6970506E+000	2.4175386E+000	4.4173155E+000	-3.3181076E+001	1.414038875506958E+002	4.5964190E-001	-3.3758981E-003	2.6210818E+000	7.8507400E-001	1.000000000000000E+000	38	1.4681474E-002	3.3236193E-003	0	-1.881460090669700E-005	4.5723411E-001	1.9217496E-001	8.7604933E+000	2.7010821E-005	3.4785051E-005	3.0428962E-005	1.5033613E-005	2.4046478E-005	1.9486799E-005	5.3427909E-002	6.4431861E-002	8.5244596E-001	5.7288395E-007	9.4127927E-007	5.8462490E-007	7.6594546E-007	4.6970732E-007	5.4289404E-007	1.8946917E-001	1.2389579E-001	2.2638184E-001	3.3181076E+001	7.8507391E+002	1.2005840E+003	1.4344835E+003	-5.6818924E+001	0.0000000E+000	0.0000000E+000	0.0000000E+000	5.6818924E+001	0.0000000E+000	0.0000000E+000	0.0000000E+000	-5.6818924E+001	0.0000000E+000	0.0000000E+000	0.0000000E+000	-3.3181076E+001	0.0000000E+000	0.0000000E+000	0.0000000E+000	3.3181076E+001	1.5292622E+000	5.6818924E+001	-4.683522005280892E-006
1.9948781E+004	3.7883303E+000	2.9440079E+000	4.7977734E+000	-3.7851688E+001	1.425508824585122E+002	4.5961690E-001	-3.1264231E-003	2.7099721E+000	1.0203831E+000	1.000000000000000E+000	38	1.4756036E-002	3.0756008E-003	0	-1.954130152244276E-005	4.3335921E-001	2.2190018E-001	8.7328892E+000	2.3957815E-005	2.8458542E-005	2.0075291E-005	1.8695568E-005	2.1482780E-005	2.8775716E-005	7.2272822E-002	4.8718285E-002	9.4517726E-001	9.6575309E-007	1.4073312E-006	5.9643048E-007	1.0216962E-006	5.0446101E-007	4.4896134E-007	1.6457671E-001	1.2789676E-001	2.0843002E-001	3.7851688E+001	1.0203832E+003	1.3130225E+003	1.6628920E+003	-5.2148312E+001	0.0000000E+000	0.0000000E+000	0.0000000E+000	5.2148312E+001	0.0000000E+000	0.0000000E+000	0.0000000E+000	-5.2148312E+001	0.0000000E+000	0.0000000E+000	0.0000000E+000	-3.7851688E+001	0.0000000E+000	0.0000000E+000	0.0000000E+000	3.7851688E+001	1.2867936E+000	5.2148315E+001	-7.267006157457638E-007
1.5847683E+004	3.8976581E+000	3.6011746E+000	5.3066182E+000	-4.2735859E+001	1.436978876863141E+002	4.5964560E-001	-3.3833748E-003	2.7887540E+000	1.2842892E+000	1.000000000000000E+000	38	1.4755665E-002	2.7806156E-003	0	-1.590401347016450E-005	5.2056253E-001	2.4051614E-001	8.9059134E+000	1.7139926E-005	1.6492722E-005	1.8257317E-005	4.4213884E-005	4.2137279E-005	2.6480418E-005	1.0976482E-001	3.7166227E-002	1.0464422E+000	2.0159455E-006	1.0595968E-006	1.0003923E-006	1.4594124E-006	4.8564067E-007	5.9478191E-007	1.3841018E-001	1.2788172E-001	1.8844393E-001	4.2735859E+001	1.2842892E+003	1.3900243E+003	1.8925027E+003	-4.7264141E+001	0.0000000E+000	0.0000000E+000	0.0000000E+000	4.7264141E+001	0.0000000E+000	0.0000000E+000	0.0000000E+000	-4.7264141E+001	0.0000000E+000	0.0000000E+000	0.0000000E+000	-4.2735859E+001	0.0000000E+000	0.0000000E+000	0.0000000E+000	4.2735859E+001	1.0823296E+000	4.7264145E+001	3.637288052278261E-006
1.2590930E+004	4.0397153E+000	4.4083385E+000	5.9793601E+000	-4.7498466E+001	1.448448921408271E+002	4.5963341E-001	-3.4820612E-003	2.8673944E+000	1.5585756E+000	1.000000000000000E+000	38	1.4825724E-002	2.4794834E-003	0	-1.254966406933575E-005	4.1048101E-001	1.6558696E-001	8.6799297E+000	3.0948897E-005	1.5407830E-005	1.7204809E-005	2.0922009E-005	1.4319829E-005	2.9912064E-005	1.1619791E-001	5.1851477E-002	1.1538080E+000	2.1536925E-006	1.2780237E-006	9.8898545E-007	3.1909426E-007	5.8146571E-007	3.3316769E-007	1.1299034E-001	1.2330069E-001	1.6724198E-001	4.7498466E+001	1.5585756E+003	1.4282482E+003	2.1140129E+003	-4.2501534E+001	0.0000000E+000	0.0000000E+000	0.0000000E+000	4.2501534E+001	0.0000000E+000	0.0000000E+000	0.0000000E+000	-4.2501534E+001	0.0000000E+000	0.0000000E+000	0.0000000E+000	-4.7498466E+001	0.0000000E+000	0.0000000E+000	0.0000000E+000	4.7498466E+001	9.1638047E-001	4.2501526E+001	3.354349400828747E-006
