EC-Lab ASCII FILE
Nb header lines : 67                          

Potentio Electrochemical Impedance Spectroscopy

Run on channel : 15 (SN 19485)
User : 
Electrode connection : standard
Potential control : Ewe
Ewe ctrl range : min = -1.00 V, max = 1.00 V
Ewe,I filtering : 50 kHz
Safety Limits :
	Do not start on E overload
Channel : Floating
Acquisition started on : 02/23/2024 15:19:09.853
Loaded Setting File :  NONE
Saved on :
	File : 240223-OCV-EIS-Fe2Fe3_5mM-HCl1M-625RPM-Ag_AgCl_BLF8-GC-RDE-1minRestVSEoc-3ppf-14p1mVAmplitude_02_PEIS_C15.mpr
	Directory : C:\Data\mathias\RDE-RPM-variation\
	Host : 192.168.0.1
Device : VMP-300 (SN 0826)
Address : USB
EC-Lab for windows v11.52 (software)
Internet server v11.52 (firmware)
Command interpretor v11.52 (firmware)
Electrode material : 
Initial state : 
Electrolyte : 
Comments : 
Cable : special
Reference electrode : SCE Saturated Calomel Electrode (0.241 V)
Electrode surface area : 0.001 cm²
Characteristic mass : 0.001 g
Equivalent Weight : 0.000 g/eq.
Density : 0.000 g/cm3
Volume (V) : 0.001 cm³
Record EIS quality indicators
Cycle Definition : Charge/Discharge alternance
Mode                Single sine         
E (V)               0.0000              
vs.                 Eoc                 
tE (h:m:s)          0:01:0.0000         
record              0                   
dI                  0.000               
unit dI             mA                  
dt (s)              0.000               
fi                  1.000               
unit fi             MHz                 
ff                  100.000             
unit ff             mHz                 
Nd                  10                  
Points              per decade          
spacing             Logarithmic         
Va (mV)             14.1                
pw                  0.10                
Na                  3                   
corr                0                   
E range min (V)     -1.000              
E range max (V)     1.000               
I Range             Auto                
Bandwidth           8                   
nc cycles           0                   
goto Ns'            0                   
nr cycles           0                   
inc. cycle          1                   

freq/Hz	Re(Z)/Ohm	-Im(Z)/Ohm	|Z|/Ohm	Phase(Z)/deg	time/s	<Ewe>/V	<I>/mA	Cs/µF	Cp/µF	cycle number	I Range	|Ewe|/V	|I|/A	Ns	(Q-Qo)/mA.h	THD Ewe/%	NSD Ewe/%	NSR Ewe/%	|Ewe h2|/V	|Ewe h3|/V	|Ewe h4|/V	|Ewe h5|/V	|Ewe h6|/V	|Ewe h7|/V	THD I/%	NSD I/%	NSR I/%	|I h2|/A	|I h3|/A	|I h4|/A	|I h5|/A	|I h6|/A	|I h7|/A	Re(Y)/Ohm-1	Im(Y)/Ohm-1	|Y|/Ohm-1	Phase(Y)/deg	Re(C)/nF	Im(C)/nF	|C|/nF	Phase(C)/deg	Re(M)	Im(M)	|M|	Phase(M)/deg	Re(Permittivity)	Im(Permittivity)	|Permittivity|	Phase(Permittivity)/deg	Re(Resistivity)/Ohm.cm	Im(Resistivity)/Ohm.cm	|Resistivity|/Ohm.cm	Phase(Resistivity)/deg	Re(Conductivity)/mS/cm	Im(Conductivity)/mS/cm	|Conductivity|/mS/cm	Phase(Conductivity)/deg	Tan(Delta)	Loss Angle(Delta)/deg	dq/mA.h	
1.0000186E+006	3.5170424E+000	4.0784383E+000	5.3854661E+000	-4.9227146E+001	1.197625012251810E+002	4.5953372E-001	-1.0710149E-002	3.9022777E-002	2.2379963E-002	1.000000000000000E+000	38	1.1120275E-002	2.0648676E-003	0	-4.299838083136516E-006	-1	-1	-1	0	0	0	0	0	0	-1	-1	-1	0	0	0	0	0	0	1.2126376E-001	1.4062005E-001	1.8568495E-001	4.9227146E+001	2.2379963E+001	1.9299370E+001	2.9552130E+001	-4.0772854E+001	0.0000000E+000	0.0000000E+000	0.0000000E+000	4.0772854E+001	0.0000000E+000	0.0000000E+000	0.0000000E+000	-4.0772854E+001	0.0000000E+000	0.0000000E+000	0.0000000E+000	-4.9227146E+001	0.0000000E+000	0.0000000E+000	0.0000000E+000	4.9227146E+001	8.6235029E-001	4.0772858E+001	-4.299838083136516E-006
7.9433269E+005	3.5658467E+000	3.2087424E+000	4.7970085E+000	-4.1982597E+001	1.207744822866080E+002	4.5952037E-001	-1.7206663E-003	6.2442869E-002	2.7939046E-002	1.000000000000000E+000	38	1.3888054E-002	2.8951487E-003	0	-4.746352167877679E-006	-1	-1	-1	0	0	0	0	0	0	-1	-1	-1	0	0	0	0	0	0	1.5496075E-001	1.3944209E-001	2.0846325E-001	4.1982597E+001	2.7939043E+001	3.1048410E+001	4.1768337E+001	-4.8017403E+001	0.0000000E+000	0.0000000E+000	0.0000000E+000	4.8017403E+001	0.0000000E+000	0.0000000E+000	0.0000000E+000	-4.8017403E+001	0.0000000E+000	0.0000000E+000	0.0000000E+000	-4.1982597E+001	0.0000000E+000	0.0000000E+000	0.0000000E+000	4.1982597E+001	1.1112911E+000	4.8017395E+001	-4.465140847411629E-007
6.3095681E+005	3.5549984E+000	2.5258038E+000	4.3609285E+000	-3.5393551E+001	1.219214902877720E+002	4.5956045E-001	-2.7484247E-003	9.9866748E-002	3.3501338E-002	1.000000000000000E+000	38	1.4459547E-002	3.3157037E-003	0	-2.704963729846188E-006	-1	-1	-1	0	0	0	0	0	0	-1	-1	-1	0	0	0	0	0	0	1.8693106E-001	1.3281332E-001	2.2930896E-001	3.5393551E+001	3.3501335E+001	4.7152199E+001	5.7841763E+001	-5.4606449E+001	0.0000000E+000	0.0000000E+000	0.0000000E+000	5.4606449E+001	0.0000000E+000	0.0000000E+000	0.0000000E+000	-5.4606449E+001	0.0000000E+000	0.0000000E+000	0.0000000E+000	-3.5393551E+001	0.0000000E+000	0.0000000E+000	0.0000000E+000	3.5393551E+001	1.4074721E+000	5.4606445E+001	2.041388438031492E-006
5.0120622E+005	3.5170326E+000	2.0088520E+000	4.0503092E+000	-2.9734060E+001	1.230694891422900E+002	4.5950478E-001	-1.7988260E-003	1.5807229E-001	3.8884390E-002	1.000000000000000E+000	38	1.4547684E-002	3.5917468E-003	0	-6.278518085730158E-007	-1	-1	-1	0	0	0	0	0	0	-1	-1	-1	0	0	0	0	0	0	2.1438779E-001	1.2245360E-001	2.4689473E-001	2.9734060E+001	3.8884392E+001	6.8077522E+001	7.8399902E+001	-6.0265938E+001	0.0000000E+000	0.0000000E+000	0.0000000E+000	6.0265938E+001	0.0000000E+000	0.0000000E+000	0.0000000E+000	-6.0265938E+001	0.0000000E+000	0.0000000E+000	0.0000000E+000	-2.9734060E+001	0.0000000E+000	0.0000000E+000	0.0000000E+000	2.9734060E+001	1.7507675E+000	6.0265938E+001	2.077111921273172E-006
3.9810347E+005	3.4756565E+000	1.6251364E+000	3.8368289E+000	-2.5059700E+001	1.242164838634344E+002	4.5947832E-001	-2.2549920E-003	2.4599960E-001	4.4133577E-002	1.000000000000000E+000	38	1.4522492E-002	3.7850246E-003	0	-5.171359452412515E-006	-1	-1	-1	0	0	0	0	0	0	-1	-1	-1	0	0	0	0	0	0	2.3609781E-001	1.1039386E-001	2.6063189E-001	2.5059700E+001	4.4133575E+001	9.4387863E+001	1.0419617E+002	-6.4940300E+001	0.0000000E+000	0.0000000E+000	0.0000000E+000	6.4940300E+001	0.0000000E+000	0.0000000E+000	0.0000000E+000	-6.4940300E+001	0.0000000E+000	0.0000000E+000	0.0000000E+000	-2.5059700E+001	0.0000000E+000	0.0000000E+000	0.0000000E+000	2.5059700E+001	2.1386859E+000	6.4940300E+001	-4.543507643839499E-006
3.1622997E+005	3.4516513E+000	1.3556446E+000	3.7083244E+000	-2.1442541E+001	1.253634856512217E+002	4.5952922E-001	-2.0613594E-003	3.7125409E-001	4.9614374E-002	1.000000000000000E+000	38	1.4563945E-002	3.9273654E-003	0	2.164448149812718E-006	-1	-1	-1	0	0	0	0	0	0	-1	-1	-1	0	0	0	0	0	0	2.5099871E-001	9.8580368E-002	2.6966357E-001	2.1442541E+001	4.9614384E+001	1.2632480E+002	1.3571861E+002	-6.8557457E+001	0.0000000E+000	0.0000000E+000	0.0000000E+000	6.8557457E+001	0.0000000E+000	0.0000000E+000	0.0000000E+000	-6.8557457E+001	0.0000000E+000	0.0000000E+000	0.0000000E+000	-2.1442541E+001	0.0000000E+000	0.0000000E+000	0.0000000E+000	2.1442541E+001	2.5461330E+000	6.8557457E+001	7.335807602225234E-006
2.5118764E+005	3.4238367E+000	1.1705586E+000	3.6184065E+000	-1.8874790E+001	1.265114954124001E+002	4.5949981E-001	-1.6554501E-003	5.4128838E-001	5.6647442E-002	1.000000000000000E+000	38	1.4559139E-002	4.0236330E-003	0	4.262276305454887E-006	-1	-1	-1	0	0	0	0	0	0	-1	-1	-1	0	0	0	0	0	0	2.6150399E-001	8.9404300E-002	2.7636474E-001	1.8874790E+001	5.6647430E+001	1.6569150E+002	1.7510741E+002	-7.1125214E+001	0.0000000E+000	0.0000000E+000	0.0000000E+000	7.1125214E+001	0.0000000E+000	0.0000000E+000	0.0000000E+000	-7.1125214E+001	0.0000000E+000	0.0000000E+000	0.0000000E+000	-1.8874790E+001	0.0000000E+000	0.0000000E+000	0.0000000E+000	1.8874790E+001	2.9249597E+000	7.1125214E+001	2.097828155642169E-006
1.9954350E+005	3.4100559E+000	1.0589912E+000	3.5707064E+000	-1.7252157E+001	1.276585004269291E+002	4.5948923E-001	-2.1432783E-003	7.5316513E-001	6.6247061E-002	1.000000000000000E+000	38	1.4560070E-002	4.0776441E-003	0	6.382539543426699E-006	-1	-1	-1	0	0	0	0	0	0	-1	-1	-1	0	0	0	0	0	0	2.6745653E-001	8.3058506E-002	2.8005663E-001	1.7252157E+001	6.6247078E+001	2.1332207E+002	2.2337184E+002	-7.2747841E+001	0.0000000E+000	0.0000000E+000	0.0000000E+000	7.2747841E+001	0.0000000E+000	0.0000000E+000	0.0000000E+000	-7.2747841E+001	0.0000000E+000	0.0000000E+000	0.0000000E+000	-1.7252157E+001	0.0000000E+000	0.0000000E+000	0.0000000E+000	1.7252157E+001	3.2200985E+000	7.2747841E+001	2.120263237971812E-006
1.5848613E+005	3.4022043E+000	1.0047499E+000	3.5474663E+000	-1.6453094E+001	1.288055027480732E+002	4.5952079E-001	-2.9494921E-003	9.9947268E-001	8.0177091E-002	1.000000000000000E+000	38	1.4563895E-002	4.1054357E-003	0	6.556473764694399E-006	-1	-1	-1	0	0	0	0	0	0	-1	-1	-1	0	0	0	0	0	0	2.7034843E-001	7.9840176E-002	2.8189135E-001	1.6453094E+001	8.0177101E+001	2.7148932E+002	2.8308093E+002	-7.3546906E+001	0.0000000E+000	0.0000000E+000	0.0000000E+000	7.3546906E+001	0.0000000E+000	0.0000000E+000	0.0000000E+000	-7.3546906E+001	0.0000000E+000	0.0000000E+000	0.0000000E+000	-1.6453094E+001	0.0000000E+000	0.0000000E+000	0.0000000E+000	1.6453094E+001	3.3861206E+000	7.3546906E+001	1.739342212677002E-007
1.2590929E+005	3.4093280E+000	1.0068773E+000	3.5549006E+000	-1.6453459E+001	1.299524960292183E+002	4.5948207E-001	-2.0296990E-003	1.2554107E+000	1.0071264E-001	1.000000000000000E+000	38	1.4587271E-002	4.1034259E-003	0	-6.067013117588229E-007	-1	-1	-1	0	0	0	0	0	0	-1	-1	-1	0	0	0	0	0	0	2.6978254E-001	7.9674914E-002	2.8130183E-001	1.6453459E+001	1.0071265E+002	3.4101712E+002	3.5557800E+002	-7.3546539E+001	0.0000000E+000	0.0000000E+000	0.0000000E+000	7.3546539E+001	0.0000000E+000	0.0000000E+000	0.0000000E+000	-7.3546539E+001	0.0000000E+000	0.0000000E+000	0.0000000E+000	-1.6453459E+001	0.0000000E+000	0.0000000E+000	0.0000000E+000	1.6453459E+001	3.3860412E+000	7.3546539E+001	-7.163175076453222E-006
1.0000371E+005	3.4261551E+000	1.0561380E+000	3.5852427E+000	-1.7132309E+001	1.310994901370286E+002	4.5951459E-001	-2.4560804E-003	1.5068961E+000	1.3076380E-001	1.000000000000000E+000	38	1.4584992E-002	4.0680626E-003	0	-3.340705763522742E-006	5.9746832E-001	2.7618816E-001	8.8345737E+000	3.0271658E-005	3.3261342E-005	1.5726830E-005	2.2763366E-005	5.0648490E-005	4.0329727E-005	7.3008411E-002	5.1236916E-002	7.0305127E-001	2.0479661E-006	1.2490450E-006	9.3491150E-007	9.7784414E-007	9.2981600E-007	4.4449072E-007	2.6654458E-001	8.2164377E-002	2.7892113E-001	1.7132309E+001	1.3076382E+002	4.2420316E+002	4.4390033E+002	-7.2867691E+001	0.0000000E+000	0.0000000E+000	0.0000000E+000	7.2867691E+001	0.0000000E+000	0.0000000E+000	0.0000000E+000	-7.2867691E+001	0.0000000E+000	0.0000000E+000	0.0000000E+000	-1.7132309E+001	0.0000000E+000	0.0000000E+000	0.0000000E+000	1.7132309E+001	3.2440410E+000	7.2867691E+001	-2.734004451763920E-006
7.9433273E+004	3.4418817E+000	1.1561223E+000	3.6308632E+000	-1.8567114E+001	1.322474798715120E+002	4.5953998E-001	-2.3722937E-003	1.7330612E+000	1.7571211E-001	1.000000000000000E+000	38	1.4560968E-002	4.0103323E-003	0	-9.743331199984015E-006	4.9037760E-001	3.4145010E-001	8.9127245E+000	2.9623690E-005	1.5513044E-005	4.1001720E-005	1.3485099E-005	2.8360453E-005	3.1391297E-005	6.3195646E-002	4.4907399E-002	7.0534497E-001	1.4892604E-006	1.4905631E-006	4.5585594E-007	6.3860790E-007	5.1672993E-007	9.3306932E-007	2.6108155E-001	8.7696850E-002	2.7541661E-001	1.8567114E+001	1.7571211E+002	5.2311096E+002	5.5183313E+002	-7.1432884E+001	0.0000000E+000	0.0000000E+000	0.0000000E+000	7.1432884E+001	0.0000000E+000	0.0000000E+000	0.0000000E+000	-7.1432884E+001	0.0000000E+000	0.0000000E+000	0.0000000E+000	-1.8567114E+001	0.0000000E+000	0.0000000E+000	0.0000000E+000	1.8567114E+001	2.9770913E+000	7.1432884E+001	-6.402625436461272E-006
6.3093828E+004	3.4693823E+000	1.3060721E+000	3.7070794E+000	-2.0629181E+001	1.333934994726587E+002	4.5948651E-001	-2.3611290E-003	1.9313726E+000	2.3973787E-001	1.000000000000000E+000	38	1.4577669E-002	3.9323866E-003	0	-5.637982837002104E-006	5.2944547E-001	2.4014750E-001	8.7803831E+000	1.5984509E-005	1.7812832E-005	3.8993094E-005	4.1189694E-005	1.0353575E-005	4.0658895E-005	6.1132621E-002	5.6050494E-002	7.2710711E-001	1.2328051E-006	1.3845628E-006	9.2650953E-007	6.6515031E-007	6.7671789E-007	5.2997609E-007	2.5245756E-001	9.5039330E-002	2.6975414E-001	2.0629181E+001	2.3973785E+002	6.3682727E+002	6.8045807E+002	-6.9370819E+001	0.0000000E+000	0.0000000E+000	0.0000000E+000	6.9370819E+001	0.0000000E+000	0.0000000E+000	0.0000000E+000	-6.9370819E+001	0.0000000E+000	0.0000000E+000	0.0000000E+000	-2.0629181E+001	0.0000000E+000	0.0000000E+000	0.0000000E+000	2.0629181E+001	2.6563482E+000	6.9370819E+001	4.105348362981911E-006
5.0122477E+004	3.5134048E+000	1.5089269E+000	3.8237252E+000	-2.3242413E+001	1.345404812871275E+002	4.5950538E-001	-2.6608962E-003	2.1043570E+000	3.2770452E-001	1.000000000000000E+000	38	1.4621352E-002	3.8238501E-003	0	-7.838053633070861E-006	5.2808994E-001	3.6471257E-001	8.7666159E+000	2.8463246E-005	3.8186419E-005	2.0011723E-005	1.3125110E-005	3.3882472E-005	2.9272021E-005	5.3241633E-002	7.1979158E-002	7.4532783E-001	9.5714563E-007	1.0000097E-006	6.6908166E-007	7.5236358E-007	6.1637616E-007	7.0384567E-007	2.4030060E-001	1.0320359E-001	2.6152506E-001	2.3242413E+001	3.2770456E+002	7.6303143E+002	8.3042596E+002	-6.6757584E+001	0.0000000E+000	0.0000000E+000	0.0000000E+000	6.6757584E+001	0.0000000E+000	0.0000000E+000	0.0000000E+000	-6.6757584E+001	0.0000000E+000	0.0000000E+000	0.0000000E+000	-2.3242413E+001	0.0000000E+000	0.0000000E+000	0.0000000E+000	2.3242413E+001	2.3284130E+000	6.6757584E+001	-2.200070796068758E-006
3.9814063E+004	3.5617754E+000	1.7866505E+000	3.9847665E+000	-2.6639166E+001	1.356885029416444E+002	4.5951319E-001	-1.6964205E-003	2.2374020E+000	4.4979799E-001	1.000000000000000E+000	38	1.4647705E-002	3.6759255E-003	0	-7.072902156622149E-006	4.6402127E-001	2.8397700E-001	8.7594166E+000	3.1105170E-005	1.3710804E-005	2.8465889E-005	3.3661905E-005	2.0150779E-005	2.3802668E-005	6.2600844E-002	8.2479052E-002	7.8916913E-001	7.0579785E-007	1.5425803E-006	5.6791652E-007	1.1323377E-006	4.7150891E-007	3.7680471E-007	2.2431627E-001	1.1252107E-001	2.5095573E-001	2.6639166E+001	4.4979800E+002	8.9669427E+002	1.0031844E+003	-6.3360832E+001	0.0000000E+000	0.0000000E+000	0.0000000E+000	6.3360832E+001	0.0000000E+000	0.0000000E+000	0.0000000E+000	-6.3360832E+001	0.0000000E+000	0.0000000E+000	0.0000000E+000	-2.6639166E+001	0.0000000E+000	0.0000000E+000	0.0000000E+000	2.6639166E+001	1.9935490E+000	6.3360832E+001	7.651514764487119E-007
3.1621143E+004	3.6151702E+000	2.1412175E+000	4.2016983E+000	-3.0637697E+001	1.368354825427668E+002	4.5951837E-001	-1.9477860E-003	2.3506167E+000	6.1045498E-001	1.000000000000000E+000	38	1.4665239E-002	3.4903120E-003	0	-5.036989528841029E-006	4.8910543E-001	3.3108935E-001	8.7338724E+000	2.9176197E-005	2.9448303E-005	4.4165325E-005	2.0956679E-005	1.6409776E-005	2.2616941E-005	6.1930854E-002	7.8380354E-002	8.1738025E-001	4.6148054E-007	1.4894757E-006	8.9707470E-007	5.1868994E-007	3.8538329E-007	5.8058424E-007	2.0477599E-001	1.2128611E-001	2.3799901E-001	3.0637697E+001	6.1045496E+002	1.0306748E+003	1.1978922E+003	-5.9362305E+001	0.0000000E+000	0.0000000E+000	0.0000000E+000	5.9362305E+001	0.0000000E+000	0.0000000E+000	0.0000000E+000	-5.9362305E+001	0.0000000E+000	0.0000000E+000	0.0000000E+000	-3.0637697E+001	0.0000000E+000	0.0000000E+000	0.0000000E+000	3.0637697E+001	1.6883713E+000	5.9362305E+001	2.035912627781121E-006
2.5116906E+004	3.6862149E+000	2.5880380E+000	4.5040116E+000	-3.5072136E+001	1.379824885972921E+002	4.5953909E-001	-2.4542420E-003	2.4484057E+000	8.0839878E-001	1.000000000000000E+000	38	1.4741256E-002	3.2729169E-003	0	-7.180509867896843E-006	4.0254921E-001	3.7906930E-001	8.9366903E+000	2.7372464E-005	1.6928218E-005	1.7627375E-005	2.3401788E-005	1.9090345E-005	3.1305404E-005	5.6906514E-002	8.3330601E-002	8.7588334E-001	6.9475527E-007	1.2712376E-006	3.7317400E-007	5.5143363E-007	3.0674516E-007	5.4982138E-007	1.8171118E-001	1.2757678E-001	2.2202429E-001	3.5072136E+001	8.0839874E+002	1.1514249E+003	1.4068717E+003	-5.4927864E+001	0.0000000E+000	0.0000000E+000	0.0000000E+000	5.4927864E+001	0.0000000E+000	0.0000000E+000	0.0000000E+000	-5.4927864E+001	0.0000000E+000	0.0000000E+000	0.0000000E+000	-3.5072136E+001	0.0000000E+000	0.0000000E+000	0.0000000E+000	3.5072136E+001	1.4243280E+000	5.4927864E+001	-2.143520339055814E-006
1.9948781E+004	3.7797561E+000	3.1589110E+000	4.9259796E+000	-3.9887009E+001	1.391295014517527E+002	4.5949852E-001	-2.1656652E-003	2.5256104E+000	1.0386182E+000	1.000000000000000E+000	38	1.4751268E-002	2.9945855E-003	0	-6.848099760452492E-006	5.4987639E-001	2.4713595E-001	8.7058420E+000	2.4319446E-005	3.8005564E-005	4.8401202E-005	1.7314611E-005	3.4219953E-005	1.6590620E-005	8.1626140E-002	1.0224765E-001	9.6448290E-001	1.1862342E-006	1.1463941E-006	1.4160822E-006	7.2017150E-007	6.1662041E-007	4.1507440E-007	1.5576811E-001	1.3018236E-001	2.0300530E-001	3.9887009E+001	1.0386182E+003	1.2427460E+003	1.6196127E+003	-5.0112991E+001	0.0000000E+000	0.0000000E+000	0.0000000E+000	5.0112991E+001	0.0000000E+000	0.0000000E+000	0.0000000E+000	-5.0112991E+001	0.0000000E+000	0.0000000E+000	0.0000000E+000	-3.9887009E+001	0.0000000E+000	0.0000000E+000	0.0000000E+000	3.9887009E+001	1.1965377E+000	5.0112991E+001	3.324101074443509E-007
1.5847683E+004	3.8864274E+000	3.8616085E+000	5.4787169E+000	-4.4816467E+001	1.402774989195896E+002	4.5948577E-001	-1.7001843E-003	2.6006753E+000	1.2920071E+000	1.000000000000000E+000	38	1.4877592E-002	2.7155250E-003	0	-6.446451670968802E-006	4.9985412E-001	3.5525078E-001	8.7719879E+000	2.9432609E-005	2.9318277E-005	2.7060676E-005	1.9662959E-005	2.0311822E-005	3.4769866E-005	1.0393135E-001	1.2445446E-001	1.0630448E+000	1.8384807E-006	1.3268483E-006	5.0337917E-007	2.9243409E-007	5.2268837E-007	1.3094846E-006	1.2947707E-001	1.2865022E-001	1.8252449E-001	4.4816467E+001	1.2920070E+003	1.3003109E+003	1.8330549E+003	-4.5183533E+001	0.0000000E+000	0.0000000E+000	0.0000000E+000	4.5183533E+001	0.0000000E+000	0.0000000E+000	0.0000000E+000	-4.5183533E+001	0.0000000E+000	0.0000000E+000	0.0000000E+000	-4.4816467E+001	0.0000000E+000	0.0000000E+000	0.0000000E+000	4.4816467E+001	1.0064270E+000	4.5183533E+001	4.016480894836905E-007
1.2590930E+004	4.0386896E+000	4.7301102E+000	6.2197232E+000	-4.9508450E+001	1.414244886274246E+002	4.5950723E-001	-1.8007348E-003	2.6723363E+000	1.5455800E+000	1.000000000000000E+000	38	1.4775607E-002	2.3756053E-003	0	-9.710062014197724E-006	5.5533630E-001	3.1776023E-001	8.8487606E+000	2.9112409E-005	4.0242434E-005	4.2761021E-005	2.4785890E-005	3.3022621E-005	2.0037965E-005	1.1266929E-001	1.6273765E-001	1.2146989E+000	2.3171942E-006	7.1208098E-007	3.7580557E-007	7.6910618E-007	2.9125766E-007	3.1682444E-007	1.0439949E-001	1.2227260E-001	1.6077887E-001	4.9508450E+001	1.5455800E+003	1.3196559E+003	2.0323162E+003	-4.0491550E+001	0.0000000E+000	0.0000000E+000	0.0000000E+000	4.0491550E+001	0.0000000E+000	0.0000000E+000	0.0000000E+000	-4.0491550E+001	0.0000000E+000	0.0000000E+000	0.0000000E+000	-4.9508450E+001	0.0000000E+000	0.0000000E+000	0.0000000E+000	4.9508450E+001	8.5382569E-001	4.0491547E+001	-3.263610343228922E-006
