EC-Lab ASCII FILE
Nb header lines : 67                          

Potentio Electrochemical Impedance Spectroscopy

Run on channel : 15 (SN 19485)
User : 
Electrode connection : standard
Potential control : Ewe
Ewe ctrl range : min = -1.00 V, max = 1.00 V
Ewe,I filtering : 50 kHz
Safety Limits :
	Do not start on E overload
Channel : Floating
Acquisition started on : 02/23/2024 14:14:06.635
Loaded Setting File :  NONE
Saved on :
	File : 240223-OCV-EIS-Fe2Fe3_5mM-HCl1M-2000RPM-Ag_AgCl_BLF8-GC-RDE-1minRestVSEoc-3ppf-14p1mVAmplitude_06_PEIS_C15.mpr
	Directory : C:\Data\mathias\RDE-RPM-variation\
	Host : 192.168.0.1
Device : VMP-300 (SN 0826)
Address : USB
EC-Lab for windows v11.52 (software)
Internet server v11.52 (firmware)
Command interpretor v11.52 (firmware)
Electrode material : 
Initial state : 
Electrolyte : 
Comments : 
Cable : special
Reference electrode : SCE Saturated Calomel Electrode (0.241 V)
Electrode surface area : 0.001 cm²
Characteristic mass : 0.001 g
Equivalent Weight : 0.000 g/eq.
Density : 0.000 g/cm3
Volume (V) : 0.001 cm³
Record EIS quality indicators
Cycle Definition : Charge/Discharge alternance
Mode                Single sine         
E (V)               0.0000              
vs.                 Eoc                 
tE (h:m:s)          0:01:0.0000         
record              0                   
dI                  0.000               
unit dI             mA                  
dt (s)              0.000               
fi                  1.000               
unit fi             MHz                 
ff                  100.000             
unit ff             mHz                 
Nd                  10                  
Points              per decade          
spacing             Logarithmic         
Va (mV)             14.1                
pw                  0.10                
Na                  3                   
corr                0                   
E range min (V)     -1.000              
E range max (V)     1.000               
I Range             Auto                
Bandwidth           8                   
nc cycles           0                   
goto Ns'            0                   
nr cycles           0                   
inc. cycle          1                   

freq/Hz	Re(Z)/Ohm	-Im(Z)/Ohm	|Z|/Ohm	Phase(Z)/deg	time/s	<Ewe>/V	<I>/mA	Cs/µF	Cp/µF	cycle number	I Range	|Ewe|/V	|I|/A	Ns	(Q-Qo)/mA.h	THD Ewe/%	NSD Ewe/%	NSR Ewe/%	|Ewe h2|/V	|Ewe h3|/V	|Ewe h4|/V	|Ewe h5|/V	|Ewe h6|/V	|Ewe h7|/V	THD I/%	NSD I/%	NSR I/%	|I h2|/A	|I h3|/A	|I h4|/A	|I h5|/A	|I h6|/A	|I h7|/A	Re(Y)/Ohm-1	Im(Y)/Ohm-1	|Y|/Ohm-1	Phase(Y)/deg	Re(C)/nF	Im(C)/nF	|C|/nF	Phase(C)/deg	Re(M)	Im(M)	|M|	Phase(M)/deg	Re(Permittivity)	Im(Permittivity)	|Permittivity|	Phase(Permittivity)/deg	Re(Resistivity)/Ohm.cm	Im(Resistivity)/Ohm.cm	|Resistivity|/Ohm.cm	Phase(Resistivity)/deg	Re(Conductivity)/mS/cm	Im(Conductivity)/mS/cm	|Conductivity|/mS/cm	Phase(Conductivity)/deg	Tan(Delta)	Loss Angle(Delta)/deg	dq/mA.h	
1.0000186E+006	3.5487330E+000	4.0775867E+000	5.4055729E+000	-4.8966873E+001	1.088404524012876E+003	4.5968446E-001	-1.2143836E-002	3.9030928E-002	2.2209143E-002	1.000000000000000E+000	38	1.1145204E-002	2.0617989E-003	0	-2.941506776454238E-006	-1	-1	-1	0	0	0	0	0	0	-1	-1	-1	0	0	0	0	0	0	1.2144786E-001	1.3954675E-001	1.8499427E-001	4.8966873E+001	2.2209143E+001	1.9328669E+001	2.9442205E+001	-4.1033127E+001	0.0000000E+000	0.0000000E+000	0.0000000E+000	4.1033127E+001	0.0000000E+000	0.0000000E+000	0.0000000E+000	-4.1033127E+001	0.0000000E+000	0.0000000E+000	0.0000000E+000	-4.8966873E+001	0.0000000E+000	0.0000000E+000	0.0000000E+000	4.8966873E+001	8.7030226E-001	4.1033127E+001	-2.941506776454238E-006
7.9433269E+005	3.5827403E+000	3.2007880E+000	4.8042765E+000	-4.1777317E+001	1.089416525367589E+003	4.5966694E-001	-3.0538114E-003	6.2598050E-002	2.7785527E-002	1.000000000000000E+000	38	1.3879097E-002	2.8889047E-003	0	-5.954245843057935E-006	-1	-1	-1	0	0	0	0	0	0	-1	-1	-1	0	0	0	0	0	0	1.5522416E-001	1.3867588E-001	2.0814788E-001	4.1777317E+001	2.7785526E+001	3.1101191E+001	4.1705151E+001	-4.8222683E+001	0.0000000E+000	0.0000000E+000	0.0000000E+000	4.8222683E+001	0.0000000E+000	0.0000000E+000	0.0000000E+000	-4.8222683E+001	0.0000000E+000	0.0000000E+000	0.0000000E+000	-4.1777317E+001	0.0000000E+000	0.0000000E+000	0.0000000E+000	4.1777317E+001	1.1193306E+000	4.8222687E+001	-3.012739066603697E-006
6.3095681E+005	3.5717216E+000	2.5135925E+000	4.3675327E+000	-3.5135899E+001	1.090563538035436E+003	4.5966855E-001	-3.4764390E-003	1.0035191E-001	3.3238623E-002	1.000000000000000E+000	38	1.4457020E-002	3.3101114E-003	0	-2.797821463001633E-006	-1	-1	-1	0	0	0	0	0	0	-1	-1	-1	0	0	0	0	0	0	1.8724285E-001	1.3177183E-001	2.2896223E-001	3.5135899E+001	3.3238625E+001	4.7230846E+001	5.7754299E+001	-5.4864101E+001	0.0000000E+000	0.0000000E+000	0.0000000E+000	5.4864101E+001	0.0000000E+000	0.0000000E+000	0.0000000E+000	-5.4864101E+001	0.0000000E+000	0.0000000E+000	0.0000000E+000	-3.5135899E+001	0.0000000E+000	0.0000000E+000	0.0000000E+000	3.5135899E+001	1.4209628E+000	5.4864105E+001	3.156424380056301E-006
5.0120622E+005	3.5391130E+000	2.0063140E+000	4.0682449E+000	-2.9548788E+001	1.091711538516625E+003	4.5969078E-001	-3.4149848E-003	1.5827225E-001	3.8493589E-002	1.000000000000000E+000	38	1.4580492E-002	3.5839758E-003	0	-9.446983481188201E-006	-1	-1	-1	0	0	0	0	0	0	-1	-1	-1	0	0	0	0	0	0	2.1383572E-001	1.2122291E-001	2.4580625E-001	2.9548788E+001	3.8493587E+001	6.7902206E+001	7.8054253E+001	-6.0451210E+001	0.0000000E+000	0.0000000E+000	0.0000000E+000	6.0451210E+001	0.0000000E+000	0.0000000E+000	0.0000000E+000	-6.0451210E+001	0.0000000E+000	0.0000000E+000	0.0000000E+000	-2.9548788E+001	0.0000000E+000	0.0000000E+000	0.0000000E+000	2.9548788E+001	1.7639875E+000	6.0451210E+001	-6.649162018186567E-006
3.9810347E+005	3.4977155E+000	1.6231307E+000	3.8559780E+000	-2.4893871E+001	1.092858538731118E+003	4.5965698E-001	-3.0109405E-003	2.4630357E-001	4.3642394E-002	1.000000000000000E+000	38	1.4554660E-002	3.7745703E-003	0	-1.286213944689371E-005	-1	-1	-1	0	0	0	0	0	0	-1	-1	-1	0	0	0	0	0	0	2.3524228E-001	1.0916524E-001	2.5933757E-001	2.4893871E+001	4.3642399E+001	9.4045830E+001	1.0367872E+002	-6.5106125E+001	0.0000000E+000	0.0000000E+000	0.0000000E+000	6.5106125E+001	0.0000000E+000	0.0000000E+000	0.0000000E+000	-6.5106125E+001	0.0000000E+000	0.0000000E+000	0.0000000E+000	-2.4893871E+001	0.0000000E+000	0.0000000E+000	0.0000000E+000	2.4893871E+001	2.1549191E+000	6.5106125E+001	-3.415155965705507E-006
3.1622997E+005	3.4595671E+000	1.3538133E+000	3.7150254E+000	-2.1371622E+001	1.094005532145558E+003	4.5967790E-001	-3.4540854E-003	3.7175629E-001	4.9368769E-002	1.000000000000000E+000	38	1.4570657E-002	3.9220881E-003	0	-5.115174315171317E-006	-1	-1	-1	0	0	0	0	0	0	-1	-1	-1	0	0	0	0	0	0	2.5066757E-001	9.8092362E-002	2.6917717E-001	2.1371622E+001	4.9368763E+001	1.2615814E+002	1.3547380E+002	-6.8628380E+001	0.0000000E+000	0.0000000E+000	0.0000000E+000	6.8628380E+001	0.0000000E+000	0.0000000E+000	0.0000000E+000	-6.8628380E+001	0.0000000E+000	0.0000000E+000	0.0000000E+000	-2.1371622E+001	0.0000000E+000	0.0000000E+000	0.0000000E+000	2.1371622E+001	2.5554240E+000	6.8628380E+001	7.746965131722392E-006
2.5118764E+005	3.4288201E+000	1.1709477E+000	3.6232479E+000	-1.8855120E+001	1.095152535693371E+003	4.5967275E-001	-2.2810588E-003	5.4110855E-001	5.6514937E-002	1.000000000000000E+000	38	1.4552787E-002	4.0165032E-003	0	-5.430297037631842E-006	-1	-1	-1	0	0	0	0	0	0	-1	-1	-1	0	0	0	0	0	0	2.6118523E-001	8.9195177E-002	2.7599546E-001	1.8855120E+001	5.6514931E+001	1.6548952E+002	1.7487343E+002	-7.1144882E+001	0.0000000E+000	0.0000000E+000	0.0000000E+000	7.1144882E+001	0.0000000E+000	0.0000000E+000	0.0000000E+000	-7.1144882E+001	0.0000000E+000	0.0000000E+000	0.0000000E+000	-1.8855120E+001	0.0000000E+000	0.0000000E+000	0.0000000E+000	1.8855120E+001	2.9282436E+000	7.1144882E+001	-3.151227224605257E-007
1.9954350E+005	3.4184277E+000	1.0465473E+000	3.5750399E+000	-1.7021902E+001	1.096299521241221E+003	4.5967549E-001	-3.2250562E-003	7.6212060E-001	6.5309994E-002	1.000000000000000E+000	38	1.4544048E-002	4.0682200E-003	0	-5.965156434052106E-006	-1	-1	-1	0	0	0	0	0	0	-1	-1	-1	0	0	0	0	0	0	2.6746356E-001	8.1883624E-002	2.7971715E-001	1.7021902E+001	6.5309998E+001	2.1332767E+002	2.2310107E+002	-7.2978096E+001	0.0000000E+000	0.0000000E+000	0.0000000E+000	7.2978096E+001	0.0000000E+000	0.0000000E+000	0.0000000E+000	-7.2978096E+001	0.0000000E+000	0.0000000E+000	0.0000000E+000	-1.7021902E+001	0.0000000E+000	0.0000000E+000	0.0000000E+000	1.7021902E+001	3.2663863E+000	7.2978096E+001	-5.348593964202641E-007
1.5848613E+005	3.4177949E+000	9.8833138E-001	3.5578253E+000	-1.6128401E+001	1.097447527669079E+003	4.5966381E-001	-3.3591208E-003	1.0160762E+000	7.8408331E-002	1.000000000000000E+000	38	1.4593292E-002	4.1017449E-003	0	-8.395791114403337E-006	-1	-1	-1	0	0	0	0	0	0	-1	-1	-1	0	0	0	0	0	0	2.7000806E-001	7.8078836E-002	2.8107056E-001	1.6128401E+001	7.8408348E+001	2.7114752E+002	2.8225671E+002	-7.3871597E+001	0.0000000E+000	0.0000000E+000	0.0000000E+000	7.3871597E+001	0.0000000E+000	0.0000000E+000	0.0000000E+000	-7.3871597E+001	0.0000000E+000	0.0000000E+000	0.0000000E+000	-1.6128401E+001	0.0000000E+000	0.0000000E+000	0.0000000E+000	1.6128401E+001	3.4581468E+000	7.3871597E+001	-2.430634680351230E-006
1.2590929E+005	3.4187284E+000	9.8551220E-001	3.5579400E+000	-1.6080614E+001	1.098595526123594E+003	4.5964205E-001	-3.0909996E-003	1.2826270E+000	9.8407261E-002	1.000000000000000E+000	38	1.4554164E-002	4.0906155E-003	0	-6.204563637626254E-006	-1	-1	-1	0	0	0	0	0	0	-1	-1	-1	0	0	0	0	0	0	2.7006438E-001	7.7851102E-002	2.8106150E-001	1.6080614E+001	9.8407242E+001	3.4137338E+002	3.5527423E+002	-7.3919388E+001	0.0000000E+000	0.0000000E+000	0.0000000E+000	7.3919388E+001	0.0000000E+000	0.0000000E+000	0.0000000E+000	-7.3919388E+001	0.0000000E+000	0.0000000E+000	0.0000000E+000	-1.6080614E+001	0.0000000E+000	0.0000000E+000	0.0000000E+000	1.6080614E+001	3.4689863E+000	7.3919388E+001	2.191227476777083E-006
1.0000371E+005	3.4342625E+000	1.0257847E+000	3.5841866E+000	-1.6630434E+001	1.099742518791405E+003	4.5965913E-001	-2.4262911E-003	1.5514855E+000	1.2708053E-001	1.000000000000000E+000	38	1.4580433E-002	4.0679895E-003	0	-7.089881979239484E-007	4.3910563E-001	3.0371013E-001	8.7951317E+000	2.4961410E-005	1.4285476E-005	2.8211043E-005	1.3929362E-005	3.2741176E-005	2.8495342E-005	6.6974051E-002	2.8748425E-002	7.0991272E-001	1.8417453E-006	1.4885353E-006	5.8571368E-007	7.4375026E-007	5.6599629E-007	4.9167238E-007	2.6733279E-001	7.9850018E-002	2.7900332E-001	1.6630434E+001	1.2708051E+002	4.2545758E+002	4.4403110E+002	-7.3369568E+001	0.0000000E+000	0.0000000E+000	0.0000000E+000	7.3369568E+001	0.0000000E+000	0.0000000E+000	0.0000000E+000	-7.3369568E+001	0.0000000E+000	0.0000000E+000	0.0000000E+000	-1.6630434E+001	0.0000000E+000	0.0000000E+000	0.0000000E+000	1.6630434E+001	3.3479369E+000	7.3369568E+001	5.495575439702305E-006
7.9433273E+004	3.4543390E+000	1.1304351E+000	3.6346033E+000	-1.8120724E+001	1.100889527645893E+003	4.5967913E-001	-2.9532176E-003	1.7724420E+000	1.7145465E-001	1.000000000000000E+000	38	1.4612746E-002	4.0204516E-003	0	-5.563780704771893E-006	4.7922540E-001	2.3743731E-001	8.8366032E+000	2.7988202E-005	2.6807551E-005	2.2758688E-005	2.7503651E-005	2.1672064E-005	2.7199412E-005	5.4420844E-002	2.4212278E-002	7.0624340E-001	1.2357807E-006	1.1571814E-006	8.0541190E-007	4.5652516E-007	5.1459676E-007	6.5940975E-007	2.6148748E-001	8.5571982E-002	2.7513319E-001	1.8120724E+001	1.7145470E+002	5.2392438E+002	5.5126532E+002	-7.1879272E+001	0.0000000E+000	0.0000000E+000	0.0000000E+000	7.1879272E+001	0.0000000E+000	0.0000000E+000	0.0000000E+000	-7.1879272E+001	0.0000000E+000	0.0000000E+000	0.0000000E+000	-1.8120724E+001	0.0000000E+000	0.0000000E+000	0.0000000E+000	1.8120724E+001	3.0557606E+000	7.1879272E+001	-4.854792506847945E-006
6.3093828E+004	3.4831789E+000	1.2719879E+000	3.7081652E+000	-2.0061192E+001	1.102037535193725E+003	4.5966518E-001	-2.5640840E-003	1.9831257E+000	2.3334478E-001	1.000000000000000E+000	38	1.4623112E-002	3.9434899E-003	0	-1.896210035697247E-006	4.9912971E-001	2.7908188E-001	8.8377285E+000	3.0919371E-005	3.5986312E-005	1.8554752E-005	2.2088368E-005	3.3461783E-005	1.9591891E-005	6.1900914E-002	2.7406620E-002	7.5523645E-001	1.2596802E-006	1.3805965E-006	5.9451372E-007	6.9360209E-007	9.8890564E-007	5.3230599E-007	2.5331309E-001	9.2504919E-002	2.6967514E-001	2.0061192E+001	2.3334473E+002	6.3898535E+002	6.8025879E+002	-6.9938812E+001	0.0000000E+000	0.0000000E+000	0.0000000E+000	6.9938812E+001	0.0000000E+000	0.0000000E+000	0.0000000E+000	-6.9938812E+001	0.0000000E+000	0.0000000E+000	0.0000000E+000	-2.0061192E+001	0.0000000E+000	0.0000000E+000	0.0000000E+000	2.0061192E+001	2.7383742E+000	6.9938812E+001	3.667570669074646E-006
5.0122477E+004	3.5196528E+000	1.4694632E+000	3.8140895E+000	-2.2660648E+001	1.103184532101557E+003	4.5969540E-001	-2.1116256E-003	2.1608713E+000	3.2074845E-001	1.000000000000000E+000	38	1.4614254E-002	3.8316494E-003	0	-8.558235269078674E-006	4.2340541E-001	2.4815789E-001	8.7516727E+000	9.2264672E-006	1.7930204E-005	2.3258463E-005	2.6183481E-005	1.9170962E-005	3.6985050E-005	7.2808452E-002	3.0879760E-002	7.4283278E-001	6.2942797E-007	1.8850369E-006	5.8017173E-007	7.0041784E-007	1.2053268E-006	1.0622284E-006	2.4194580E-001	1.0101293E-001	2.6218578E-001	2.2660648E+001	3.2074838E+002	7.6825555E+002	8.3252393E+002	-6.7339355E+001	0.0000000E+000	0.0000000E+000	0.0000000E+000	6.7339355E+001	0.0000000E+000	0.0000000E+000	0.0000000E+000	-6.7339355E+001	0.0000000E+000	0.0000000E+000	0.0000000E+000	-2.2660648E+001	0.0000000E+000	0.0000000E+000	0.0000000E+000	2.2660648E+001	2.3951962E+000	6.7339355E+001	-6.662025233381427E-006
3.9814063E+004	3.5646584E+000	1.7358871E+000	3.9648573E+000	-2.5964762E+001	1.104331538876053E+003	4.5967764E-001	-2.5435984E-003	2.3028316E+000	4.4141793E-001	1.000000000000000E+000	38	1.4642780E-002	3.6931417E-003	0	-5.200468147807340E-006	4.5053807E-001	3.4824592E-001	8.7103033E+000	2.6988886E-005	2.0045889E-005	2.5555193E-005	1.3196888E-005	2.2730064E-005	3.3560424E-005	6.0415059E-002	5.7976056E-002	7.7591705E-001	6.5554764E-007	1.2653243E-006	7.2845887E-007	7.6222256E-007	8.7405289E-007	9.1029125E-007	2.2675809E-001	1.1042473E-001	2.5221589E-001	2.5964762E+001	4.4141791E+002	9.0645544E+002	1.0082218E+003	-6.4035240E+001	0.0000000E+000	0.0000000E+000	0.0000000E+000	6.4035240E+001	0.0000000E+000	0.0000000E+000	0.0000000E+000	-6.4035240E+001	0.0000000E+000	0.0000000E+000	0.0000000E+000	-2.5964762E+001	0.0000000E+000	0.0000000E+000	0.0000000E+000	2.5964762E+001	2.0535083E+000	6.4035240E+001	3.357767121271333E-006
3.1621143E+004	3.6145711E+000	2.0805604E+000	4.1705942E+000	-2.9924889E+001	1.105478535757167E+003	4.5966053E-001	-2.8508240E-003	2.4191468E+000	6.0204232E-001	1.000000000000000E+000	38	1.4649478E-002	3.5125639E-003	0	-5.951110895567884E-006	4.1387331E-001	4.3836516E-001	8.8264952E+000	1.3532154E-005	3.5826750E-005	1.3630903E-005	2.0002408E-005	2.6121217E-005	1.8832601E-005	7.2535723E-002	4.4202682E-002	8.0350792E-001	7.7241407E-007	1.5770411E-006	1.0705171E-006	6.1748995E-007	5.0563119E-007	1.0314617E-006	2.0780735E-001	1.1961468E-001	2.3977399E-001	2.9924889E+001	6.0204230E+002	1.0459320E+003	1.2068259E+003	-6.0075111E+001	0.0000000E+000	0.0000000E+000	0.0000000E+000	6.0075111E+001	0.0000000E+000	0.0000000E+000	0.0000000E+000	-6.0075111E+001	0.0000000E+000	0.0000000E+000	0.0000000E+000	-2.9924889E+001	0.0000000E+000	0.0000000E+000	0.0000000E+000	2.9924889E+001	1.7373065E+000	6.0075111E+001	-7.506427477605435E-007
2.5116906E+004	3.6799884E+000	2.5053630E+000	4.4518714E+000	-3.4247318E+001	1.106625520265021E+003	4.5967054E-001	-2.1712256E-003	2.5292010E+000	8.0101275E-001	1.000000000000000E+000	38	1.4660585E-002	3.2931285E-003	0	-1.158016997137262E-005	5.0454623E-001	2.1631637E-001	8.6895370E+000	3.4217086E-005	1.8425739E-005	3.8708225E-005	3.6420301E-005	1.3578739E-005	2.5280360E-005	6.1544847E-002	5.8327280E-002	8.8393879E-001	7.1428934E-007	9.0330531E-007	7.5751819E-007	6.7221680E-007	9.9112992E-007	5.0561033E-007	1.8567833E-001	1.2641115E-001	2.2462463E-001	3.4247318E+001	8.0101270E+002	1.1765631E+003	1.4233489E+003	-5.5752682E+001	0.0000000E+000	0.0000000E+000	0.0000000E+000	5.5752682E+001	0.0000000E+000	0.0000000E+000	0.0000000E+000	-5.5752682E+001	0.0000000E+000	0.0000000E+000	0.0000000E+000	-3.4247318E+001	0.0000000E+000	0.0000000E+000	0.0000000E+000	3.4247318E+001	1.4688444E+000	5.5752686E+001	-5.629059075804738E-006
1.9948781E+004	3.7792878E+000	3.0539851E+000	4.8589959E+000	-3.8941151E+001	1.107772528932779E+003	4.5968348E-001	-3.5081196E-003	2.6123829E+000	1.0319951E+000	1.000000000000000E+000	38	1.4748115E-002	3.0352187E-003	0	-1.333314486499876E-005	5.0534326E-001	2.6509193E-001	8.6109123E+000	4.0003935E-005	2.4801055E-005	3.9335035E-005	2.9379809E-005	1.4665377E-005	1.6206603E-005	7.2570324E-002	4.6685997E-002	9.4364852E-001	9.9221018E-007	9.6838744E-007	9.8966086E-007	6.1565385E-007	5.0250480E-007	9.3935347E-007	1.6007257E-001	1.2935221E-001	2.0580384E-001	3.8941151E+001	1.0319950E+003	1.2770875E+003	1.6419398E+003	-5.1058849E+001	0.0000000E+000	0.0000000E+000	0.0000000E+000	5.1058849E+001	0.0000000E+000	0.0000000E+000	0.0000000E+000	-5.1058849E+001	0.0000000E+000	0.0000000E+000	0.0000000E+000	-3.8941151E+001	0.0000000E+000	0.0000000E+000	0.0000000E+000	3.8941151E+001	1.2374939E+000	5.1058853E+001	-1.752974893626136E-006
1.5847683E+004	3.8927407E+000	3.7375805E+000	5.3965673E+000	-4.3835068E+001	1.108919540000614E+003	4.5966208E-001	-2.4840601E-003	2.6869760E+000	1.2888718E+000	1.000000000000000E+000	38	1.4789756E-002	2.7405859E-003	0	-1.762605049492494E-005	4.2408198E-001	1.7418213E-001	8.7022629E+000	2.4309573E-005	1.6576410E-005	3.2946082E-005	2.5571799E-005	2.1428466E-005	1.8033144E-005	9.9611625E-002	3.8275179E-002	1.0569512E+000	1.8767199E-006	1.0490110E-006	6.8885851E-007	9.0100929E-007	6.3407481E-007	8.7209150E-007	1.3366579E-001	1.2833802E-001	1.8530297E-001	4.3835068E+001	1.2888719E+003	1.3423776E+003	1.8609590E+003	-4.6164932E+001	0.0000000E+000	0.0000000E+000	0.0000000E+000	4.6164932E+001	0.0000000E+000	0.0000000E+000	0.0000000E+000	-4.6164932E+001	0.0000000E+000	0.0000000E+000	0.0000000E+000	-4.3835068E+001	0.0000000E+000	0.0000000E+000	0.0000000E+000	4.3835068E+001	1.0415136E+000	4.6164932E+001	-4.292905629926181E-006
1.2590930E+004	4.0349259E+000	4.5751505E+000	6.1002154E+000	-4.8590218E+001	1.110066518935084E+003	4.5969567E-001	-3.1748440E-003	2.7628479E+000	1.5540944E+000	1.000000000000000E+000	38	1.4759999E-002	2.4195865E-003	0	-1.436919476355736E-005	4.2767623E-001	2.8966224E-001	8.7964058E+000	2.7940883E-005	1.8303846E-005	2.1456492E-005	2.6064778E-005	1.9758509E-005	3.0728741E-005	1.3387863E-001	5.6116018E-002	1.2160158E+000	2.3951009E-006	1.3750828E-006	8.4342179E-007	6.3895953E-007	6.9493393E-007	5.2228313E-007	1.0842895E-001	1.2294618E-001	1.6392864E-001	4.8590218E+001	1.5540941E+003	1.3705900E+003	2.0721306E+003	-4.1409782E+001	0.0000000E+000	0.0000000E+000	0.0000000E+000	4.1409782E+001	0.0000000E+000	0.0000000E+000	0.0000000E+000	-4.1409782E+001	0.0000000E+000	0.0000000E+000	0.0000000E+000	-4.8590218E+001	0.0000000E+000	0.0000000E+000	0.0000000E+000	4.8590218E+001	8.8192201E-001	4.1409790E+001	3.256855731367576E-006
