EC-Lab ASCII FILE
Nb header lines : 67                          

Potentio Electrochemical Impedance Spectroscopy

Run on channel : 15 (SN 19485)
User : 
Electrode connection : standard
Potential control : Ewe
Ewe ctrl range : min = -1.00 V, max = 1.00 V
Ewe,I filtering : 50 kHz
Safety Limits :
	Do not start on E overload
Channel : Floating
Acquisition started on : 02/23/2024 15:54:32.363
Loaded Setting File :  NONE
Saved on :
	File : 240223-OCV-EIS-Fe2Fe3_5mM-HCl1M-225RPM-Ag_AgCl_BLF8-GC-RDE-1minRestVSEoc-3ppf-14p1mVAmplitude_04_PEIS_C15.mpr
	Directory : C:\Data\mathias\RDE-RPM-variation\
	Host : 192.168.0.1
Device : VMP-300 (SN 0826)
Address : USB
EC-Lab for windows v11.52 (software)
Internet server v11.52 (firmware)
Command interpretor v11.52 (firmware)
Electrode material : 
Initial state : 
Electrolyte : 
Comments : 
Cable : special
Reference electrode : SCE Saturated Calomel Electrode (0.241 V)
Electrode surface area : 0.001 cm²
Characteristic mass : 0.001 g
Equivalent Weight : 0.000 g/eq.
Density : 0.000 g/cm3
Volume (V) : 0.001 cm³
Record EIS quality indicators
Cycle Definition : Charge/Discharge alternance
Mode                Single sine         
E (V)               0.0000              
vs.                 Eoc                 
tE (h:m:s)          0:01:0.0000         
record              0                   
dI                  0.000               
unit dI             mA                  
dt (s)              0.000               
fi                  1.000               
unit fi             MHz                 
ff                  100.000             
unit ff             mHz                 
Nd                  10                  
Points              per decade          
spacing             Logarithmic         
Va (mV)             14.1                
pw                  0.10                
Na                  3                   
corr                0                   
E range min (V)     -1.000              
E range max (V)     1.000               
I Range             Auto                
Bandwidth           8                   
nc cycles           0                   
goto Ns'            0                   
nr cycles           0                   
inc. cycle          1                   

freq/Hz	Re(Z)/Ohm	-Im(Z)/Ohm	|Z|/Ohm	Phase(Z)/deg	time/s	<Ewe>/V	<I>/mA	Cs/µF	Cp/µF	cycle number	I Range	|Ewe|/V	|I|/A	Ns	(Q-Qo)/mA.h	THD Ewe/%	NSD Ewe/%	NSR Ewe/%	|Ewe h2|/V	|Ewe h3|/V	|Ewe h4|/V	|Ewe h5|/V	|Ewe h6|/V	|Ewe h7|/V	THD I/%	NSD I/%	NSR I/%	|I h2|/A	|I h3|/A	|I h4|/A	|I h5|/A	|I h6|/A	|I h7|/A	Re(Y)/Ohm-1	Im(Y)/Ohm-1	|Y|/Ohm-1	Phase(Y)/deg	Re(C)/nF	Im(C)/nF	|C|/nF	Phase(C)/deg	Re(M)	Im(M)	|M|	Phase(M)/deg	Re(Permittivity)	Im(Permittivity)	|Permittivity|	Phase(Permittivity)/deg	Re(Resistivity)/Ohm.cm	Im(Resistivity)/Ohm.cm	|Resistivity|/Ohm.cm	Phase(Resistivity)/deg	Re(Conductivity)/mS/cm	Im(Conductivity)/mS/cm	|Conductivity|/mS/cm	Phase(Conductivity)/deg	Tan(Delta)	Loss Angle(Delta)/deg	dq/mA.h	
1.0000186E+006	3.5187669E+000	4.0844998E+000	5.3911834E+000	-4.9255341E+001	6.020403078731761E+002	4.5942342E-001	-1.0937302E-002	3.8964864E-002	2.2365713E-002	1.000000000000000E+000	38	1.1139162E-002	2.0661813E-003	0	-7.249936559146995E-006	-1	-1	-1	0	0	0	0	0	0	-1	-1	-1	0	0	0	0	0	0	1.2106602E-001	1.4053053E-001	1.8548803E-001	4.9255341E+001	2.2365713E+001	1.9267899E+001	2.9520790E+001	-4.0744659E+001	0.0000000E+000	0.0000000E+000	0.0000000E+000	4.0744659E+001	0.0000000E+000	0.0000000E+000	0.0000000E+000	-4.0744659E+001	0.0000000E+000	0.0000000E+000	0.0000000E+000	-4.9255341E+001	0.0000000E+000	0.0000000E+000	0.0000000E+000	4.9255341E+001	8.6149269E-001	4.0744659E+001	-7.249936559146995E-006
7.9433269E+005	3.5616097E+000	3.1976001E+000	4.7864089E+000	-4.1917381E+001	6.030523026946030E+002	4.5939916E-001	-1.4935085E-003	6.2660456E-002	2.7965479E-002	1.000000000000000E+000	38	1.3870840E-002	2.8979639E-003	0	-5.056265692980054E-006	-1	-1	-1	0	0	0	0	0	0	-1	-1	-1	0	0	0	0	0	0	1.5546289E-001	1.3957402E-001	2.0892490E-001	4.1917381E+001	2.7965477E+001	3.1149019E+001	4.1860832E+001	-4.8082619E+001	0.0000000E+000	0.0000000E+000	0.0000000E+000	4.8082619E+001	0.0000000E+000	0.0000000E+000	0.0000000E+000	-4.8082619E+001	0.0000000E+000	0.0000000E+000	0.0000000E+000	-4.1917381E+001	0.0000000E+000	0.0000000E+000	0.0000000E+000	4.1917381E+001	1.1138384E+000	4.8082611E+001	2.193670866166941E-006
6.3095681E+005	3.5458522E+000	2.5246549E+000	4.3528094E+000	-3.5450954E+001	6.041992949624109E+002	4.5943844E-001	-1.1322600E-003	9.9912196E-002	3.3611137E-002	1.000000000000000E+000	38	1.4478606E-002	3.3262670E-003	0	-3.502947287886248E-006	-1	-1	-1	0	0	0	0	0	0	-1	-1	-1	0	0	0	0	0	0	1.8714634E-001	1.3324863E-001	2.2973669E-001	3.5450954E+001	3.3611141E+001	4.7206505E+001	5.7949657E+001	-5.4549046E+001	0.0000000E+000	0.0000000E+000	0.0000000E+000	5.4549046E+001	0.0000000E+000	0.0000000E+000	0.0000000E+000	-5.4549046E+001	0.0000000E+000	0.0000000E+000	0.0000000E+000	-3.5450954E+001	0.0000000E+000	0.0000000E+000	0.0000000E+000	3.5450954E+001	1.4044899E+000	5.4549042E+001	1.553318405093806E-006
5.0120622E+005	3.5096848E+000	2.0158014E+000	4.0473871E+000	-2.9871078E+001	6.053463193635835E+002	4.5940983E-001	-1.8788904E-003	1.5752734E-001	3.9075267E-002	1.000000000000000E+000	38	1.4567606E-002	3.5992619E-003	0	-3.109052779490917E-006	-1	-1	-1	0	0	0	0	0	0	-1	-1	-1	0	0	0	0	0	0	2.1424891E-001	1.2305472E-001	2.4707298E-001	2.9871078E+001	3.9075268E+001	6.8033424E+001	7.8456505E+001	-6.0128922E+001	0.0000000E+000	0.0000000E+000	0.0000000E+000	6.0128922E+001	0.0000000E+000	0.0000000E+000	0.0000000E+000	-6.0128922E+001	0.0000000E+000	0.0000000E+000	0.0000000E+000	-2.9871078E+001	0.0000000E+000	0.0000000E+000	0.0000000E+000	2.9871078E+001	1.7410866E+000	6.0128922E+001	3.938945083953307E-007
3.9810347E+005	3.4658725E+000	1.6362151E+000	3.8326848E+000	-2.5271679E+001	6.064943031781149E+002	4.5940906E-001	-8.8833453E-004	2.4433395E-001	4.4530582E-002	1.000000000000000E+000	38	1.4558475E-002	3.7985055E-003	0	-8.308678118848345E-006	-1	-1	-1	0	0	0	0	0	0	-1	-1	-1	0	0	0	0	0	0	2.3594262E-001	1.1138691E-001	2.6091370E-001	2.5271679E+001	4.4530586E+001	9.4325813E+001	1.0430883E+002	-6.4728317E+001	0.0000000E+000	0.0000000E+000	0.0000000E+000	6.4728317E+001	0.0000000E+000	0.0000000E+000	0.0000000E+000	-6.4728317E+001	0.0000000E+000	0.0000000E+000	0.0000000E+000	-2.5271679E+001	0.0000000E+000	0.0000000E+000	0.0000000E+000	2.5271679E+001	2.1182256E+000	6.4728317E+001	-5.199625339357428E-006
3.1622997E+005	3.4361558E+000	1.3584270E+000	3.6949277E+000	-2.1570539E+001	6.076413056592137E+002	4.5940277E-001	-1.2402416E-003	3.7049368E-001	5.0077371E-002	1.000000000000000E+000	38	1.4547978E-002	3.9372835E-003	0	-5.726146818397360E-006	-1	-1	-1	0	0	0	0	0	0	-1	-1	-1	0	0	0	0	0	0	2.5168711E-001	9.9500306E-002	2.7064130E-001	2.1570539E+001	5.0077377E+001	1.2667126E+002	1.3621069E+002	-6.8429459E+001	0.0000000E+000	0.0000000E+000	0.0000000E+000	6.8429459E+001	0.0000000E+000	0.0000000E+000	0.0000000E+000	-6.8429459E+001	0.0000000E+000	0.0000000E+000	0.0000000E+000	-2.1570539E+001	0.0000000E+000	0.0000000E+000	0.0000000E+000	2.1570539E+001	2.5295107E+000	6.8429459E+001	2.582531300450986E-006
2.5118764E+005	3.4118342E+000	1.1764917E+000	3.6089811E+000	-1.9025564E+001	6.087883188070409E+002	4.5940101E-001	-1.9682520E-003	5.3855860E-001	5.7232343E-002	1.000000000000000E+000	38	1.4549550E-002	4.0314840E-003	0	-1.657658088636688E-005	-1	-1	-1	0	0	0	0	0	0	-1	-1	-1	0	0	0	0	0	0	2.6195019E-001	9.0327434E-002	2.7708653E-001	1.9025564E+001	5.7232349E+001	1.6597420E+002	1.7556473E+002	-7.0974434E+001	0.0000000E+000	0.0000000E+000	0.0000000E+000	7.0974434E+001	0.0000000E+000	0.0000000E+000	0.0000000E+000	-7.0974434E+001	0.0000000E+000	0.0000000E+000	0.0000000E+000	-1.9025564E+001	0.0000000E+000	0.0000000E+000	0.0000000E+000	1.9025564E+001	2.9000070E+000	7.0974434E+001	-1.085043406796952E-005
1.9954350E+005	3.4018431E+000	1.0660528E+000	3.5649691E+000	-1.7399691E+001	6.099352956348594E+002	4.5941088E-001	-1.7578541E-003	7.4817610E-001	6.6903636E-002	1.000000000000000E+000	38	1.4583535E-002	4.0907888E-003	0	-1.802187988045625E-005	-1	-1	-1	0	0	0	0	0	0	-1	-1	-1	0	0	0	0	0	0	2.6767188E-001	8.3881699E-002	2.8050736E-001	1.7399691E+001	6.6903633E+001	2.1349382E+002	2.2373132E+002	-7.2600311E+001	0.0000000E+000	0.0000000E+000	0.0000000E+000	7.2600311E+001	0.0000000E+000	0.0000000E+000	0.0000000E+000	-7.2600311E+001	0.0000000E+000	0.0000000E+000	0.0000000E+000	-1.7399691E+001	0.0000000E+000	0.0000000E+000	0.0000000E+000	1.7399691E+001	3.1910644E+000	7.2600311E+001	-1.445298994089375E-006
1.5848613E+005	3.3986001E+000	1.0123971E+000	3.5461853E+000	-1.6588085E+001	6.110812993159780E+002	4.5942977E-001	-1.4543586E-003	9.9192315E-001	8.0845699E-002	1.000000000000000E+000	38	1.4571898E-002	4.1091754E-003	0	-2.955406451015733E-005	-1	-1	-1	0	0	0	0	0	0	-1	-1	-1	0	0	0	0	0	0	2.7025715E-001	8.0505967E-002	2.8199315E-001	1.6588085E+001	8.0845726E+001	2.7139767E+002	2.8318320E+002	-7.3411911E+001	0.0000000E+000	0.0000000E+000	0.0000000E+000	7.3411911E+001	0.0000000E+000	0.0000000E+000	0.0000000E+000	-7.3411911E+001	0.0000000E+000	0.0000000E+000	0.0000000E+000	-1.6588085E+001	0.0000000E+000	0.0000000E+000	0.0000000E+000	1.6588085E+001	3.3569834E+000	7.3411911E+001	-1.153218462970108E-005
1.2590929E+005	3.3985384E+000	1.0081748E+000	3.5449231E+000	-1.6522964E+001	6.122292958237958E+002	4.5942011E-001	-1.0894154E-003	1.2537950E+000	1.0141088E-001	1.000000000000000E+000	38	1.4568388E-002	4.1096485E-003	0	-3.289786421613664E-005	-1	-1	-1	0	0	0	0	0	0	-1	-1	-1	0	0	0	0	0	0	2.7044472E-001	8.0227301E-002	2.8209355E-001	1.6522964E+001	1.0141088E+002	3.4185419E+002	3.5657883E+002	-7.3477036E+001	0.0000000E+000	0.0000000E+000	0.0000000E+000	7.3477036E+001	0.0000000E+000	0.0000000E+000	0.0000000E+000	-7.3477036E+001	0.0000000E+000	0.0000000E+000	0.0000000E+000	-1.6522964E+001	0.0000000E+000	0.0000000E+000	0.0000000E+000	1.6522964E+001	3.3709812E+000	7.3477036E+001	-3.343799705979309E-006
1.0000371E+005	3.4134464E+000	1.0633267E+000	3.5752316E+000	-1.7302395E+001	6.133762995582802E+002	4.5942396E-001	-1.2644412E-003	1.4967086E+000	1.3239220E-001	1.000000000000000E+000	38	1.4508829E-002	4.0581510E-003	0	-3.856526093940354E-005	4.8768494E-001	2.2189844E-001	9.0040884E+000	3.9001374E-005	2.4836902E-005	2.4427041E-005	2.0665939E-005	2.8366814E-005	1.9198984E-005	6.8153426E-002	4.6513222E-002	7.0224965E-001	1.8549814E-006	1.2948004E-006	8.4351905E-007	4.9486226E-007	5.0046827E-007	6.8773562E-007	2.6704517E-001	8.3187558E-002	2.7970216E-001	1.7302395E+001	1.3239223E+002	4.2499985E+002	4.4514331E+002	-7.2697601E+001	0.0000000E+000	0.0000000E+000	0.0000000E+000	7.2697601E+001	0.0000000E+000	0.0000000E+000	0.0000000E+000	-7.2697601E+001	0.0000000E+000	0.0000000E+000	0.0000000E+000	-1.7302395E+001	0.0000000E+000	0.0000000E+000	0.0000000E+000	1.7302395E+001	3.2101576E+000	7.2697601E+001	-5.667396723266900E-006
7.9433273E+004	3.4401708E+000	1.1715721E+000	3.6341927E+000	-1.8806602E+001	6.145243179861718E+002	4.5939282E-001	-1.4059516E-003	1.7102070E+000	1.7773411E-001	1.000000000000000E+000	38	1.4585044E-002	4.0132832E-003	0	-4.204195752895773E-005	3.4495142E-001	2.9362643E-001	9.0471563E+000	2.3031100E-005	1.8357585E-005	1.0636723E-005	1.8304268E-005	2.7305621E-005	1.8527229E-005	6.1790951E-002	5.6928668E-002	7.0354193E-001	1.6221820E-006	1.0601667E-006	7.5822555E-007	4.5389876E-007	8.3722347E-007	6.7207833E-007	2.6047385E-001	8.8706024E-002	2.7516428E-001	1.8806602E+001	1.7773410E+002	5.2189337E+002	5.5132758E+002	-7.1193398E+001	0.0000000E+000	0.0000000E+000	0.0000000E+000	7.1193398E+001	0.0000000E+000	0.0000000E+000	0.0000000E+000	-7.1193398E+001	0.0000000E+000	0.0000000E+000	0.0000000E+000	-1.8806602E+001	0.0000000E+000	0.0000000E+000	0.0000000E+000	1.8806602E+001	2.9363713E+000	7.1193398E+001	-3.476696589554192E-006
6.3093828E+004	3.4631271E+000	1.3159573E+000	3.7047257E+000	-2.0806343E+001	6.156713103873335E+002	4.5941648E-001	-2.5603652E-003	1.9168646E+000	2.4185938E-001	1.000000000000000E+000	38	1.4619364E-002	3.9461395E-003	0	-3.932958498211681E-005	4.9908203E-001	1.7905325E-001	8.9294176E+000	2.1869069E-005	4.4213211E-005	2.4238616E-005	2.0308053E-005	2.1627720E-005	2.4137998E-005	6.2084831E-002	4.8709098E-002	7.1998632E-001	9.3614563E-007	1.2940077E-006	1.0866946E-006	8.9238148E-007	6.9643505E-007	7.4254302E-007	2.5232267E-001	9.5880359E-002	2.6992550E-001	2.0806343E+001	2.4185938E+002	6.3648706E+002	6.8089038E+002	-6.9193657E+001	0.0000000E+000	0.0000000E+000	0.0000000E+000	6.9193657E+001	0.0000000E+000	0.0000000E+000	0.0000000E+000	-6.9193657E+001	0.0000000E+000	0.0000000E+000	0.0000000E+000	-2.0806343E+001	0.0000000E+000	0.0000000E+000	0.0000000E+000	2.0806343E+001	2.6316409E+000	6.9193657E+001	2.712372546840921E-006
5.0122477E+004	3.5035663E+000	1.5237753E+000	3.8205848E+000	-2.3505245E+001	6.168183060417796E+002	4.5941254E-001	-1.6703457E-003	2.0838511E+000	3.3147353E-001	1.000000000000000E+000	38	1.4610617E-002	3.8241835E-003	0	-3.685005156018451E-005	4.1762021E-001	3.3589670E-001	9.1575584E+000	6.2648619E-006	2.5534966E-005	3.1835010E-005	2.1291446E-005	2.6955830E-005	1.3391975E-005	6.6862337E-002	3.6901809E-002	7.5181329E-001	8.8819564E-007	1.8374830E-006	5.0433800E-007	1.1688835E-006	5.6583553E-007	5.1258161E-007	2.4002178E-001	1.0439057E-001	2.6174003E-001	2.3505245E+001	3.3147357E+002	7.6214606E+002	8.3110852E+002	-6.6494751E+001	0.0000000E+000	0.0000000E+000	0.0000000E+000	6.6494751E+001	0.0000000E+000	0.0000000E+000	0.0000000E+000	-6.6494751E+001	0.0000000E+000	0.0000000E+000	0.0000000E+000	-2.3505245E+001	0.0000000E+000	0.0000000E+000	0.0000000E+000	2.3505245E+001	2.2992671E+000	6.6494751E+001	2.479533421932304E-006
3.9814063E+004	3.5534048E+000	1.8037459E+000	3.9849949E+000	-2.6912832E+001	6.179653132962558E+002	4.5939246E-001	-1.4562299E-003	2.2161968E+000	4.5404977E-001	1.000000000000000E+000	38	1.4597837E-002	3.6632009E-003	0	-3.503150251551738E-005	4.3568212E-001	3.4510291E-001	9.0993395E+000	2.5962881E-005	3.8644612E-005	2.0754400E-005	1.7426251E-005	2.3029095E-005	2.1042310E-005	5.7550564E-002	9.0061091E-002	7.6821113E-001	8.7133930E-007	1.1347843E-006	6.1286534E-007	8.8575683E-007	7.6500504E-007	5.3144527E-007	2.2376344E-001	1.1358469E-001	2.5094134E-001	2.6912832E+001	4.5404977E+002	8.9448438E+002	1.0031268E+003	-6.3087166E+001	0.0000000E+000	0.0000000E+000	0.0000000E+000	6.3087166E+001	0.0000000E+000	0.0000000E+000	0.0000000E+000	-6.3087166E+001	0.0000000E+000	0.0000000E+000	0.0000000E+000	-2.6912832E+001	0.0000000E+000	0.0000000E+000	0.0000000E+000	2.6912832E+001	1.9700141E+000	6.3087166E+001	1.818549044667127E-006
3.1621143E+004	3.6071618E+000	2.1731718E+000	4.2112103E+000	-3.1067293E+001	6.191123130040505E+002	4.5942485E-001	-2.3034124E-003	2.3160532E+000	6.1676931E-001	1.000000000000000E+000	38	1.4720169E-002	3.4954723E-003	0	-3.957986656752312E-005	4.7761956E-001	2.3646130E-001	8.9245119E+000	2.1563208E-005	3.4047313E-005	2.5249168E-005	1.9817415E-005	3.2391650E-005	2.2472341E-005	6.0989223E-002	9.9869318E-002	8.0409902E-001	6.5299110E-007	1.3555244E-006	9.3880334E-007	6.8902767E-007	4.5013039E-007	4.7630968E-007	2.0340039E-001	1.2254065E-001	2.3746143E-001	3.1067293E+001	6.1676929E+002	1.0237510E+003	1.1951864E+003	-5.8932709E+001	0.0000000E+000	0.0000000E+000	0.0000000E+000	5.8932709E+001	0.0000000E+000	0.0000000E+000	0.0000000E+000	-5.8932709E+001	0.0000000E+000	0.0000000E+000	0.0000000E+000	-3.1067293E+001	0.0000000E+000	0.0000000E+000	0.0000000E+000	3.1067293E+001	1.6598604E+000	5.8932709E+001	-4.548364052005736E-006
2.5116906E+004	3.6787813E+000	2.6195910E+000	4.5161586E+000	-3.5453957E+001	6.202582987385249E+002	4.5940256E-001	-1.9459379E-003	2.4189146E+000	8.1385893E-001	1.000000000000000E+000	38	1.4726887E-002	3.2609322E-003	0	-3.936161823994998E-005	4.4385299E-001	3.3128455E-001	8.9030085E+000	3.2500458E-005	2.0538188E-005	2.3732158E-005	1.9577692E-005	2.7905482E-005	2.0695114E-005	5.6132529E-002	9.1712438E-002	8.7454951E-001	1.1066097E-006	7.8879833E-007	6.7532778E-007	3.6307279E-007	4.4039174E-007	6.6859599E-007	1.8037054E-001	1.2843849E-001	2.2142713E-001	3.5453957E+001	8.1385895E+002	1.1429298E+003	1.4030876E+003	-5.4546043E+001	0.0000000E+000	0.0000000E+000	0.0000000E+000	5.4546043E+001	0.0000000E+000	0.0000000E+000	0.0000000E+000	-5.4546043E+001	0.0000000E+000	0.0000000E+000	0.0000000E+000	-3.5453957E+001	0.0000000E+000	0.0000000E+000	0.0000000E+000	3.5453957E+001	1.4043342E+000	5.4546043E+001	2.182483275731418E-007
1.9948781E+004	3.7666454E+000	3.2038205E+000	4.9449048E+000	-4.0383713E+001	6.214052994596568E+002	4.5943341E-001	-2.2662124E-003	2.4902079E+000	1.0453364E+000	1.000000000000000E+000	38	1.4792479E-002	2.9914586E-003	0	-4.529080382257234E-005	5.1478243E-001	3.3082542E-001	8.8334436E+000	3.2561191E-005	3.6281905E-005	1.9012114E-005	1.3107835E-005	1.5552572E-005	3.8956077E-005	7.5632684E-002	5.3846944E-002	9.3170595E-001	1.5121427E-006	9.4642945E-007	5.1018390E-007	3.4511245E-007	5.4693169E-007	1.0292839E-006	1.5404190E-001	1.3102445E-001	2.0222837E-001	4.0383713E+001	1.0453364E+003	1.2289739E+003	1.6134141E+003	-4.9616287E+001	0.0000000E+000	0.0000000E+000	0.0000000E+000	4.9616287E+001	0.0000000E+000	0.0000000E+000	0.0000000E+000	-4.9616287E+001	0.0000000E+000	0.0000000E+000	0.0000000E+000	-4.0383713E+001	0.0000000E+000	0.0000000E+000	0.0000000E+000	4.0383713E+001	1.1756730E+000	4.9616287E+001	-5.929185582622366E-006
1.5847683E+004	3.8837855E+000	3.9183812E+000	5.5170193E+000	-4.5254055E+001	6.225523052741337E+002	4.5942804E-001	-1.4208963E-003	2.5629945E+000	1.2928616E+000	1.000000000000000E+000	38	1.4855552E-002	2.6926773E-003	0	-4.583993568475772E-005	5.1370841E-001	3.7945372E-001	8.7969170E+000	1.5311767E-005	2.6127631E-005	3.9635019E-005	4.1407257E-005	2.6491123E-005	1.8485342E-005	1.0523806E-001	1.2897921E-001	1.0542512E+000	2.0870436E-006	7.5288011E-007	5.8446830E-007	1.0693786E-006	8.9529226E-007	5.4085888E-007	1.2759869E-001	1.2873530E-001	1.8125729E-001	4.5254055E+001	1.2928617E+003	1.2814469E+003	1.8203290E+003	-4.4745945E+001	0.0000000E+000	0.0000000E+000	0.0000000E+000	4.4745945E+001	0.0000000E+000	0.0000000E+000	0.0000000E+000	-4.4745945E+001	0.0000000E+000	0.0000000E+000	0.0000000E+000	-4.5254055E+001	0.0000000E+000	0.0000000E+000	0.0000000E+000	4.5254055E+001	9.9117094E-001	4.4745941E+001	-5.491318621853801E-007
1.2590930E+004	4.0257468E+000	4.7973719E+000	6.2627001E+000	-4.9998081E+001	6.237003195686411E+002	4.5944071E-001	-2.3239395E-003	2.6348686E+000	1.5461175E+000	1.000000000000000E+000	38	1.4792867E-002	2.3620590E-003	0	-5.322886625293824E-005	4.2683131E-001	4.2196965E-001	8.8723545E+000	3.9603368E-005	1.5396319E-005	1.9013762E-005	1.6810816E-005	1.2646929E-005	2.5322946E-005	1.6668257E-001	1.5615915E-001	1.1956862E+000	3.4692732E-006	8.3794407E-007	1.0618496E-006	9.4665580E-007	3.0804421E-007	3.8124210E-007	1.0264155E-001	1.2231512E-001	1.5967554E-001	4.9998081E+001	1.5461174E+003	1.2974348E+003	2.0183698E+003	-4.0001919E+001	0.0000000E+000	0.0000000E+000	0.0000000E+000	4.0001919E+001	0.0000000E+000	0.0000000E+000	0.0000000E+000	-4.0001919E+001	0.0000000E+000	0.0000000E+000	0.0000000E+000	-4.9998081E+001	0.0000000E+000	0.0000000E+000	0.0000000E+000	4.9998081E+001	8.3915669E-001	4.0001923E+001	-7.388930568180514E-006
