EC-Lab ASCII FILE
Nb header lines : 67                          

Potentio Electrochemical Impedance Spectroscopy

Run on channel : 15 (SN 19485)
User : 
Electrode connection : standard
Potential control : Ewe
Ewe ctrl range : min = -1.00 V, max = 1.00 V
Ewe,I filtering : 50 kHz
Safety Limits :
	Do not start on E overload
Channel : Floating
Acquisition started on : 02/23/2024 16:29:27.631
Loaded Setting File :  NONE
Saved on :
	File : 240223-OCV-EIS-Fe2Fe3_5mM-HCl1M-0RPM-Ag_AgCl_BLF8-GC-RDE-1minRestVSEoc-3ppf-14p1mVAmplitude_02_PEIS_C15.mpr
	Directory : C:\Data\mathias\RDE-RPM-variation\
	Host : 192.168.0.1
Device : VMP-300 (SN 0826)
Address : USB
EC-Lab for windows v11.52 (software)
Internet server v11.52 (firmware)
Command interpretor v11.52 (firmware)
Electrode material : 
Initial state : 
Electrolyte : 
Comments : 
Cable : special
Reference electrode : SCE Saturated Calomel Electrode (0.241 V)
Electrode surface area : 0.001 cm²
Characteristic mass : 0.001 g
Equivalent Weight : 0.000 g/eq.
Density : 0.000 g/cm3
Volume (V) : 0.001 cm³
Record EIS quality indicators
Cycle Definition : Charge/Discharge alternance
Mode                Single sine         
E (V)               0.0000              
vs.                 Eoc                 
tE (h:m:s)          0:01:0.0000         
record              0                   
dI                  0.000               
unit dI             mA                  
dt (s)              0.000               
fi                  1.000               
unit fi             MHz                 
ff                  100.000             
unit ff             mHz                 
Nd                  10                  
Points              per decade          
spacing             Logarithmic         
Va (mV)             14.1                
pw                  0.10                
Na                  3                   
corr                0                   
E range min (V)     -1.000              
E range max (V)     1.000               
I Range             Auto                
Bandwidth           8                   
nc cycles           0                   
goto Ns'            0                   
nr cycles           0                   
inc. cycle          1                   

freq/Hz	Re(Z)/Ohm	-Im(Z)/Ohm	|Z|/Ohm	Phase(Z)/deg	time/s	<Ewe>/V	<I>/mA	Cs/µF	Cp/µF	cycle number	I Range	|Ewe|/V	|I|/A	Ns	(Q-Qo)/mA.h	THD Ewe/%	NSD Ewe/%	NSR Ewe/%	|Ewe h2|/V	|Ewe h3|/V	|Ewe h4|/V	|Ewe h5|/V	|Ewe h6|/V	|Ewe h7|/V	THD I/%	NSD I/%	NSR I/%	|I h2|/A	|I h3|/A	|I h4|/A	|I h5|/A	|I h6|/A	|I h7|/A	Re(Y)/Ohm-1	Im(Y)/Ohm-1	|Y|/Ohm-1	Phase(Y)/deg	Re(C)/nF	Im(C)/nF	|C|/nF	Phase(C)/deg	Re(M)	Im(M)	|M|	Phase(M)/deg	Re(Permittivity)	Im(Permittivity)	|Permittivity|	Phase(Permittivity)/deg	Re(Resistivity)/Ohm.cm	Im(Resistivity)/Ohm.cm	|Resistivity|/Ohm.cm	Phase(Resistivity)/deg	Re(Conductivity)/mS/cm	Im(Conductivity)/mS/cm	|Conductivity|/mS/cm	Phase(Conductivity)/deg	Tan(Delta)	Loss Angle(Delta)/deg	dq/mA.h	
1.0000186E+006	3.5073352E+000	4.0917563E+000	5.3892365E+000	-4.9397774E+001	1.231868803920806E+002	4.5944151E-001	-1.1216595E-002	3.8895763E-002	2.2421639E-002	1.000000000000000E+000	38	1.1141338E-002	2.0673315E-003	0	-3.105709834709867E-006	-1	-1	-1	0	0	0	0	0	0	-1	-1	-1	0	0	0	0	0	0	1.2075991E-001	1.4088193E-001	1.8555504E-001	4.9397774E+001	2.2421638E+001	1.9219181E+001	2.9531454E+001	-4.0602226E+001	0.0000000E+000	0.0000000E+000	0.0000000E+000	4.0602226E+001	0.0000000E+000	0.0000000E+000	0.0000000E+000	-4.0602226E+001	0.0000000E+000	0.0000000E+000	0.0000000E+000	-4.9397774E+001	0.0000000E+000	0.0000000E+000	0.0000000E+000	4.9397774E+001	8.5717106E-001	4.0602234E+001	-3.105709834709867E-006
7.9433269E+005	3.5559173E+000	3.2029760E+000	4.7857709E+000	-4.2010799E+001	1.241988852935028E+002	4.5943969E-001	-2.0576767E-003	6.2555291E-002	2.8019965E-002	1.000000000000000E+000	38	1.3893523E-002	2.9030899E-003	0	-1.406424041953869E-006	-1	-1	-1	0	0	0	0	0	0	-1	-1	-1	0	0	0	0	0	0	1.5525581E-001	1.3984595E-001	2.0895275E-001	4.2010799E+001	2.8019964E+001	3.1107531E+001	4.1866417E+001	-4.7989201E+001	0.0000000E+000	0.0000000E+000	0.0000000E+000	4.7989201E+001	0.0000000E+000	0.0000000E+000	0.0000000E+000	-4.7989201E+001	0.0000000E+000	0.0000000E+000	0.0000000E+000	-4.2010799E+001	0.0000000E+000	0.0000000E+000	0.0000000E+000	4.2010799E+001	1.1101917E+000	4.7989197E+001	1.699285792755998E-006
6.3095681E+005	3.5364895E+000	2.5099695E+000	4.3366699E+000	-3.5364647E+001	1.253458923879662E+002	4.5943084E-001	-1.6219497E-003	1.0049676E-001	3.3664811E-002	1.000000000000000E+000	38	1.4439766E-002	3.3296898E-003	0	-3.651205641914405E-006	-1	-1	-1	0	0	0	0	0	0	-1	-1	-1	0	0	0	0	0	0	1.8804407E-001	1.3346142E-001	2.3059168E-001	3.5364647E+001	3.3664814E+001	4.7432953E+001	5.8165321E+001	-5.4635353E+001	0.0000000E+000	0.0000000E+000	0.0000000E+000	5.4635353E+001	0.0000000E+000	0.0000000E+000	0.0000000E+000	-5.4635353E+001	0.0000000E+000	0.0000000E+000	0.0000000E+000	-3.5364647E+001	0.0000000E+000	0.0000000E+000	0.0000000E+000	3.5364647E+001	1.4089770E+000	5.4635353E+001	-2.244781599960536E-006
5.0120622E+005	3.5034633E+000	2.0080872E+000	4.0381517E+000	-2.9820127E+001	1.264938868425088E+002	4.5939088E-001	-1.5120874E-003	1.5813249E-001	3.9103981E-002	1.000000000000000E+000	38	1.4534317E-002	3.5992500E-003	0	-8.493061655550263E-006	-1	-1	-1	0	0	0	0	0	0	-1	-1	-1	0	0	0	0	0	0	2.1484849E-001	1.2314514E-001	2.4763805E-001	2.9820127E+001	3.9103977E+001	6.8223808E+001	7.8635925E+001	-6.0179871E+001	0.0000000E+000	0.0000000E+000	0.0000000E+000	6.0179871E+001	0.0000000E+000	0.0000000E+000	0.0000000E+000	-6.0179871E+001	0.0000000E+000	0.0000000E+000	0.0000000E+000	-2.9820127E+001	0.0000000E+000	0.0000000E+000	0.0000000E+000	2.9820127E+001	1.7446769E+000	6.0179871E+001	-4.841856013635858E-006
3.9810347E+005	3.4620352E+000	1.6272494E+000	3.8253925E+000	-2.5174784E+001	1.276408878036309E+002	4.5941111E-001	-1.5381509E-003	2.4568014E-001	4.4455580E-002	1.000000000000000E+000	38	1.4578310E-002	3.8109317E-003	0	6.197534587699920E-007	-1	-1	-1	0	0	0	0	0	0	-1	-1	-1	0	0	0	0	0	0	2.3658077E-001	1.1119931E-001	2.6141107E-001	2.5174784E+001	4.4455574E+001	9.4580933E+001	1.0450766E+002	-6.4825218E+001	0.0000000E+000	0.0000000E+000	0.0000000E+000	6.4825218E+001	0.0000000E+000	0.0000000E+000	0.0000000E+000	-6.4825218E+001	0.0000000E+000	0.0000000E+000	0.0000000E+000	-2.5174784E+001	0.0000000E+000	0.0000000E+000	0.0000000E+000	2.5174784E+001	2.1275382E+000	6.4825218E+001	9.112815114320255E-006
3.1622997E+005	3.4305832E+000	1.3524343E+000	3.6875439E+000	-2.1515781E+001	1.287868958580657E+002	4.5943213E-001	-1.7504108E-003	3.7213534E-001	5.0056316E-002	1.000000000000000E+000	38	1.4555071E-002	3.9470908E-003	0	-5.714973999161480E-006	-1	-1	-1	0	0	0	0	0	0	-1	-1	-1	0	0	0	0	0	0	2.5228626E-001	9.9458478E-002	2.7118322E-001	2.1515781E+001	5.0056309E+001	1.2697280E+002	1.3648343E+002	-6.8484222E+001	0.0000000E+000	0.0000000E+000	0.0000000E+000	6.8484222E+001	0.0000000E+000	0.0000000E+000	0.0000000E+000	-6.8484222E+001	0.0000000E+000	0.0000000E+000	0.0000000E+000	-2.1515781E+001	0.0000000E+000	0.0000000E+000	0.0000000E+000	2.1515781E+001	2.5365989E+000	6.8484222E+001	-6.334727457931472E-006
2.5118764E+005	3.4051077E+000	1.1718456E+000	3.6011083E+000	-1.8990566E+001	1.299338980459142E+002	4.5939925E-001	-2.0222480E-003	5.4069388E-001	5.7255849E-002	1.000000000000000E+000	38	1.4531809E-002	4.0353714E-003	0	-8.858148407656699E-006	-1	-1	-1	0	0	0	0	0	0	-1	-1	-1	0	0	0	0	0	0	2.6257810E-001	9.0364531E-002	2.7769229E-001	1.8990566E+001	5.7255863E+001	1.6637204E+002	1.7594855E+002	-7.1009430E+001	0.0000000E+000	0.0000000E+000	0.0000000E+000	7.1009430E+001	0.0000000E+000	0.0000000E+000	0.0000000E+000	-7.1009430E+001	0.0000000E+000	0.0000000E+000	0.0000000E+000	-1.8990566E+001	0.0000000E+000	0.0000000E+000	0.0000000E+000	1.8990566E+001	2.9057651E+000	7.1009430E+001	-3.143174408495219E-006
1.9954350E+005	3.3949196E+000	1.0560271E+000	3.5553722E+000	-1.7278881E+001	1.310818787137396E+002	4.5942917E-001	-2.7856436E-003	7.5527918E-001	6.6632703E-002	1.000000000000000E+000	38	1.4537419E-002	4.0888600E-003	0	-1.026298405118804E-005	-1	-1	-1	0	0	0	0	0	0	-1	-1	-1	0	0	0	0	0	0	2.6857114E-001	8.3542012E-002	2.8126451E-001	1.7278881E+001	6.6632721E+001	2.1421106E+002	2.2433524E+002	-7.2721115E+001	0.0000000E+000	0.0000000E+000	0.0000000E+000	7.2721115E+001	0.0000000E+000	0.0000000E+000	0.0000000E+000	-7.2721115E+001	0.0000000E+000	0.0000000E+000	0.0000000E+000	-1.7278881E+001	0.0000000E+000	0.0000000E+000	0.0000000E+000	1.7278881E+001	3.2148037E+000	7.2721115E+001	-1.404835643531342E-006
1.5848613E+005	3.3922555E+000	1.0021305E+000	3.5371830E+000	-1.6458044E+001	1.322288906882168E+002	4.5942500E-001	-2.3946366E-003	1.0020851E+000	8.0433711E-002	1.000000000000000E+000	38	1.4585593E-002	4.1235052E-003	0	-1.377942210430693E-005	-1	-1	-1	0	0	0	0	0	0	-1	-1	-1	0	0	0	0	0	0	2.7112746E-001	8.0095701E-002	2.8271085E-001	1.6458044E+001	8.0433716E+001	2.7227164E+002	2.8390390E+002	-7.3541954E+001	0.0000000E+000	0.0000000E+000	0.0000000E+000	7.3541954E+001	0.0000000E+000	0.0000000E+000	0.0000000E+000	-7.3541954E+001	0.0000000E+000	0.0000000E+000	0.0000000E+000	-1.6458044E+001	0.0000000E+000	0.0000000E+000	0.0000000E+000	1.6458044E+001	3.3850436E+000	7.3541954E+001	-3.516438053118893E-006
1.2590929E+005	3.3866324E+000	1.0066206E+000	3.5330672E+000	-1.6553713E+001	1.333758938894025E+002	4.5940724E-001	-2.5975916E-003	1.2557307E+000	1.0193525E-001	1.000000000000000E+000	38	1.4540471E-002	4.1155377E-003	0	-2.335643334928641E-006	-1	-1	-1	0	0	0	0	0	0	-1	-1	-1	0	0	0	0	0	0	2.7130905E-001	8.0642134E-002	2.8304020E-001	1.6553713E+001	1.0193523E+002	3.4294669E+002	3.5777539E+002	-7.3446289E+001	0.0000000E+000	0.0000000E+000	0.0000000E+000	7.3446289E+001	0.0000000E+000	0.0000000E+000	0.0000000E+000	-7.3446289E+001	0.0000000E+000	0.0000000E+000	0.0000000E+000	-1.6553713E+001	0.0000000E+000	0.0000000E+000	0.0000000E+000	1.6553713E+001	3.3643582E+000	7.3446289E+001	1.144377876937829E-005
1.0000371E+005	3.4026880E+000	1.0544355E+000	3.5623195E+000	-1.7217323E+001	1.345228837838513E+002	4.5941448E-001	-1.8826008E-003	1.5093292E+000	1.3223861E-001	1.000000000000000E+000	38	1.4576323E-002	4.0918067E-003	0	-8.371414324605010E-006	5.4270208E-001	3.0374652E-001	8.9640980E+000	2.7702206E-005	3.7230049E-005	3.2378004E-005	2.1041889E-005	2.9872308E-005	3.1793068E-005	7.3808908E-002	3.2495603E-002	7.0242214E-001	2.2611885E-006	1.1784788E-006	8.4554307E-007	3.3974433E-007	7.2372632E-007	9.0253633E-007	2.6813677E-001	8.3091050E-002	2.8071597E-001	1.7217323E+001	1.3223860E+002	4.2673709E+002	4.4675674E+002	-7.2782677E+001	0.0000000E+000	0.0000000E+000	0.0000000E+000	7.2782677E+001	0.0000000E+000	0.0000000E+000	0.0000000E+000	-7.2782677E+001	0.0000000E+000	0.0000000E+000	0.0000000E+000	-1.7217323E+001	0.0000000E+000	0.0000000E+000	0.0000000E+000	1.7217323E+001	3.2270234E+000	7.2782677E+001	-6.035770989676369E-006
7.9433273E+004	3.4201484E+000	1.1528614E+000	3.6092248E+000	-1.8627899E+001	1.356698817583383E+002	4.5942539E-001	-2.5231098E-003	1.7379632E+000	1.7732374E-001	1.000000000000000E+000	38	1.4585167E-002	4.0410804E-003	0	-6.236953215350190E-006	4.6959245E-001	1.7376976E-001	9.2568130E+000	2.8092158E-005	1.7237588E-005	3.3589306E-005	1.6593964E-005	3.1351490E-005	2.4758214E-005	5.9608020E-002	2.1438424E-002	7.0517683E-001	1.5145880E-006	1.0264948E-006	8.4305447E-007	4.7288452E-007	8.3615652E-007	2.2623702E-007	2.6255307E-001	8.8501215E-002	2.7706781E-001	1.8627899E+001	1.7732375E+002	5.2605933E+002	5.5514154E+002	-7.1372101E+001	0.0000000E+000	0.0000000E+000	0.0000000E+000	7.1372101E+001	0.0000000E+000	0.0000000E+000	0.0000000E+000	-7.1372101E+001	0.0000000E+000	0.0000000E+000	0.0000000E+000	-1.8627899E+001	0.0000000E+000	0.0000000E+000	0.0000000E+000	1.8627899E+001	2.9666605E+000	7.1372101E+001	2.134461109254820E-006
6.3093828E+004	3.4497769E+000	1.3069419E+000	3.6890457E+000	-2.0749104E+001	1.368168949061655E+002	4.5940006E-001	-2.1842513E-003	1.9300874E+000	2.4224870E-001	1.000000000000000E+000	38	1.4583376E-002	3.9531570E-003	0	-2.348328461042709E-006	5.1574016E-001	2.8234252E-001	9.1737890E+000	3.0268617E-005	2.9068085E-005	3.2368829E-005	2.2630928E-005	2.8777902E-005	3.2215212E-005	5.8343031E-002	2.9967025E-002	7.3030269E-001	1.0825956E-006	1.2922711E-006	5.6691891E-007	4.1114887E-007	1.0388253E-006	7.4712062E-007	2.5349122E-001	9.6034698E-002	2.7107280E-001	2.0749104E+001	2.4224867E+002	6.3943475E+002	6.8378448E+002	-6.9250900E+001	0.0000000E+000	0.0000000E+000	0.0000000E+000	6.9250900E+001	0.0000000E+000	0.0000000E+000	0.0000000E+000	-6.9250900E+001	0.0000000E+000	0.0000000E+000	0.0000000E+000	-2.0749104E+001	0.0000000E+000	0.0000000E+000	0.0000000E+000	2.0749104E+001	2.6395795E+000	6.9250900E+001	3.888624754307481E-006
5.0122477E+004	3.4814310E+000	1.5232881E+000	3.8001010E+000	-2.3631617E+001	1.379648833606625E+002	4.5940602E-001	-2.3816058E-003	2.0845175E+000	3.3494952E-001	1.000000000000000E+000	38	1.4606122E-002	3.8436141E-003	0	-1.063564472909396E-006	5.0768888E-001	1.7789143E-001	9.2664967E+000	1.6904391E-005	3.4724835E-005	3.2821888E-005	2.7019358E-005	3.3937147E-005	2.7438853E-005	6.3823655E-002	2.5847793E-002	7.5945425E-001	1.3418800E-006	1.1546983E-006	6.1555977E-007	7.1628773E-007	6.6676245E-007	1.0907611E-006	2.4108350E-001	1.0548526E-001	2.6315090E-001	2.3631617E+001	3.3494952E+002	7.6551752E+002	8.3558856E+002	-6.6368385E+001	0.0000000E+000	0.0000000E+000	0.0000000E+000	6.6368385E+001	0.0000000E+000	0.0000000E+000	0.0000000E+000	-6.6368385E+001	0.0000000E+000	0.0000000E+000	0.0000000E+000	-2.3631617E+001	0.0000000E+000	0.0000000E+000	0.0000000E+000	2.3631617E+001	2.2854712E+000	6.6368385E+001	1.284763988133313E-006
3.9814063E+004	3.5337384E+000	1.8097647E+000	3.9702084E+000	-2.7118750E+001	1.391118898151908E+002	4.5941156E-001	-2.4262988E-003	2.2088261E+000	4.5896459E-001	1.000000000000000E+000	38	1.4643683E-002	3.6883915E-003	0	-7.527512027752690E-006	4.0340003E-001	2.2268671E-001	9.0146465E+000	2.0794718E-005	3.3765111E-005	2.0249059E-005	1.7564247E-005	2.1625898E-005	1.4300826E-005	5.6112882E-002	5.7644490E-002	7.8072667E-001	5.0727931E-007	1.1758958E-006	2.5861874E-007	6.7911878E-007	1.0231355E-006	8.1063428E-007	2.2418563E-001	1.1481417E-001	2.5187594E-001	2.7118750E+001	4.5896460E+002	8.9617212E+002	1.0068629E+003	-6.2881248E+001	0.0000000E+000	0.0000000E+000	0.0000000E+000	6.2881248E+001	0.0000000E+000	0.0000000E+000	0.0000000E+000	-6.2881248E+001	0.0000000E+000	0.0000000E+000	0.0000000E+000	-2.7118750E+001	0.0000000E+000	0.0000000E+000	0.0000000E+000	2.7118750E+001	1.9525955E+000	6.2881248E+001	-6.463947554843294E-006
3.1621143E+004	3.5830421E+000	2.1721761E+000	4.1900525E+000	-3.1225832E+001	1.402588872030028E+002	4.5939323E-001	-2.0967419E-003	2.3171146E+000	6.2272841E-001	1.000000000000000E+000	38	1.4647919E-002	3.4958795E-003	0	-1.153374492345999E-006	4.5247236E-001	1.7016490E-001	9.0796061E+000	3.5578283E-005	2.5930147E-005	2.4489067E-005	2.2227068E-005	2.4635317E-005	2.0612912E-005	5.7931233E-002	4.8431724E-002	8.3117253E-001	3.4040565E-007	1.1439697E-006	1.0409906E-006	1.0150234E-006	4.0564865E-007	5.0028370E-007	2.0408590E-001	1.2372461E-001	2.3866050E-001	3.1225832E+001	6.2272827E+002	1.0272013E+003	1.2012214E+003	-5.8774170E+001	0.0000000E+000	0.0000000E+000	0.0000000E+000	5.8774170E+001	0.0000000E+000	0.0000000E+000	0.0000000E+000	-5.8774170E+001	0.0000000E+000	0.0000000E+000	0.0000000E+000	-3.1225832E+001	0.0000000E+000	0.0000000E+000	0.0000000E+000	3.1225832E+001	1.6495173E+000	5.8774170E+001	6.374137535406691E-006
2.5116906E+004	3.6480837E+000	2.6301095E+000	4.4973316E+000	-3.5789963E+001	1.414058836574550E+002	4.5940050E-001	-3.0686839E-003	2.4092405E+000	8.2398254E-001	1.000000000000000E+000	38	1.4702125E-002	3.2690775E-003	0	-2.909267425537109E-006	3.9925116E-001	2.9585430E-001	8.9917746E+000	1.8614341E-005	1.2895697E-005	1.9577514E-005	2.8941817E-005	2.5794187E-005	2.3969505E-005	7.2945513E-002	5.3141534E-002	8.9007777E-001	1.1091458E-006	1.1968561E-006	1.0053526E-006	6.8523786E-007	7.5813313E-007	7.0935380E-007	1.8036613E-001	1.3003613E-001	2.2235407E-001	3.5789963E+001	8.2398254E+002	1.1429019E+003	1.4089613E+003	-5.4210037E+001	0.0000000E+000	0.0000000E+000	0.0000000E+000	5.4210037E+001	0.0000000E+000	0.0000000E+000	0.0000000E+000	-5.4210037E+001	0.0000000E+000	0.0000000E+000	0.0000000E+000	-3.5789963E+001	0.0000000E+000	0.0000000E+000	0.0000000E+000	3.5789963E+001	1.3870463E+000	5.4210037E+001	-1.755892933191111E-006
1.9948781E+004	3.7446091E+000	3.2116671E+000	4.9332447E+000	-4.0618950E+001	1.425528930719593E+002	4.5940256E-001	-2.5119884E-003	2.4841239E+000	1.0528560E+000	1.000000000000000E+000	38	1.4742623E-002	2.9884232E-003	0	-9.521732548600993E-006	5.7445490E-001	2.1724582E-001	8.9938068E+000	3.5168880E-005	1.1976517E-005	5.5312830E-005	2.6027708E-005	1.8864910E-005	3.1774514E-005	6.7508578E-002	5.4652881E-002	9.6146166E-001	1.0909374E-006	6.3004154E-007	8.3548304E-007	7.3592878E-007	4.3395312E-007	7.9321291E-007	1.5386547E-001	1.3196695E-001	2.0270634E-001	4.0618950E+001	1.0528561E+003	1.2275663E+003	1.6172275E+003	-4.9381050E+001	0.0000000E+000	0.0000000E+000	0.0000000E+000	4.9381050E+001	0.0000000E+000	0.0000000E+000	0.0000000E+000	-4.9381050E+001	0.0000000E+000	0.0000000E+000	0.0000000E+000	-4.0618950E+001	0.0000000E+000	0.0000000E+000	0.0000000E+000	4.0618950E+001	1.1659393E+000	4.9381042E+001	-6.612465123063885E-006
1.5847683E+004	3.8562231E+000	3.9261637E+000	5.5032005E+000	-4.5514904E+001	1.437008894731407E+002	4.5940799E-001	-1.6294327E-003	2.5579140E+000	1.3019433E+000	1.000000000000000E+000	38	1.4795938E-002	2.6886060E-003	0	-6.894513087166059E-006	4.0634218E-001	2.9118061E-001	8.9751425E+000	2.9209799E-005	1.5789821E-005	2.1439942E-005	1.5748401E-005	2.7369097E-005	2.1478527E-005	1.0312807E-001	3.2299198E-002	1.0768758E+000	2.3195475E-006	9.4230836E-007	2.9905578E-007	7.6600327E-007	2.8221115E-007	6.1212995E-007	1.2733021E-001	1.2963960E-001	1.8171243E-001	4.5514904E+001	1.3019432E+003	1.2787505E+003	1.8248998E+003	-4.4485096E+001	0.0000000E+000	0.0000000E+000	0.0000000E+000	4.4485096E+001	0.0000000E+000	0.0000000E+000	0.0000000E+000	-4.4485096E+001	0.0000000E+000	0.0000000E+000	0.0000000E+000	-4.5514904E+001	0.0000000E+000	0.0000000E+000	0.0000000E+000	4.5514904E+001	9.8218602E-001	4.4485092E+001	2.627219461434934E-006
1.2590930E+004	4.0012188E+000	4.8254433E+000	6.2685447E+000	-5.0334751E+001	1.448478900609189E+002	4.5940891E-001	-2.7633572E-003	2.6195407E+000	1.5522659E+000	1.000000000000000E+000	38	1.4879774E-002	2.3737208E-003	0	-7.540902811794593E-006	5.7859212E-001	3.1587857E-001	8.7787590E+000	3.8760940E-005	4.2837444E-005	3.9797684E-005	2.6290218E-005	2.2675909E-005	2.5113519E-005	1.6611363E-001	3.9219778E-002	1.2228912E+000	3.3344566E-006	1.4277339E-006	1.0128909E-006	7.1298672E-007	3.9841805E-007	4.6476535E-007	1.0182603E-001	1.2280153E-001	1.5952666E-001	5.0334751E+001	1.5522657E+003	1.2871262E+003	2.0164878E+003	-3.9665249E+001	0.0000000E+000	0.0000000E+000	0.0000000E+000	3.9665249E+001	0.0000000E+000	0.0000000E+000	0.0000000E+000	-3.9665249E+001	0.0000000E+000	0.0000000E+000	0.0000000E+000	-5.0334751E+001	0.0000000E+000	0.0000000E+000	0.0000000E+000	5.0334751E+001	8.2919198E-001	3.9665253E+001	-6.463897246285339E-007
