EC-Lab ASCII FILE
Nb header lines : 67                          

Potentio Electrochemical Impedance Spectroscopy

Run on channel : 15 (SN 19485)
User : 
Electrode connection : standard
Potential control : Ewe
Ewe ctrl range : min = -1.00 V, max = 1.00 V
Ewe,I filtering : 50 kHz
Safety Limits :
	Do not start on E overload
Channel : Floating
Acquisition started on : 02/23/2024 16:29:27.631
Loaded Setting File :  NONE
Saved on :
	File : 240223-OCV-EIS-Fe2Fe3_5mM-HCl1M-0RPM-Ag_AgCl_BLF8-GC-RDE-1minRestVSEoc-3ppf-14p1mVAmplitude_04_PEIS_C15.mpr
	Directory : C:\Data\mathias\RDE-RPM-variation\
	Host : 192.168.0.1
Device : VMP-300 (SN 0826)
Address : USB
EC-Lab for windows v11.52 (software)
Internet server v11.52 (firmware)
Command interpretor v11.52 (firmware)
Electrode material : 
Initial state : 
Electrolyte : 
Comments : 
Cable : special
Reference electrode : SCE Saturated Calomel Electrode (0.241 V)
Electrode surface area : 0.001 cm²
Characteristic mass : 0.001 g
Equivalent Weight : 0.000 g/eq.
Density : 0.000 g/cm3
Volume (V) : 0.001 cm³
Record EIS quality indicators
Cycle Definition : Charge/Discharge alternance
Mode                Single sine         
E (V)               0.0000              
vs.                 Eoc                 
tE (h:m:s)          0:01:0.0000         
record              0                   
dI                  0.000               
unit dI             mA                  
dt (s)              0.000               
fi                  1.000               
unit fi             MHz                 
ff                  100.000             
unit ff             mHz                 
Nd                  10                  
Points              per decade          
spacing             Logarithmic         
Va (mV)             14.1                
pw                  0.10                
Na                  3                   
corr                0                   
E range min (V)     -1.000              
E range max (V)     1.000               
I Range             Auto                
Bandwidth           8                   
nc cycles           0                   
goto Ns'            0                   
nr cycles           0                   
inc. cycle          1                   

freq/Hz	Re(Z)/Ohm	-Im(Z)/Ohm	|Z|/Ohm	Phase(Z)/deg	time/s	<Ewe>/V	<I>/mA	Cs/µF	Cp/µF	cycle number	I Range	|Ewe|/V	|I|/A	Ns	(Q-Qo)/mA.h	THD Ewe/%	NSD Ewe/%	NSR Ewe/%	|Ewe h2|/V	|Ewe h3|/V	|Ewe h4|/V	|Ewe h5|/V	|Ewe h6|/V	|Ewe h7|/V	THD I/%	NSD I/%	NSR I/%	|I h2|/A	|I h3|/A	|I h4|/A	|I h5|/A	|I h6|/A	|I h7|/A	Re(Y)/Ohm-1	Im(Y)/Ohm-1	|Y|/Ohm-1	Phase(Y)/deg	Re(C)/nF	Im(C)/nF	|C|/nF	Phase(C)/deg	Re(M)	Im(M)	|M|	Phase(M)/deg	Re(Permittivity)	Im(Permittivity)	|Permittivity|	Phase(Permittivity)/deg	Re(Resistivity)/Ohm.cm	Im(Resistivity)/Ohm.cm	|Resistivity|/Ohm.cm	Phase(Resistivity)/deg	Re(Conductivity)/mS/cm	Im(Conductivity)/mS/cm	|Conductivity|/mS/cm	Phase(Conductivity)/deg	Tan(Delta)	Loss Angle(Delta)/deg	dq/mA.h	
1.0000186E+006	3.5156009E+000	4.0690188E+000	5.3773937E+000	-4.9173237E+001	6.054646992534399E+002	4.5938531E-001	-1.0665462E-002	3.9113112E-002	2.2395363E-002	1.000000000000000E+000	38	1.1116018E-002	2.0671757E-003	0	-6.919095871053287E-006	-1	-1	-1	0	0	0	0	0	0	-1	-1	-1	0	0	0	0	0	0	1.2157825E-001	1.4071682E-001	1.8596369E-001	4.9173237E+001	2.2395363E+001	1.9349421E+001	2.9596493E+001	-4.0826763E+001	0.0000000E+000	0.0000000E+000	0.0000000E+000	4.0826763E+001	0.0000000E+000	0.0000000E+000	0.0000000E+000	-4.0826763E+001	0.0000000E+000	0.0000000E+000	0.0000000E+000	-4.9173237E+001	0.0000000E+000	0.0000000E+000	0.0000000E+000	4.9173237E+001	8.6399227E-001	4.0826767E+001	-6.919095871053287E-006
7.9433269E+005	3.5585201E+000	3.2011039E+000	4.7864528E+000	-4.1973293E+001	6.064767185281380E+002	4.5940700E-001	-1.4320653E-003	6.2591873E-002	2.7995609E-002	1.000000000000000E+000	38	1.3890364E-002	2.9020163E-003	0	-4.578924161175059E-006	-1	-1	-1	0	0	0	0	0	0	-1	-1	-1	0	0	0	0	0	0	1.5532517E-001	1.3972437E-001	2.0892298E-001	4.1973293E+001	2.7995607E+001	3.1121433E+001	4.1860455E+001	-4.8026707E+001	0.0000000E+000	0.0000000E+000	0.0000000E+000	4.8026707E+001	0.0000000E+000	0.0000000E+000	0.0000000E+000	-4.8026707E+001	0.0000000E+000	0.0000000E+000	0.0000000E+000	-4.1973293E+001	0.0000000E+000	0.0000000E+000	0.0000000E+000	4.1973293E+001	1.1116540E+000	4.8026703E+001	2.340171709878228E-006
6.3095681E+005	3.5321004E+000	2.5251563E+000	4.3419061E+000	-3.5561596E+001	6.076227077026269E+002	4.5939285E-001	-1.9701305E-003	9.9892348E-002	3.3786867E-002	1.000000000000000E+000	38	1.4478699E-002	3.3346415E-003	0	-2.631178259668458E-006	-1	-1	-1	0	0	0	0	0	0	-1	-1	-1	0	0	0	0	0	0	1.8735799E-001	1.3394529E-001	2.3031360E-001	3.5561596E+001	3.3786869E+001	4.7259888E+001	5.8095177E+001	-5.4438404E+001	0.0000000E+000	0.0000000E+000	0.0000000E+000	5.4438404E+001	0.0000000E+000	0.0000000E+000	0.0000000E+000	-5.4438404E+001	0.0000000E+000	0.0000000E+000	0.0000000E+000	-3.5561596E+001	0.0000000E+000	0.0000000E+000	0.0000000E+000	3.5561596E+001	1.3987651E+000	5.4438400E+001	1.947745901506601E-006
5.0120622E+005	3.4989974E+000	2.0132267E+000	4.0368385E+000	-2.9914938E+001	6.087697092504241E+002	4.5939469E-001	-1.7057328E-003	1.5772879E-001	3.9229576E-002	1.000000000000000E+000	38	1.4534187E-002	3.6003885E-003	0	2.368138739748651E-006	-1	-1	-1	0	0	0	0	0	0	-1	-1	-1	0	0	0	0	0	0	2.1471424E-001	1.2354067E-001	2.4771860E-001	2.9914938E+001	3.9229580E+001	6.8181183E+001	7.8661514E+001	-6.0085060E+001	0.0000000E+000	0.0000000E+000	0.0000000E+000	6.0085060E+001	0.0000000E+000	0.0000000E+000	0.0000000E+000	-6.0085060E+001	0.0000000E+000	0.0000000E+000	0.0000000E+000	-2.9914938E+001	0.0000000E+000	0.0000000E+000	0.0000000E+000	2.9914938E+001	1.7380047E+000	6.0085060E+001	4.999316999417109E-006
3.9810347E+005	3.4635794E+000	1.6273607E+000	3.8268375E+000	-2.5166454E+001	6.099167023448972E+002	4.5940238E-001	-1.6740726E-003	2.4566333E-001	4.4425055E-002	1.000000000000000E+000	38	1.4573082E-002	3.8081268E-003	0	4.870362145231209E-006	-1	-1	-1	0	0	0	0	0	0	-1	-1	-1	0	0	0	0	0	0	2.3650759E-001	1.1112294E-001	2.6131237E-001	2.5166454E+001	4.4425056E+001	9.4551682E+001	1.0446821E+002	-6.4833542E+001	0.0000000E+000	0.0000000E+000	0.0000000E+000	6.4833542E+001	0.0000000E+000	0.0000000E+000	0.0000000E+000	-6.4833542E+001	0.0000000E+000	0.0000000E+000	0.0000000E+000	-2.5166454E+001	0.0000000E+000	0.0000000E+000	0.0000000E+000	2.5166454E+001	2.1283417E+000	6.4833542E+001	2.502223405482558E-006
3.1622997E+005	3.4302008E+000	1.3517731E+000	3.6869457E+000	-2.1508402E+001	6.110637001860305E+002	4.5939150E-001	-1.4301600E-003	3.7231737E-001	5.0048083E-002	1.000000000000000E+000	38	1.4531971E-002	3.9414661E-003	0	1.920408740898388E-006	-1	-1	-1	0	0	0	0	0	0	-1	-1	-1	0	0	0	0	0	0	2.5233999E-001	9.9442109E-002	2.7122721E-001	2.1508402E+001	5.0048077E+001	1.2699985E+002	1.3650557E+002	-6.8491600E+001	0.0000000E+000	0.0000000E+000	0.0000000E+000	6.8491600E+001	0.0000000E+000	0.0000000E+000	0.0000000E+000	-6.8491600E+001	0.0000000E+000	0.0000000E+000	0.0000000E+000	-2.1508402E+001	0.0000000E+000	0.0000000E+000	0.0000000E+000	2.1508402E+001	2.5375566E+000	6.8491600E+001	-2.949953404332821E-006
2.5118764E+005	3.4076636E+000	1.1729465E+000	3.6038833E+000	-1.8993895E+001	6.122107044538716E+002	4.5939010E-001	-1.7653059E-003	5.4018641E-001	5.7221420E-002	1.000000000000000E+000	38	1.4549389E-002	4.0371423E-003	0	9.269882247770308E-006	-1	-1	-1	0	0	0	0	0	0	-1	-1	-1	0	0	0	0	0	0	2.6237065E-001	9.0310194E-002	2.7747846E-001	1.8993895E+001	5.7221420E+001	1.6624060E+002	1.7581305E+002	-7.1006104E+001	0.0000000E+000	0.0000000E+000	0.0000000E+000	7.1006104E+001	0.0000000E+000	0.0000000E+000	0.0000000E+000	-7.1006104E+001	0.0000000E+000	0.0000000E+000	0.0000000E+000	-1.8993895E+001	0.0000000E+000	0.0000000E+000	0.0000000E+000	1.8993895E+001	2.9052167E+000	7.1006104E+001	7.349473506871921E-006
1.9954350E+005	3.3929038E+000	1.0580955E+000	3.5540628E+000	-1.7320374E+001	6.133577123750001E+002	4.5940173E-001	-2.8079872E-003	7.5380278E-001	6.6812418E-002	1.000000000000000E+000	38	1.4571693E-002	4.1000098E-003	0	6.651985759200115E-006	-1	-1	-1	0	0	0	0	0	0	-1	-1	-1	0	0	0	0	0	0	2.6860949E-001	8.3767332E-002	2.8136814E-001	1.7320374E+001	6.6812424E+001	2.1424165E+002	2.2441788E+002	-7.2679626E+001	0.0000000E+000	0.0000000E+000	0.0000000E+000	7.2679626E+001	0.0000000E+000	0.0000000E+000	0.0000000E+000	-7.2679626E+001	0.0000000E+000	0.0000000E+000	0.0000000E+000	-1.7320374E+001	0.0000000E+000	0.0000000E+000	0.0000000E+000	1.7320374E+001	3.2066140E+000	7.2679626E+001	-2.617896488570194E-006
1.5848613E+005	3.3887334E+000	1.0009985E+000	3.5334845E+000	-1.6456621E+001	6.145047140561510E+002	4.5939922E-001	-1.8323337E-003	1.0032184E+000	8.0511130E-002	1.000000000000000E+000	38	1.4588986E-002	4.1287816E-003	0	1.265154134523537E-005	-1	-1	-1	0	0	0	0	0	0	-1	-1	-1	0	0	0	0	0	0	2.7141324E-001	8.0172800E-002	2.8300676E-001	1.6456621E+001	8.0511116E+001	2.7255862E+002	2.8420105E+002	-7.3543381E+001	0.0000000E+000	0.0000000E+000	0.0000000E+000	7.3543381E+001	0.0000000E+000	0.0000000E+000	0.0000000E+000	-7.3543381E+001	0.0000000E+000	0.0000000E+000	0.0000000E+000	-1.6456621E+001	0.0000000E+000	0.0000000E+000	0.0000000E+000	1.6456621E+001	3.3853531E+000	7.3543381E+001	5.999555586035259E-006
1.2590929E+005	3.3872313E+000	1.0074550E+000	3.5338790E+000	-1.6563913E+001	6.156527150706970E+002	4.5939636E-001	-1.8975015E-003	1.2546908E+000	1.0197288E-001	1.000000000000000E+000	38	1.4571468E-002	4.1233636E-003	0	1.870319251945087E-005	-1	-1	-1	0	0	0	0	0	0	-1	-1	-1	0	0	0	0	0	0	2.7123237E-001	8.0671899E-002	2.8297517E-001	1.6563913E+001	1.0197285E+002	3.4284973E+002	3.5769318E+002	-7.3436089E+001	0.0000000E+000	0.0000000E+000	0.0000000E+000	7.3436089E+001	0.0000000E+000	0.0000000E+000	0.0000000E+000	-7.3436089E+001	0.0000000E+000	0.0000000E+000	0.0000000E+000	-1.6563913E+001	0.0000000E+000	0.0000000E+000	0.0000000E+000	1.6563913E+001	3.3621664E+000	7.3436089E+001	6.051651174215498E-006
1.0000371E+005	3.4011233E+000	1.0570642E+000	3.5616043E+000	-1.7265167E+001	6.167997156318161E+002	4.5940197E-001	-2.7316434E-003	1.5055759E+000	1.3262153E-001	1.000000000000000E+000	38	1.4588260E-002	4.0959800E-003	0	2.096617881666559E-005	4.4332975E-001	2.2409976E-001	8.7249613E+000	1.2341009E-005	3.5028243E-005	3.9204278E-005	1.9797850E-005	1.6609649E-005	1.7045440E-005	6.7667551E-002	3.4942962E-002	6.9173533E-001	1.9649208E-006	1.4463177E-006	5.5826200E-007	5.8027160E-007	6.7651041E-007	5.7884597E-007	2.6812115E-001	8.3331659E-002	2.8077236E-001	1.7265167E+001	1.3262152E+002	4.2671222E+002	4.4684650E+002	-7.2734833E+001	0.0000000E+000	0.0000000E+000	0.0000000E+000	7.2734833E+001	0.0000000E+000	0.0000000E+000	0.0000000E+000	-7.2734833E+001	0.0000000E+000	0.0000000E+000	0.0000000E+000	-1.7265167E+001	0.0000000E+000	0.0000000E+000	0.0000000E+000	1.7265167E+001	3.2175183E+000	7.2734833E+001	2.262986297214713E-006
7.9433273E+004	3.4159763E+000	1.1509173E+000	3.6046505E+000	-1.8619799E+001	6.179476964863134E+002	4.5937696E-001	-1.9105317E-003	1.7408990E+000	1.7747431E-001	1.000000000000000E+000	38	1.4575145E-002	4.0434282E-003	0	2.029359387976324E-005	3.9334285E-001	1.9937454E-001	8.9609451E+000	1.8081515E-005	1.6993194E-005	1.2231524E-005	2.4322952E-005	2.9703720E-005	2.7448687E-005	6.0259353E-002	2.3708362E-002	7.0575804E-001	1.3729342E-006	1.6590375E-006	4.2689896E-007	3.7542779E-007	6.4638544E-007	5.6490876E-007	2.6289877E-001	8.8576354E-002	2.7741942E-001	1.8619799E+001	1.7747429E+002	5.2675208E+002	5.5584607E+002	-7.1380203E+001	0.0000000E+000	0.0000000E+000	0.0000000E+000	7.1380203E+001	0.0000000E+000	0.0000000E+000	0.0000000E+000	-7.1380203E+001	0.0000000E+000	0.0000000E+000	0.0000000E+000	-1.8619799E+001	0.0000000E+000	0.0000000E+000	0.0000000E+000	1.8619799E+001	2.9680467E+000	7.1380203E+001	-6.725849369023405E-007
6.3093828E+004	3.4502547E+000	1.3113896E+000	3.6910703E+000	-2.0811041E+001	6.190937095274567E+002	4.5939705E-001	-2.4132659E-003	1.9235413E+000	2.4280651E-001	1.000000000000000E+000	38	1.4614821E-002	3.9595077E-003	0	2.042290828912519E-005	4.4577444E-001	2.6307076E-001	8.8135910E+000	3.3181124E-005	2.0979494E-005	2.7896516E-005	3.0112404E-005	1.6559658E-005	2.2626375E-005	5.4699197E-002	3.3054110E-002	7.2119790E-001	1.0984636E-006	1.2345632E-006	7.9548795E-007	8.0153228E-007	5.4135830E-007	2.2538923E-007	2.5324827E-001	9.6255846E-002	2.7092412E-001	2.0811041E+001	2.4280655E+002	6.3882184E+002	6.8340936E+002	-6.9188957E+001	0.0000000E+000	0.0000000E+000	0.0000000E+000	6.9188957E+001	0.0000000E+000	0.0000000E+000	0.0000000E+000	-6.9188957E+001	0.0000000E+000	0.0000000E+000	0.0000000E+000	-2.0811041E+001	0.0000000E+000	0.0000000E+000	0.0000000E+000	2.0811041E+001	2.6309915E+000	6.9188957E+001	1.293144093619438E-007
5.0122477E+004	3.4800124E+000	1.5270309E+000	3.8003039E+000	-2.3691885E+001	6.202397169952164E+002	4.5940512E-001	-2.1116247E-003	2.0794082E+000	3.3573666E-001	1.000000000000000E+000	38	1.4589988E-002	3.8391633E-003	0	1.536190423946310E-005	5.4928380E-001	2.5237647E-001	8.8861456E+000	3.2772157E-005	3.4409411E-005	2.5764079E-005	2.3733081E-005	4.1419582E-005	2.0783651E-005	5.5670902E-002	3.1993479E-002	7.4834925E-001	6.8596773E-007	1.1423887E-006	5.8015985E-007	6.5750373E-007	1.0486439E-006	5.8732724E-007	2.4095954E-001	1.0573314E-001	2.6313683E-001	2.3691885E+001	3.3573666E+002	7.6512384E+002	8.3554388E+002	-6.6308113E+001	0.0000000E+000	0.0000000E+000	0.0000000E+000	6.6308113E+001	0.0000000E+000	0.0000000E+000	0.0000000E+000	-6.6308113E+001	0.0000000E+000	0.0000000E+000	0.0000000E+000	-2.3691885E+001	0.0000000E+000	0.0000000E+000	0.0000000E+000	2.3691885E+001	2.2789404E+000	6.6308113E+001	-5.061004049662086E-006
3.9814063E+004	3.5338504E+000	1.8123846E+000	3.9715030E+000	-2.7151655E+001	6.213877007297124E+002	4.5938459E-001	-1.6908332E-003	2.2056332E+000	4.5932937E-001	1.000000000000000E+000	38	1.4666688E-002	3.6929816E-003	0	1.104260856821202E-005	4.9341694E-001	2.6543382E-001	8.8421068E+000	2.6926651E-005	4.7020862E-005	2.4042922E-005	2.5782285E-005	1.6109949E-005	2.1088990E-005	6.2119573E-002	6.0438920E-002	7.6860178E-001	1.3173436E-006	1.1411059E-006	7.3877823E-007	8.6694718E-007	5.6269693E-007	6.0097159E-007	2.2404659E-001	1.1490543E-001	2.5179383E-001	2.7151655E+001	4.5932944E+002	8.9561633E+002	1.0065347E+003	-6.2848343E+001	0.0000000E+000	0.0000000E+000	0.0000000E+000	6.2848343E+001	0.0000000E+000	0.0000000E+000	0.0000000E+000	-6.2848343E+001	0.0000000E+000	0.0000000E+000	0.0000000E+000	-2.7151655E+001	0.0000000E+000	0.0000000E+000	0.0000000E+000	2.7151655E+001	1.9498347E+000	6.2848343E+001	-4.319295671251086E-006
3.1621143E+004	3.5829678E+000	2.1723826E+000	4.1900959E+000	-3.1228775E+001	6.225357179309358E+002	4.5938599E-001	-1.8770335E-003	2.3168945E+000	6.2277472E-001	1.000000000000000E+000	38	1.4648839E-002	3.4960629E-003	0	1.002450709602433E-005	5.3690284E-001	2.0153777E-001	8.6178980E+000	3.5712015E-005	3.3739601E-005	3.3359767E-005	1.6205182E-005	2.8962677E-005	2.7240603E-005	5.8416449E-002	4.5560319E-002	8.2244635E-001	7.4807798E-007	1.1071195E-006	8.8750795E-007	5.2726938E-007	7.7852206E-007	5.0519708E-007	2.0407742E-001	1.2373381E-001	2.3865803E-001	3.1228775E+001	6.2277472E+002	1.0271587E+003	1.2012091E+003	-5.8771225E+001	0.0000000E+000	0.0000000E+000	0.0000000E+000	5.8771225E+001	0.0000000E+000	0.0000000E+000	0.0000000E+000	-5.8771225E+001	0.0000000E+000	0.0000000E+000	0.0000000E+000	-3.1228775E+001	0.0000000E+000	0.0000000E+000	0.0000000E+000	3.1228775E+001	1.6493263E+000	5.8771225E+001	-1.018101472187684E-006
2.5116906E+004	3.6560256E+000	2.6419041E+000	4.5106740E+000	-3.5852493E+001	6.236826964920620E+002	4.5938906E-001	-2.2084694E-003	2.3984847E+000	8.2278842E-001	1.000000000000000E+000	38	1.4745376E-002	3.2689960E-003	0	6.803501663483783E-006	4.7845715E-001	2.0812193E-001	8.7448549E+000	3.1569503E-005	3.0604795E-005	1.8720582E-005	2.2992332E-005	2.2612185E-005	3.0184958E-005	4.7505248E-002	6.9761842E-002	8.8463366E-001	5.4529573E-007	1.0112094E-006	5.7604836E-007	2.3786622E-007	3.8786638E-007	5.6596457E-007	1.7969102E-001	1.2984768E-001	2.2169636E-001	3.5852493E+001	8.2278839E+002	1.1386240E+003	1.4047937E+003	-5.4147507E+001	0.0000000E+000	0.0000000E+000	0.0000000E+000	5.4147507E+001	0.0000000E+000	0.0000000E+000	0.0000000E+000	-5.4147507E+001	0.0000000E+000	0.0000000E+000	0.0000000E+000	-3.5852493E+001	0.0000000E+000	0.0000000E+000	0.0000000E+000	3.5852493E+001	1.3838601E+000	5.4147507E+001	-3.221005432540551E-006
1.9948781E+004	3.7375846E+000	3.2105932E+000	4.9272151E+000	-4.0662651E+001	6.248287156131701E+002	4.5939586E-001	-8.1204093E-004	2.4849546E+000	1.0550815E+000	1.000000000000000E+000	38	1.4784108E-002	3.0004999E-003	0	7.099606553066729E-006	4.4460145E-001	2.8765091E-001	8.5977793E+000	2.7614549E-005	1.6492224E-005	2.4253248E-005	2.4400972E-005	2.6338077E-005	2.5129031E-005	7.5810634E-002	4.5143981E-002	9.5464021E-001	1.1928253E-006	6.3862382E-007	1.3691150E-006	2.1068210E-007	5.0243091E-007	6.2805532E-007	1.5395294E-001	1.3224591E-001	2.0295440E-001	4.0662651E+001	1.0550815E+003	1.2282642E+003	1.6192065E+003	-4.9337349E+001	0.0000000E+000	0.0000000E+000	0.0000000E+000	4.9337349E+001	0.0000000E+000	0.0000000E+000	0.0000000E+000	-4.9337349E+001	0.0000000E+000	0.0000000E+000	0.0000000E+000	-4.0662651E+001	0.0000000E+000	0.0000000E+000	0.0000000E+000	4.0662651E+001	1.1641414E+000	4.9337341E+001	2.961048895829457E-007
1.5847683E+004	3.8610532E+000	3.9347184E+000	5.5126891E+000	-4.5541393E+001	6.259757040943368E+002	4.5939696E-001	-9.0514013E-004	2.5523529E+000	1.3002924E+000	1.000000000000000E+000	38	1.4819597E-002	2.6882701E-003	0	5.092582874469776E-006	5.2198827E-001	3.6159435E-001	8.7316437E+000	3.9929640E-005	2.1925596E-005	2.7655826E-005	2.6144184E-005	3.1177027E-005	3.0236790E-005	1.0801080E-001	4.0640216E-002	1.0752751E+000	2.3199852E-006	1.0502010E-006	5.4837244E-007	4.5514057E-007	6.9425101E-007	7.3468374E-007	1.2705120E-001	1.2947522E-001	1.8139967E-001	4.5541393E+001	1.3002924E+003	1.2759485E+003	1.8217587E+003	-4.4458607E+001	0.0000000E+000	0.0000000E+000	0.0000000E+000	4.4458607E+001	0.0000000E+000	0.0000000E+000	0.0000000E+000	-4.4458607E+001	0.0000000E+000	0.0000000E+000	0.0000000E+000	-4.5541393E+001	0.0000000E+000	0.0000000E+000	0.0000000E+000	4.5541393E+001	9.8127818E-001	4.4458603E+001	-2.007023678596953E-006
1.2590930E+004	3.9993358E+000	4.8334293E+000	6.2734938E+000	-5.0394543E+001	6.271227046287968E+002	4.5937803E-001	-1.0410663E-003	2.6152124E+000	1.5523827E+000	1.000000000000000E+000	38	1.4773056E-002	2.3548370E-003	0	5.180456334104140E-007	5.2714252E-001	2.2948544E-001	8.7982216E+000	3.5219360E-005	3.1195163E-005	3.3761495E-005	2.9501409E-005	1.8203305E-005	1.7014279E-005	1.2362678E-001	3.9986048E-002	1.2080489E+000	2.5052591E-006	9.0670022E-007	6.1309112E-007	2.1282329E-007	4.2369803E-007	5.6370448E-007	1.0161760E-001	1.2281075E-001	1.5940081E-001	5.0394543E+001	1.5523826E+003	1.2844916E+003	2.0148971E+003	-3.9605457E+001	0.0000000E+000	0.0000000E+000	0.0000000E+000	3.9605457E+001	0.0000000E+000	0.0000000E+000	0.0000000E+000	-3.9605457E+001	0.0000000E+000	0.0000000E+000	0.0000000E+000	-5.0394543E+001	0.0000000E+000	0.0000000E+000	0.0000000E+000	5.0394543E+001	8.2743233E-001	3.9605453E+001	-4.574537241059362E-006
