EC-Lab ASCII FILE
Nb header lines : 67                          

Potentio Electrochemical Impedance Spectroscopy

Run on channel : 15 (SN 19485)
User : 
Electrode connection : standard
Potential control : Ewe
Ewe ctrl range : min = -1.00 V, max = 1.00 V
Ewe,I filtering : 50 kHz
Safety Limits :
	Do not start on E overload
Channel : Floating
Acquisition started on : 02/23/2024 14:49:54.683
Loaded Setting File :  NONE
Saved on :
	File : 240223-OCV-EIS-Fe2Fe3_5mM-HCl1M-1225RPM-Ag_AgCl_BLF8-GC-RDE-1minRestVSEoc-3ppf-14p1mVAmplitude_04_PEIS_C15.mpr
	Directory : C:\Data\mathias\RDE-RPM-variation\
	Host : 192.168.0.1
Device : VMP-300 (SN 0826)
Address : USB
EC-Lab for windows v11.52 (software)
Internet server v11.52 (firmware)
Command interpretor v11.52 (firmware)
Electrode material : 
Initial state : 
Electrolyte : 
Comments : 
Cable : special
Reference electrode : SCE Saturated Calomel Electrode (0.241 V)
Electrode surface area : 0.001 cm²
Characteristic mass : 0.001 g
Equivalent Weight : 0.000 g/eq.
Density : 0.000 g/cm3
Volume (V) : 0.001 cm³
Record EIS quality indicators
Cycle Definition : Charge/Discharge alternance
Mode                Single sine         
E (V)               0.0000              
vs.                 Eoc                 
tE (h:m:s)          0:01:0.0000         
record              0                   
dI                  0.000               
unit dI             mA                  
dt (s)              0.000               
fi                  1.000               
unit fi             MHz                 
ff                  100.000             
unit ff             mHz                 
Nd                  10                  
Points              per decade          
spacing             Logarithmic         
Va (mV)             14.1                
pw                  0.10                
Na                  3                   
corr                0                   
E range min (V)     -1.000              
E range max (V)     1.000               
I Range             Auto                
Bandwidth           8                   
nc cycles           0                   
goto Ns'            0                   
nr cycles           0                   
inc. cycle          1                   

freq/Hz	Re(Z)/Ohm	-Im(Z)/Ohm	|Z|/Ohm	Phase(Z)/deg	time/s	<Ewe>/V	<I>/mA	Cs/µF	Cp/µF	cycle number	I Range	|Ewe|/V	|I|/A	Ns	(Q-Qo)/mA.h	THD Ewe/%	NSD Ewe/%	NSR Ewe/%	|Ewe h2|/V	|Ewe h3|/V	|Ewe h4|/V	|Ewe h5|/V	|Ewe h6|/V	|Ewe h7|/V	THD I/%	NSD I/%	NSR I/%	|I h2|/A	|I h3|/A	|I h4|/A	|I h5|/A	|I h6|/A	|I h7|/A	Re(Y)/Ohm-1	Im(Y)/Ohm-1	|Y|/Ohm-1	Phase(Y)/deg	Re(C)/nF	Im(C)/nF	|C|/nF	Phase(C)/deg	Re(M)	Im(M)	|M|	Phase(M)/deg	Re(Permittivity)	Im(Permittivity)	|Permittivity|	Phase(Permittivity)/deg	Re(Resistivity)/Ohm.cm	Im(Resistivity)/Ohm.cm	|Resistivity|/Ohm.cm	Phase(Resistivity)/deg	Re(Conductivity)/mS/cm	Im(Conductivity)/mS/cm	|Conductivity|/mS/cm	Phase(Conductivity)/deg	Tan(Delta)	Loss Angle(Delta)/deg	dq/mA.h	
1.0000186E+006	3.5423925E+000	4.0683327E+000	5.3944302E+000	-4.8953148E+001	5.991699118526012E+002	4.5965603E-001	-1.1328309E-002	3.9119709E-002	2.2250377E-002	1.000000000000000E+000	38	1.1128847E-002	2.0630255E-003	0	-2.838417248981487E-006	-1	-1	-1	0	0	0	0	0	0	-1	-1	-1	0	0	0	0	0	0	1.2173222E-001	1.3980584E-001	1.8537639E-001	4.8953148E+001	2.2250380E+001	1.9373926E+001	2.9503023E+001	-4.1046852E+001	0.0000000E+000	0.0000000E+000	0.0000000E+000	4.1046852E+001	0.0000000E+000	0.0000000E+000	0.0000000E+000	-4.1046852E+001	0.0000000E+000	0.0000000E+000	0.0000000E+000	-4.8953148E+001	0.0000000E+000	0.0000000E+000	0.0000000E+000	4.8953148E+001	8.7072343E-001	4.1046844E+001	-2.838417248981487E-006
7.9433269E+005	3.5850060E+000	3.1958766E+000	4.8026967E+000	-4.1715614E+001	6.001819140340376E+002	4.5965818E-001	-2.0222999E-003	6.2694244E-002	2.7761145E-002	1.000000000000000E+000	38	1.3895817E-002	2.8933364E-003	0	-8.863603965534519E-007	-1	-1	-1	0	0	0	0	0	0	-1	-1	-1	0	0	0	0	0	0	1.5542452E-001	1.3855420E-001	2.0821635E-001	4.1715614E+001	2.7761145E+001	3.1141336E+001	4.1718868E+001	-4.8284386E+001	0.0000000E+000	0.0000000E+000	0.0000000E+000	4.8284386E+001	0.0000000E+000	0.0000000E+000	0.0000000E+000	-4.8284386E+001	0.0000000E+000	0.0000000E+000	0.0000000E+000	-4.1715614E+001	0.0000000E+000	0.0000000E+000	0.0000000E+000	4.1715614E+001	1.1217599E+000	4.8284393E+001	1.952056852428035E-006
6.3095681E+005	3.5651271E+000	2.5077856E+000	4.3587980E+000	-3.5123360E+001	6.013289151818317E+002	4.5968315E-001	-1.4562387E-003	1.0058428E-001	3.3294875E-002	1.000000000000000E+000	38	1.4454480E-002	3.3161619E-003	0	-1.658010303198049E-006	-1	-1	-1	0	0	0	0	0	0	-1	-1	-1	0	0	0	0	0	0	1.8764697E-001	1.3199483E-001	2.2942105E-001	3.5123360E+001	3.3294876E+001	4.7332783E+001	5.7870037E+001	-5.4876640E+001	0.0000000E+000	0.0000000E+000	0.0000000E+000	5.4876640E+001	0.0000000E+000	0.0000000E+000	0.0000000E+000	-5.4876640E+001	0.0000000E+000	0.0000000E+000	0.0000000E+000	-3.5123360E+001	0.0000000E+000	0.0000000E+000	0.0000000E+000	3.5123360E+001	1.4216236E+000	5.4876640E+001	-7.716499066445976E-007
5.0120622E+005	3.5290051E+000	1.9973809E+000	4.0550470E+000	-2.9509418E+001	6.024769092363713E+002	4.5967177E-001	-1.9533653E-003	1.5898012E-001	3.8572054E-002	1.000000000000000E+000	38	1.4518970E-002	3.5804687E-003	0	-4.710194328933236E-006	-1	-1	-1	0	0	0	0	0	0	-1	-1	-1	0	0	0	0	0	0	2.1461520E-001	1.2147001E-001	2.4660626E-001	2.9509418E+001	3.8572052E+001	6.8149734E+001	7.8308296E+001	-6.0490582E+001	0.0000000E+000	0.0000000E+000	0.0000000E+000	6.0490582E+001	0.0000000E+000	0.0000000E+000	0.0000000E+000	-6.0490582E+001	0.0000000E+000	0.0000000E+000	0.0000000E+000	-2.9509418E+001	0.0000000E+000	0.0000000E+000	0.0000000E+000	2.9509418E+001	1.7668163E+000	6.0490585E+001	-3.052184025735187E-006
3.9810347E+005	3.4889159E+000	1.6141000E+000	3.8441973E+000	-2.4826986E+001	6.036239121441904E+002	4.5966557E-001	-1.1452825E-003	2.4768159E-001	4.3665987E-002	1.000000000000000E+000	38	1.4531706E-002	3.7801666E-003	0	-1.124282433443134E-005	-1	-1	-1	0	0	0	0	0	0	-1	-1	-1	0	0	0	0	0	0	2.3609087E-001	1.0922427E-001	2.6013234E-001	2.4826986E+001	4.3665993E+001	9.4385078E+001	1.0399645E+002	-6.5173012E+001	0.0000000E+000	0.0000000E+000	0.0000000E+000	6.5173012E+001	0.0000000E+000	0.0000000E+000	0.0000000E+000	-6.5173012E+001	0.0000000E+000	0.0000000E+000	0.0000000E+000	-2.4826986E+001	0.0000000E+000	0.0000000E+000	0.0000000E+000	2.4826986E+001	2.1615241E+000	6.5173012E+001	-6.532630005498100E-006
3.1622997E+005	3.4484122E+000	1.3493345E+000	3.7030056E+000	-2.1369986E+001	6.047709058786568E+002	4.5969495E-001	-2.1544499E-003	3.7299025E-001	4.9525399E-002	1.000000000000000E+000	38	1.4573201E-002	3.9355061E-003	0	-7.955595537347512E-006	-1	-1	-1	0	0	0	0	0	0	-1	-1	-1	0	0	0	0	0	0	2.5148407E-001	9.8403580E-002	2.7005091E-001	2.1369986E+001	4.9525406E+001	1.2656905E+002	1.3591354E+002	-6.8630013E+001	0.0000000E+000	0.0000000E+000	0.0000000E+000	6.8630013E+001	0.0000000E+000	0.0000000E+000	0.0000000E+000	-6.8630013E+001	0.0000000E+000	0.0000000E+000	0.0000000E+000	-2.1369986E+001	0.0000000E+000	0.0000000E+000	0.0000000E+000	2.1369986E+001	2.5556393E+000	6.8630013E+001	3.287228797083824E-006
2.5118764E+005	3.4277325E+000	1.1667451E+000	3.6208622E+000	-1.8797750E+001	6.059179015064437E+002	4.5967525E-001	-1.5400099E-003	5.4305762E-001	5.6386329E-002	1.000000000000000E+000	38	1.4584489E-002	4.0279049E-003	0	1.619290247637158E-006	-1	-1	-1	0	0	0	0	0	0	-1	-1	-1	0	0	0	0	0	0	2.6144654E-001	8.8992208E-002	2.7617732E-001	1.8797750E+001	5.6386341E+001	1.6565509E+002	1.7498865E+002	-7.1202248E+001	0.0000000E+000	0.0000000E+000	0.0000000E+000	7.1202248E+001	0.0000000E+000	0.0000000E+000	0.0000000E+000	-7.1202248E+001	0.0000000E+000	0.0000000E+000	0.0000000E+000	-1.8797750E+001	0.0000000E+000	0.0000000E+000	0.0000000E+000	1.8797750E+001	2.9378591E+000	7.1202248E+001	9.574885784984670E-006
1.9954350E+005	3.4119778E+000	1.0475241E+000	3.5691595E+000	-1.7067207E+001	6.070649094542896E+002	4.5964852E-001	-1.2849214E-003	7.6140994E-001	6.5586530E-002	1.000000000000000E+000	38	1.4557678E-002	4.0787412E-003	0	1.790611242332185E-006	-1	-1	-1	0	0	0	0	0	0	-1	-1	-1	0	0	0	0	0	0	2.6783928E-001	8.2230352E-002	2.8017801E-001	1.7067207E+001	6.5586533E+001	2.1362732E+002	2.2346863E+002	-7.2932793E+001	0.0000000E+000	0.0000000E+000	0.0000000E+000	7.2932793E+001	0.0000000E+000	0.0000000E+000	0.0000000E+000	-7.2932793E+001	0.0000000E+000	0.0000000E+000	0.0000000E+000	-1.7067207E+001	0.0000000E+000	0.0000000E+000	0.0000000E+000	1.7067207E+001	3.2571831E+000	7.2932793E+001	1.713209946950277E-007
1.5848613E+005	3.4072723E+000	9.9540210E-001	3.5496943E+000	-1.6285219E+001	6.082119054554205E+002	4.5966262E-001	-1.1936892E-003	1.0088587E+000	7.9331473E-002	1.000000000000000E+000	38	1.4587718E-002	4.1095703E-003	0	-9.421432092553005E-006	-1	-1	-1	0	0	0	0	0	0	-1	-1	-1	0	0	0	0	0	0	2.7041137E-001	7.8998096E-002	2.8171441E-001	1.6285219E+001	7.9331459E+001	2.7155249E+002	2.8290323E+002	-7.3714783E+001	0.0000000E+000	0.0000000E+000	0.0000000E+000	7.3714783E+001	0.0000000E+000	0.0000000E+000	0.0000000E+000	-7.3714783E+001	0.0000000E+000	0.0000000E+000	0.0000000E+000	-1.6285219E+001	0.0000000E+000	0.0000000E+000	0.0000000E+000	1.6285219E+001	3.4230111E+000	7.3714783E+001	-1.121204333488519E-005
1.2590929E+005	3.4148040E+000	9.9714309E-001	3.5574121E+000	-1.6278118E+001	6.093599157232966E+002	4.5966238E-001	-1.8621231E-003	1.2676661E+000	9.9598199E-002	1.000000000000000E+000	38	1.4588132E-002	4.1007707E-003	0	-5.066577730558088E-006	-1	-1	-1	0	0	0	0	0	0	-1	-1	-1	0	0	0	0	0	0	2.6983446E-001	7.8793272E-002	2.8110322E-001	1.6278118E+001	9.9598228E+001	3.4108279E+002	3.5532700E+002	-7.3721878E+001	0.0000000E+000	0.0000000E+000	0.0000000E+000	7.3721878E+001	0.0000000E+000	0.0000000E+000	0.0000000E+000	-7.3721878E+001	0.0000000E+000	0.0000000E+000	0.0000000E+000	-1.6278118E+001	0.0000000E+000	0.0000000E+000	0.0000000E+000	1.6278118E+001	3.4245877E+000	7.3721878E+001	4.354854361994917E-006
1.0000371E+005	3.4227805E+000	1.0453945E+000	3.5788653E+000	-1.6983856E+001	6.105069132711214E+002	4.5967829E-001	-1.7504089E-003	1.5223824E+000	1.2989533E-001	1.000000000000000E+000	38	1.4569859E-002	4.0710834E-003	0	-7.086056227379635E-006	4.4940907E-001	3.1714147E-001	8.8951540E+000	2.0682179E-005	1.7830271E-005	2.1763502E-005	2.1015652E-005	3.5517565E-005	3.1758751E-005	6.3221514E-002	2.3741955E-002	6.9378716E-001	1.7905577E-006	1.2682967E-006	8.5013244E-007	3.2266996E-007	4.9345363E-007	6.9010144E-007	2.6723194E-001	8.1618674E-002	2.7941817E-001	1.6983856E+001	1.2989534E+002	4.2529706E+002	4.4469135E+002	-7.3016144E+001	0.0000000E+000	0.0000000E+000	0.0000000E+000	7.3016144E+001	0.0000000E+000	0.0000000E+000	0.0000000E+000	-7.3016144E+001	0.0000000E+000	0.0000000E+000	0.0000000E+000	-1.6983856E+001	0.0000000E+000	0.0000000E+000	0.0000000E+000	1.6983856E+001	3.2741518E+000	7.3016144E+001	-2.019478496821547E-006
7.9433273E+004	3.4430759E+000	1.1410661E+000	3.6272309E+000	-1.8335657E+001	6.116528991388332E+002	4.5966461E-001	-4.3774510E-004	1.7559288E+000	1.7377131E-001	1.000000000000000E+000	38	1.4571127E-002	4.0171491E-003	0	-6.992290610331111E-006	4.3356502E-001	2.9015705E-001	8.8576164E+000	1.8333179E-005	3.2154741E-005	1.8791467E-005	1.0447947E-005	3.1832835E-005	2.0926971E-005	5.5484947E-002	3.0604539E-002	7.0985925E-001	1.3808240E-006	1.2076448E-006	7.5960742E-007	4.9852594E-007	7.2179324E-007	2.0707084E-007	2.6169547E-001	8.6728215E-002	2.7569240E-001	1.8335657E+001	1.7377129E+002	5.2434106E+002	5.5238574E+002	-7.1664345E+001	0.0000000E+000	0.0000000E+000	0.0000000E+000	7.1664345E+001	0.0000000E+000	0.0000000E+000	0.0000000E+000	-7.1664345E+001	0.0000000E+000	0.0000000E+000	0.0000000E+000	-1.8335657E+001	0.0000000E+000	0.0000000E+000	0.0000000E+000	1.8335657E+001	3.0174203E+000	7.1664345E+001	9.376561704852478E-008
6.3093828E+004	3.4811628E+000	1.2995774E+000	3.7158303E+000	-2.0471460E+001	6.127998975133232E+002	4.5965949E-001	-1.0186763E-003	1.9410249E+000	2.3742346E-001	1.000000000000000E+000	38	1.4607278E-002	3.9310940E-003	0	-2.151453073369339E-006	3.3423528E-001	3.5708439E-001	8.8142767E+000	1.8456620E-005	2.6321672E-005	1.9326128E-005	1.6799619E-005	6.0243569E-006	2.1765996E-005	6.3522227E-002	3.5589561E-002	7.2064686E-001	1.6093171E-006	1.2890258E-006	8.4635298E-007	5.1710077E-007	7.4742121E-007	5.4987214E-007	2.5212306E-001	9.4121836E-002	2.6911885E-001	2.0471460E+001	2.3742346E+002	6.3598352E+002	6.7885559E+002	-6.9528542E+001	0.0000000E+000	0.0000000E+000	0.0000000E+000	6.9528542E+001	0.0000000E+000	0.0000000E+000	0.0000000E+000	-6.9528542E+001	0.0000000E+000	0.0000000E+000	0.0000000E+000	-2.0471460E+001	0.0000000E+000	0.0000000E+000	0.0000000E+000	2.0471460E+001	2.6786883E+000	6.9528542E+001	4.840837536961772E-006
5.0122477E+004	3.5194559E+000	1.4976765E+000	3.8248665E+000	-2.3051792E+001	6.139469135144900E+002	4.5966855E-001	-1.6293869E-003	2.1201646E+000	3.2506713E-001	1.000000000000000E+000	38	1.4626662E-002	3.8240973E-003	0	-8.951854844732831E-007	6.1277610E-001	3.4635037E-001	8.8728342E+000	2.5507334E-005	2.8111011E-005	2.3428371E-005	2.5552750E-005	4.3181502E-005	4.8671136E-005	5.3863134E-002	3.1819575E-002	7.6386899E-001	9.5897565E-007	1.0627648E-006	7.6314001E-007	4.2195998E-007	9.9918736E-007	5.5254122E-007	2.4057083E-001	1.0237300E-001	2.6144704E-001	2.3051792E+001	3.2506708E+002	7.6388959E+002	8.3017822E+002	-6.6948212E+001	0.0000000E+000	0.0000000E+000	0.0000000E+000	6.6948212E+001	0.0000000E+000	0.0000000E+000	0.0000000E+000	-6.6948212E+001	0.0000000E+000	0.0000000E+000	0.0000000E+000	-2.3051792E+001	0.0000000E+000	0.0000000E+000	0.0000000E+000	2.3051792E+001	2.3499441E+000	6.6948212E+001	1.256267588896056E-006
3.9814063E+004	3.5674002E+000	1.7715849E+000	3.9830713E+000	-2.6409174E+001	6.150939074356284E+002	4.5967752E-001	-1.0763981E-003	2.2564292E+000	4.4638485E-001	1.000000000000000E+000	38	1.4644497E-002	3.6766846E-003	0	-4.495412025057400E-006	4.6751001E-001	2.0792638E-001	8.9819088E+000	1.3443488E-005	4.1736905E-005	1.7686238E-005	2.7775981E-005	2.7106666E-005	2.5847368E-005	5.4358207E-002	5.8967371E-002	7.8198147E-001	1.1339398E-006	1.3228263E-006	3.3895569E-007	3.8046883E-007	4.0329886E-007	5.3332872E-007	2.2486180E-001	1.1166725E-001	2.5106254E-001	2.6409174E+001	4.4638477E+002	8.9887494E+002	1.0036113E+003	-6.3590828E+001	0.0000000E+000	0.0000000E+000	0.0000000E+000	6.3590828E+001	0.0000000E+000	0.0000000E+000	0.0000000E+000	-6.3590828E+001	0.0000000E+000	0.0000000E+000	0.0000000E+000	-2.6409174E+001	0.0000000E+000	0.0000000E+000	0.0000000E+000	2.6409174E+001	2.0136774E+000	6.3590828E+001	-3.600226540584117E-006
3.1621143E+004	3.6168079E+000	2.1205137E+000	4.1925979E+000	-3.0382851E+001	6.162409017834289E+002	4.5967177E-001	-2.5827014E-003	2.3735669E+000	6.0717970E-001	1.000000000000000E+000	38	1.4669739E-002	3.4989615E-003	0	-9.544665906306666E-006	5.0743270E-001	2.1022797E-001	9.0131845E+000	3.0972435E-005	3.5093923E-005	1.5498892E-005	3.8438611E-005	2.0023601E-005	2.7527849E-005	6.2364571E-002	7.1149811E-002	8.2255882E-001	5.9216342E-007	1.2803742E-006	8.9612564E-007	3.7316534E-007	9.2732711E-007	4.5276252E-007	2.0575908E-001	1.2063537E-001	2.3851560E-001	3.0382851E+001	6.0717969E+002	1.0356228E+003	1.2004923E+003	-5.9617149E+001	0.0000000E+000	0.0000000E+000	0.0000000E+000	5.9617149E+001	0.0000000E+000	0.0000000E+000	0.0000000E+000	-5.9617149E+001	0.0000000E+000	0.0000000E+000	0.0000000E+000	-3.0382851E+001	0.0000000E+000	0.0000000E+000	0.0000000E+000	3.0382851E+001	1.7056282E+000	5.9617149E+001	-5.049253881249266E-006
2.5116906E+004	3.6885757E+000	2.5734165E+000	4.4975619E+000	-3.4902405E+001	6.173879009312659E+002	4.5965281E-001	-1.3985259E-003	2.4623168E+000	8.0613869E-001	1.000000000000000E+000	38	1.4731118E-002	3.2753563E-003	0	-1.021204260775509E-005	4.4012842E-001	3.4738964E-001	8.6322737E+000	3.2535110E-005	2.2381913E-005	2.6269639E-005	2.1332622E-005	2.0651554E-005	1.8490075E-005	6.4669952E-002	7.1193762E-002	8.8539988E-001	5.9899770E-007	1.1679595E-006	1.1567774E-006	8.0672885E-007	5.1264300E-007	4.4098240E-007	1.8234943E-001	1.2722011E-001	2.2234268E-001	3.4902405E+001	8.0613861E+002	1.1554692E+003	1.4088892E+003	-5.5097595E+001	0.0000000E+000	0.0000000E+000	0.0000000E+000	5.5097595E+001	0.0000000E+000	0.0000000E+000	0.0000000E+000	-5.5097595E+001	0.0000000E+000	0.0000000E+000	0.0000000E+000	-3.4902405E+001	0.0000000E+000	0.0000000E+000	0.0000000E+000	3.4902405E+001	1.4333380E+000	5.5097595E+001	-6.673767014484233E-007
1.9948781E+004	3.7781916E+000	3.1246433E+000	4.9028692E+000	-3.9591457E+001	6.185338990923774E+002	4.5966119E-001	-1.6368788E-003	2.5533085E+000	1.0370593E+000	1.000000000000000E+000	38	1.4763574E-002	3.0112111E-003	0	-7.610695527277939E-006	5.2588665E-001	2.6568305E-001	8.6463194E+000	2.6657815E-005	1.2690590E-005	4.2132044E-005	3.0317315E-005	2.7946882E-005	3.0064426E-005	6.6320948E-002	3.7314661E-002	9.8454386E-001	1.0932717E-006	8.5280845E-007	8.2173142E-007	6.2194624E-007	6.0547200E-007	5.8290800E-007	1.5717496E-001	1.2998697E-001	2.0396221E-001	3.9591457E+001	1.0370593E+003	1.2539700E+003	1.6272469E+003	-5.0408543E+001	0.0000000E+000	0.0000000E+000	0.0000000E+000	5.0408543E+001	0.0000000E+000	0.0000000E+000	0.0000000E+000	-5.0408543E+001	0.0000000E+000	0.0000000E+000	0.0000000E+000	-3.9591457E+001	0.0000000E+000	0.0000000E+000	0.0000000E+000	3.9591457E+001	1.2091593E+000	5.0408539E+001	2.601347080477150E-006
1.5847683E+004	3.8956337E+000	3.8256280E+000	5.4599810E+000	-4.4480534E+001	6.196809190134809E+002	4.5964554E-001	-1.5326131E-003	2.6251349E+000	1.2887683E+000	1.000000000000000E+000	38	1.4784831E-002	2.7078539E-003	0	-2.293625625050886E-006	5.4444033E-001	3.4325546E-001	8.7797785E+000	3.0029574E-005	3.5428344E-005	1.1197996E-005	2.2486120E-005	2.9133449E-005	3.2648120E-005	9.8745003E-002	5.5509876E-002	1.0717781E+000	2.0768850E-006	7.4619646E-007	6.6233298E-007	8.3918616E-007	4.6429867E-007	7.5036161E-007	1.3067602E-001	1.2832773E-001	1.8315083E-001	4.4480534E+001	1.2887682E+003	1.3123517E+003	1.8393451E+003	-4.5519466E+001	0.0000000E+000	0.0000000E+000	0.0000000E+000	4.5519466E+001	0.0000000E+000	0.0000000E+000	0.0000000E+000	-4.5519466E+001	0.0000000E+000	0.0000000E+000	0.0000000E+000	-4.4480534E+001	0.0000000E+000	0.0000000E+000	0.0000000E+000	4.4480534E+001	1.0182991E+000	4.5519470E+001	5.317069902227053E-006
1.2590930E+004	4.0341940E+000	4.6830745E+000	6.1810927E+000	-4.9257030E+001	6.208279122413078E+002	4.5965806E-001	-1.0187241E-003	2.6991765E+000	1.5493977E+000	1.000000000000000E+000	38	1.4772474E-002	2.3899453E-003	0	9.176440562005155E-007	4.6503389E-001	2.2364074E-001	8.5348301E+000	3.6373596E-005	1.6985401E-005	2.2527265E-005	2.7946926E-005	1.9891255E-005	3.3399563E-005	1.2883553E-001	5.1483024E-002	1.2162367E+000	2.5072663E-006	5.0044105E-007	5.7836240E-007	7.9120952E-007	7.7725559E-007	9.6429426E-007	1.0559084E-001	1.2257462E-001	1.6178370E-001	4.9257030E+001	1.5493976E+003	1.3347151E+003	2.0450177E+003	-4.0742970E+001	0.0000000E+000	0.0000000E+000	0.0000000E+000	4.0742970E+001	0.0000000E+000	0.0000000E+000	0.0000000E+000	-4.0742970E+001	0.0000000E+000	0.0000000E+000	0.0000000E+000	-4.9257030E+001	0.0000000E+000	0.0000000E+000	0.0000000E+000	4.9257030E+001	8.6144137E-001	4.0742966E+001	3.211269681251401E-006
