EC-Lab ASCII FILE
Nb header lines : 67                          

Potentio Electrochemical Impedance Spectroscopy

Run on channel : 15 (SN 19485)
User : 
Electrode connection : standard
Potential control : Ewe
Ewe ctrl range : min = -1.00 V, max = 1.00 V
Ewe,I filtering : 50 kHz
Safety Limits :
	Do not start on E overload
Channel : Floating
Acquisition started on : 02/23/2024 14:49:54.683
Loaded Setting File :  NONE
Saved on :
	File : 240223-OCV-EIS-Fe2Fe3_5mM-HCl1M-1225RPM-Ag_AgCl_BLF8-GC-RDE-1minRestVSEoc-3ppf-14p1mVAmplitude_02_PEIS_C15.mpr
	Directory : C:\Data\mathias\RDE-RPM-variation\
	Host : 192.168.0.1
Device : VMP-300 (SN 0826)
Address : USB
EC-Lab for windows v11.52 (software)
Internet server v11.52 (firmware)
Command interpretor v11.52 (firmware)
Electrode material : 
Initial state : 
Electrolyte : 
Comments : 
Cable : special
Reference electrode : SCE Saturated Calomel Electrode (0.241 V)
Electrode surface area : 0.001 cm²
Characteristic mass : 0.001 g
Equivalent Weight : 0.000 g/eq.
Density : 0.000 g/cm3
Volume (V) : 0.001 cm³
Record EIS quality indicators
Cycle Definition : Charge/Discharge alternance
Mode                Single sine         
E (V)               0.0000              
vs.                 Eoc                 
tE (h:m:s)          0:01:0.0000         
record              0                   
dI                  0.000               
unit dI             mA                  
dt (s)              0.000               
fi                  1.000               
unit fi             MHz                 
ff                  100.000             
unit ff             mHz                 
Nd                  10                  
Points              per decade          
spacing             Logarithmic         
Va (mV)             14.1                
pw                  0.10                
Na                  3                   
corr                0                   
E range min (V)     -1.000              
E range max (V)     1.000               
I Range             Auto                
Bandwidth           8                   
nc cycles           0                   
goto Ns'            0                   
nr cycles           0                   
inc. cycle          1                   

freq/Hz	Re(Z)/Ohm	-Im(Z)/Ohm	|Z|/Ohm	Phase(Z)/deg	time/s	<Ewe>/V	<I>/mA	Cs/µF	Cp/µF	cycle number	I Range	|Ewe|/V	|I|/A	Ns	(Q-Qo)/mA.h	THD Ewe/%	NSD Ewe/%	NSR Ewe/%	|Ewe h2|/V	|Ewe h3|/V	|Ewe h4|/V	|Ewe h5|/V	|Ewe h6|/V	|Ewe h7|/V	THD I/%	NSD I/%	NSR I/%	|I h2|/A	|I h3|/A	|I h4|/A	|I h5|/A	|I h6|/A	|I h7|/A	Re(Y)/Ohm-1	Im(Y)/Ohm-1	|Y|/Ohm-1	Phase(Y)/deg	Re(C)/nF	Im(C)/nF	|C|/nF	Phase(C)/deg	Re(M)	Im(M)	|M|	Phase(M)/deg	Re(Permittivity)	Im(Permittivity)	|Permittivity|	Phase(Permittivity)/deg	Re(Resistivity)/Ohm.cm	Im(Resistivity)/Ohm.cm	|Resistivity|/Ohm.cm	Phase(Resistivity)/deg	Re(Conductivity)/mS/cm	Im(Conductivity)/mS/cm	|Conductivity|/mS/cm	Phase(Conductivity)/deg	Tan(Delta)	Loss Angle(Delta)/deg	dq/mA.h	
1.0000186E+006	3.5399051E+000	4.0794516E+000	5.4011898E+000	-4.9050503E+001	1.197644891719829E+002	4.5961058E-001	-1.1384167E-002	3.9013084E-002	2.2255378E-002	1.000000000000000E+000	38	1.1146001E-002	2.0636194E-003	0	-3.460537461486335E-006	-1	-1	-1	0	0	0	0	0	0	-1	-1	-1	0	0	0	0	0	0	1.2134244E-001	1.3983727E-001	1.8514439E-001	4.9050503E+001	2.2255377E+001	1.9311890E+001	2.9466097E+001	-4.0949497E+001	0.0000000E+000	0.0000000E+000	0.0000000E+000	4.0949497E+001	0.0000000E+000	0.0000000E+000	0.0000000E+000	-4.0949497E+001	0.0000000E+000	0.0000000E+000	0.0000000E+000	-4.9050503E+001	0.0000000E+000	0.0000000E+000	0.0000000E+000	4.9050503E+001	8.6774045E-001	4.0949493E+001	-3.460537461486335E-006
7.9433269E+005	3.5932999E+000	3.1957242E+000	4.8087897E+000	-4.1648499E+001	1.207754852199723E+002	4.5959976E-001	-1.6610810E-003	6.2697239E-002	2.7689520E-002	1.000000000000000E+000	38	1.3937431E-002	2.8983243E-003	0	-6.704593543532408E-006	-1	-1	-1	0	0	0	0	0	0	-1	-1	-1	0	0	0	0	0	0	1.5538958E-001	1.3819672E-001	2.0795253E-001	4.1648499E+001	2.7689518E+001	3.1134335E+001	4.1666008E+001	-4.8351501E+001	0.0000000E+000	0.0000000E+000	0.0000000E+000	4.8351501E+001	0.0000000E+000	0.0000000E+000	0.0000000E+000	-4.8351501E+001	0.0000000E+000	0.0000000E+000	0.0000000E+000	-4.1648499E+001	0.0000000E+000	0.0000000E+000	0.0000000E+000	4.1648499E+001	1.1244086E+000	4.8351501E+001	-3.244056082046073E-006
6.3095681E+005	3.5727501E+000	2.5210450E+000	4.3726664E+000	-3.5208000E+001	1.219234985012008E+002	4.5960087E-001	-2.5119553E-003	1.0005525E-001	3.3258941E-002	1.000000000000000E+000	38	1.4467762E-002	3.3086820E-003	0	-1.153176295551627E-005	-1	-1	-1	0	0	0	0	0	0	-1	-1	-1	0	0	0	0	0	0	1.8685724E-001	1.3185236E-001	2.2869341E-001	3.5208000E+001	3.3258942E+001	4.7133583E+001	5.7686497E+001	-5.4792000E+001	0.0000000E+000	0.0000000E+000	0.0000000E+000	5.4792000E+001	0.0000000E+000	0.0000000E+000	0.0000000E+000	-5.4792000E+001	0.0000000E+000	0.0000000E+000	0.0000000E+000	-3.5208000E+001	0.0000000E+000	0.0000000E+000	0.0000000E+000	3.5208000E+001	1.4171703E+000	5.4792000E+001	-4.827169411983859E-006
5.0120622E+005	3.5304468E+000	2.0092654E+000	4.0621672E+000	-2.9645285E+001	1.230714768490434E+002	4.5963812E-001	-1.9645360E-003	1.5803976E-001	3.8665660E-002	1.000000000000000E+000	38	1.4557135E-002	3.5835886E-003	0	-1.147486276553375E-005	-1	-1	-1	0	0	0	0	0	0	-1	-1	-1	0	0	0	0	0	0	2.1395087E-001	1.2176479E-001	2.4617401E-001	2.9645285E+001	3.8665661E+001	6.7938789E+001	7.8171043E+001	-6.0354713E+001	0.0000000E+000	0.0000000E+000	0.0000000E+000	6.0354713E+001	0.0000000E+000	0.0000000E+000	0.0000000E+000	-6.0354713E+001	0.0000000E+000	0.0000000E+000	0.0000000E+000	-2.9645285E+001	0.0000000E+000	0.0000000E+000	0.0000000E+000	2.9645285E+001	1.7570833E+000	6.0354713E+001	5.690018998252009E-008
3.9810347E+005	3.4944270E+000	1.6210897E+000	3.8521359E+000	-2.4886923E+001	1.242184965301567E+002	4.5962664E-001	-3.0481771E-003	2.4661365E-001	4.3674510E-002	1.000000000000000E+000	38	1.4563792E-002	3.7807059E-003	0	-8.501373363361280E-006	-1	-1	-1	0	0	0	0	0	0	-1	-1	-1	0	0	0	0	0	0	2.3549014E-001	1.0924556E-001	2.5959623E-001	2.4886923E+001	4.3674511E+001	9.4144936E+001	1.0378214E+002	-6.5113075E+001	0.0000000E+000	0.0000000E+000	0.0000000E+000	6.5113075E+001	0.0000000E+000	0.0000000E+000	0.0000000E+000	-6.5113075E+001	0.0000000E+000	0.0000000E+000	0.0000000E+000	-2.4886923E+001	0.0000000E+000	0.0000000E+000	0.0000000E+000	2.4886923E+001	2.1556036E+000	6.5113075E+001	2.973489402172466E-006
3.1622997E+005	3.4505601E+000	1.3488826E+000	3.7048414E+000	-2.1351374E+001	1.253654900246329E+002	4.5960328E-001	-2.4430521E-003	3.7311524E-001	4.9459759E-002	1.000000000000000E+000	38	1.4555802E-002	3.9288597E-003	0	-1.714815885344675E-005	-1	-1	-1	0	0	0	0	0	0	-1	-1	-1	0	0	0	0	0	0	2.5139138E-001	9.8273166E-002	2.6991710E-001	2.1351374E+001	4.9459759E+001	1.2652241E+002	1.3584619E+002	-6.8648628E+001	0.0000000E+000	0.0000000E+000	0.0000000E+000	6.8648628E+001	0.0000000E+000	0.0000000E+000	0.0000000E+000	-6.8648628E+001	0.0000000E+000	0.0000000E+000	0.0000000E+000	-2.1351374E+001	0.0000000E+000	0.0000000E+000	0.0000000E+000	2.1351374E+001	2.5580878E+000	6.8648628E+001	-8.646785490085473E-006
2.5118764E+005	3.4298284E+000	1.1669145E+000	3.6229012E+000	-1.8789604E+001	1.265124829324923E+002	4.5960534E-001	-2.2810537E-003	5.4297876E-001	5.6331057E-002	1.000000000000000E+000	38	1.4580046E-002	4.0244116E-003	0	-2.611977157181698E-005	-1	-1	-1	0	0	0	0	0	0	-1	-1	-1	0	0	0	0	0	0	2.6131204E-001	8.8904969E-002	2.7602187E-001	1.8789604E+001	5.6331062E+001	1.6556987E+002	1.7489017E+002	-7.1210396E+001	0.0000000E+000	0.0000000E+000	0.0000000E+000	7.1210396E+001	0.0000000E+000	0.0000000E+000	0.0000000E+000	-7.1210396E+001	0.0000000E+000	0.0000000E+000	0.0000000E+000	-1.8789604E+001	0.0000000E+000	0.0000000E+000	0.0000000E+000	1.8789604E+001	2.9392285E+000	7.1210396E+001	-8.971612718370228E-006
1.9954350E+005	3.4188652E+000	1.0506654E+000	3.5766656E+000	-1.7082930E+001	1.276595012803009E+002	4.5959264E-001	-1.9012259E-003	7.5913352E-001	6.5507390E-002	1.000000000000000E+000	38	1.4599572E-002	4.0818946E-003	0	-2.827190741273160E-005	-1	-1	-1	0	0	0	0	0	0	-1	-1	-1	0	0	0	0	0	0	2.6725465E-001	8.2131118E-002	2.7959001E-001	1.7082930E+001	6.5507401E+001	2.1316106E+002	2.2299968E+002	-7.2917068E+001	0.0000000E+000	0.0000000E+000	0.0000000E+000	7.2917068E+001	0.0000000E+000	0.0000000E+000	0.0000000E+000	-7.2917068E+001	0.0000000E+000	0.0000000E+000	0.0000000E+000	-1.7082930E+001	0.0000000E+000	0.0000000E+000	0.0000000E+000	1.7082930E+001	3.2539999E+000	7.2917068E+001	-2.152135840914623E-006
1.5848613E+005	3.4094760E+000	1.0007465E+000	3.5533111E+000	-1.6357973E+001	1.288064974147856E+002	4.5962739E-001	-1.8751591E-003	1.0034710E+000	7.9595126E-002	1.000000000000000E+000	38	1.4586911E-002	4.1051600E-003	0	-2.413193333313231E-005	-1	-1	-1	0	0	0	0	0	0	-1	-1	-1	0	0	0	0	0	0	2.7003568E-001	7.9260640E-002	2.8142765E-001	1.6357973E+001	7.9595108E+001	2.7117523E+002	2.8261526E+002	-7.3642029E+001	0.0000000E+000	0.0000000E+000	0.0000000E+000	7.3642029E+001	0.0000000E+000	0.0000000E+000	0.0000000E+000	-7.3642029E+001	0.0000000E+000	0.0000000E+000	0.0000000E+000	-1.6357973E+001	0.0000000E+000	0.0000000E+000	0.0000000E+000	1.6357973E+001	3.4069328E+000	7.3642029E+001	4.139974079599291E-006
1.2590929E+005	3.4140401E+000	9.9123144E-001	3.5550261E+000	-1.6190111E+001	1.299544933359866E+002	4.5959893E-001	-1.7019969E-003	1.2752265E+000	9.9140674E-002	1.000000000000000E+000	38	1.4544781E-002	4.0913289E-003	0	-2.702648237696849E-005	-1	-1	-1	0	0	0	0	0	0	-1	-1	-1	0	0	0	0	0	0	2.7013639E-001	7.8431316E-002	2.8129190E-001	1.6190111E+001	9.9140663E+001	3.4146442E+002	3.5556549E+002	-7.3809891E+001	0.0000000E+000	0.0000000E+000	0.0000000E+000	7.3809891E+001	0.0000000E+000	0.0000000E+000	0.0000000E+000	-7.3809891E+001	0.0000000E+000	0.0000000E+000	0.0000000E+000	-1.6190111E+001	0.0000000E+000	0.0000000E+000	0.0000000E+000	1.6190111E+001	3.4442410E+000	7.3809891E+001	-2.894549043836176E-006
1.0000371E+005	3.4261737E+000	1.0445875E+000	3.5818751E+000	-1.6955654E+001	1.311024932571599E+002	4.5960778E-001	-1.8677084E-003	1.5235586E+000	1.2957701E-001	1.000000000000000E+000	38	1.4563221E-002	4.0658093E-003	0	-1.876590566278901E-005	5.1990557E-001	3.6068252E-001	8.9681826E+000	2.9862696E-005	3.1607131E-005	1.9447827E-005	2.3002407E-005	2.5212206E-005	4.2324271E-005	6.7055963E-002	2.3348749E-002	7.0167053E-001	2.3208199E-006	8.2813079E-007	7.4780866E-007	4.6300318E-007	4.7726894E-007	4.5974238E-007	2.6704749E-001	8.1418656E-002	2.7918339E-001	1.6955654E+001	1.2957703E+002	4.2500351E+002	4.4431766E+002	-7.3044342E+001	0.0000000E+000	0.0000000E+000	0.0000000E+000	7.3044342E+001	0.0000000E+000	0.0000000E+000	0.0000000E+000	-7.3044342E+001	0.0000000E+000	0.0000000E+000	0.0000000E+000	-1.6955654E+001	0.0000000E+000	0.0000000E+000	0.0000000E+000	1.6955654E+001	3.2799299E+000	7.3044342E+001	8.260576714179480E-006
7.9433273E+004	3.4518192E+000	1.1414634E+000	3.6356559E+000	-1.8298254E+001	1.322494887249923E+002	4.5962086E-001	-1.6200757E-003	1.7553176E+000	1.7302710E-001	1.000000000000000E+000	38	1.4577959E-002	4.0097190E-003	0	-1.961707900462271E-005	4.8450962E-001	2.1682867E-001	8.9380074E+000	3.2047388E-005	2.6297173E-005	3.9021164E-005	2.4365676E-005	1.6805892E-005	2.6025444E-005	6.8451583E-002	2.2723878E-002	7.1818006E-001	1.7073882E-006	1.4291167E-006	8.4784887E-007	6.2132204E-007	4.1344185E-007	6.1020523E-007	2.6114547E-001	8.6356774E-002	2.7505353E-001	1.8298254E+001	1.7302711E+002	5.2323907E+002	5.5110571E+002	-7.1701744E+001	0.0000000E+000	0.0000000E+000	0.0000000E+000	7.1701744E+001	0.0000000E+000	0.0000000E+000	0.0000000E+000	-7.1701744E+001	0.0000000E+000	0.0000000E+000	0.0000000E+000	-1.8298254E+001	0.0000000E+000	0.0000000E+000	0.0000000E+000	1.8298254E+001	3.0240297E+000	7.1701744E+001	-8.511733418337008E-007
6.3093828E+004	3.4800327E+000	1.2854959E+000	3.7098689E+000	-2.0273821E+001	1.333965013661218E+002	4.5960736E-001	-2.1563254E-003	1.9622872E+000	2.3560625E-001	1.000000000000000E+000	38	1.4548062E-002	3.9214492E-003	0	-1.261339689927020E-005	4.4172737E-001	2.4765182E-001	8.8595247E+000	2.5980275E-005	3.1269810E-005	1.6222066E-005	2.5247258E-005	2.9335890E-005	1.7121609E-005	4.9919605E-002	3.8621165E-002	7.3175669E-001	1.0044675E-006	1.0502868E-006	5.4066834E-007	6.1217577E-007	5.1865925E-007	3.8776443E-007	2.5285190E-001	9.3401439E-002	2.6955131E-001	2.0273821E+001	2.3560623E+002	6.3782196E+002	6.7994641E+002	-6.9726181E+001	0.0000000E+000	0.0000000E+000	0.0000000E+000	6.9726181E+001	0.0000000E+000	0.0000000E+000	0.0000000E+000	-6.9726181E+001	0.0000000E+000	0.0000000E+000	0.0000000E+000	-2.0273821E+001	0.0000000E+000	0.0000000E+000	0.0000000E+000	2.0273821E+001	2.7071519E+000	6.9726181E+001	7.003682105352507E-006
5.0122477E+004	3.5212207E+000	1.4940811E+000	3.8250847E+000	-2.2991888E+001	1.345434864072740E+002	4.5958501E-001	-2.1451388E-003	2.1252666E+000	3.2424977E-001	1.000000000000000E+000	38	1.4647458E-002	3.8293160E-003	0	-1.685176770399428E-005	3.6070004E-001	3.4907976E-001	8.9231424E+000	1.5437028E-005	2.3245253E-005	2.1568005E-005	1.2197414E-005	2.4080384E-005	1.7177557E-005	4.6536621E-002	3.5264056E-002	7.3596394E-001	5.4344844E-007	1.1827024E-006	3.7579650E-007	5.7092268E-007	8.2650337E-007	4.4168408E-007	2.4066399E-001	1.0211559E-001	2.6143211E-001	2.2991888E+001	3.2424982E+002	7.6418536E+002	8.3013086E+002	-6.7008110E+001	0.0000000E+000	0.0000000E+000	0.0000000E+000	6.7008110E+001	0.0000000E+000	0.0000000E+000	0.0000000E+000	-6.7008110E+001	0.0000000E+000	0.0000000E+000	0.0000000E+000	-2.2991888E+001	0.0000000E+000	0.0000000E+000	0.0000000E+000	2.2991888E+001	2.3567801E+000	6.7008110E+001	-4.238370804724076E-006
3.9814063E+004	3.5580134E+000	1.7596925E+000	3.9693799E+000	-2.6315695E+001	1.356904783283971E+002	4.5960689E-001	-2.0297086E-003	2.2716784E+000	4.4645235E-001	1.000000000000000E+000	38	1.4623415E-002	3.6840553E-003	0	-1.893724811652727E-005	4.9986663E-001	3.4847754E-001	8.8588772E+000	3.6319158E-005	2.0558306E-005	2.8949149E-005	2.4992589E-005	3.0058623E-005	2.9478892E-005	6.1977196E-002	5.7081580E-002	7.8972232E-001	8.7444101E-007	9.8379542E-007	6.6661761E-007	6.4255164E-007	9.0586929E-007	1.1916841E-006	2.2581990E-001	1.1168413E-001	2.5192851E-001	2.6315695E+001	4.4645236E+002	9.0270502E+002	1.0070730E+003	-6.3684303E+001	0.0000000E+000	0.0000000E+000	0.0000000E+000	6.3684303E+001	0.0000000E+000	0.0000000E+000	0.0000000E+000	-6.3684303E+001	0.0000000E+000	0.0000000E+000	0.0000000E+000	-2.6315695E+001	0.0000000E+000	0.0000000E+000	0.0000000E+000	2.6315695E+001	2.0219517E+000	6.3684303E+001	-2.085480412532992E-006
3.1621143E+004	3.6180565E+000	2.1079557E+000	4.1873393E+000	-3.0225975E+001	1.368374971829035E+002	4.5962012E-001	-1.7429708E-003	2.3877072E+000	6.0510081E-001	1.000000000000000E+000	38	1.4653120E-002	3.4993871E-003	0	-2.180990528896089E-005	5.0343758E-001	3.5610458E-001	8.5876484E+000	3.1626332E-005	3.0467299E-005	3.4993238E-005	1.9019799E-005	2.5165207E-005	2.4956085E-005	5.5461753E-002	4.8559096E-002	8.2224351E-001	4.3207027E-007	1.3227083E-006	6.8667083E-007	8.6551228E-007	3.3836491E-007	5.2241614E-007	2.0634742E-001	1.2022233E-001	2.3881513E-001	3.0225975E+001	6.0510077E+002	1.0385839E+003	1.2019998E+003	-5.9774025E+001	0.0000000E+000	0.0000000E+000	0.0000000E+000	5.9774025E+001	0.0000000E+000	0.0000000E+000	0.0000000E+000	-5.9774025E+001	0.0000000E+000	0.0000000E+000	0.0000000E+000	-3.0225975E+001	0.0000000E+000	0.0000000E+000	0.0000000E+000	3.0225975E+001	1.7163817E+000	5.9774025E+001	-2.872657172433617E-006
2.5116906E+004	3.6908193E+000	2.5547941E+000	4.4887772E+000	-3.4691078E+001	1.379854809974349E+002	4.5961791E-001	-2.2866644E-003	2.4802651E+000	8.0344069E-001	1.000000000000000E+000	38	1.4743943E-002	3.2846236E-003	0	-2.180728702351917E-005	4.8271409E-001	2.5081751E-001	8.8590851E+000	8.8890547E-006	3.9887203E-005	3.9577753E-005	2.0388101E-005	1.7340226E-005	2.2648586E-005	5.3251546E-002	4.2639222E-002	8.7091994E-001	4.7561684E-007	5.7135605E-007	8.7793563E-007	7.3413025E-007	6.5782700E-007	5.4419206E-007	1.8317521E-001	1.2679434E-001	2.2277783E-001	3.4691078E+001	8.0344061E+002	1.1607018E+003	1.4116464E+003	-5.5308922E+001	0.0000000E+000	0.0000000E+000	0.0000000E+000	5.5308922E+001	0.0000000E+000	0.0000000E+000	0.0000000E+000	-5.5308922E+001	0.0000000E+000	0.0000000E+000	0.0000000E+000	-3.4691078E+001	0.0000000E+000	0.0000000E+000	0.0000000E+000	3.4691078E+001	1.4446641E+000	5.5308922E+001	2.618265441722877E-009
1.9948781E+004	3.7771528E+000	3.1126683E+000	4.8944445E+000	-3.9491184E+001	1.391334857452457E+002	4.5962986E-001	-2.4244769E-003	2.5631318E+000	1.0366443E+000	1.000000000000000E+000	38	1.4735882E-002	3.0107365E-003	0	-2.274255086917482E-005	3.6503562E-001	2.0863943E-001	8.8693466E+000	1.9356195E-005	2.8517896E-005	1.1198131E-005	2.1111160E-005	2.2483284E-005	1.5489342E-005	8.3123319E-002	3.8140643E-002	9.6886969E-001	1.5270465E-006	7.9831722E-007	7.9738271E-007	1.0018430E-006	8.2072643E-007	6.7329091E-007	1.5767314E-001	1.2993497E-001	2.0431328E-001	3.9491184E+001	1.0366444E+003	1.2579445E+003	1.6300479E+003	-5.0508816E+001	0.0000000E+000	0.0000000E+000	0.0000000E+000	5.0508816E+001	0.0000000E+000	0.0000000E+000	0.0000000E+000	-5.0508816E+001	0.0000000E+000	0.0000000E+000	0.0000000E+000	-3.9491184E+001	0.0000000E+000	0.0000000E+000	0.0000000E+000	3.9491184E+001	1.2134775E+000	5.0508820E+001	-9.352638456556545E-007
1.5847683E+004	3.9025757E+000	3.8031297E+000	5.4492102E+000	-4.4260609E+001	1.402804971597652E+002	4.5958111E-001	-1.6573647E-003	2.6406643E+000	1.2862588E+000	1.000000000000000E+000	38	1.4834533E-002	2.7223274E-003	0	-2.002761675138673E-005	4.8858023E-001	2.9050195E-001	8.8464966E+000	4.2063708E-005	2.0991554E-005	1.7645994E-005	2.9819263E-005	3.3189768E-005	1.8058683E-005	9.8287389E-002	3.4657288E-002	1.0916793E+000	1.8746264E-006	1.0124151E-006	7.7693335E-007	7.6251928E-007	6.9956832E-007	7.1346358E-007	1.3142689E-001	1.2807785E-001	1.8351284E-001	4.4260609E+001	1.2862589E+003	1.3198926E+003	1.8429808E+003	-4.5739391E+001	0.0000000E+000	0.0000000E+000	0.0000000E+000	4.5739391E+001	0.0000000E+000	0.0000000E+000	0.0000000E+000	-4.5739391E+001	0.0000000E+000	0.0000000E+000	0.0000000E+000	-4.4260609E+001	0.0000000E+000	0.0000000E+000	0.0000000E+000	4.4260609E+001	1.0261484E+000	4.5739395E+001	2.714934117788086E-006
1.2590930E+004	4.0349178E+000	4.6556797E+000	6.1608372E+000	-4.9085651E+001	1.414284809209203E+002	4.5961636E-001	-1.1676757E-003	2.7150588E+000	1.5504793E+000	1.000000000000000E+000	38	1.4719616E-002	2.3892233E-003	0	-1.938501105154218E-005	4.2483786E-001	2.4624281E-001	8.8201809E+000	3.1282601E-005	1.3846008E-005	2.5535397E-005	1.9572442E-005	2.4625881E-005	2.0355474E-005	1.2894073E-001	5.1696606E-002	1.2068645E+000	2.6573900E-006	9.3841294E-007	6.1441170E-007	5.1770002E-007	5.7888428E-007	5.8890168E-007	1.0630538E-001	1.2266020E-001	1.6231561E-001	4.9085651E+001	1.5504794E+003	1.3437472E+003	2.0517415E+003	-4.0914349E+001	0.0000000E+000	0.0000000E+000	0.0000000E+000	4.0914349E+001	0.0000000E+000	0.0000000E+000	0.0000000E+000	-4.0914349E+001	0.0000000E+000	0.0000000E+000	0.0000000E+000	-4.9085651E+001	0.0000000E+000	0.0000000E+000	0.0000000E+000	4.9085651E+001	8.6666566E-001	4.0914352E+001	6.426056998445571E-007
