EC-Lab ASCII FILE
Nb header lines : 67                          

Potentio Electrochemical Impedance Spectroscopy

Run on channel : 15 (SN 19485)
User : 
Electrode connection : standard
Potential control : Ewe
Ewe ctrl range : min = -1.00 V, max = 1.00 V
Ewe,I filtering : 50 kHz
Safety Limits :
	Do not start on E overload
Channel : Floating
Acquisition started on : 02/23/2024 15:54:32.363
Loaded Setting File :  NONE
Saved on :
	File : 240223-OCV-EIS-Fe2Fe3_5mM-HCl1M-225RPM-Ag_AgCl_BLF8-GC-RDE-1minRestVSEoc-3ppf-14p1mVAmplitude_06_PEIS_C15.mpr
	Directory : C:\Data\mathias\RDE-RPM-variation\
	Host : 192.168.0.1
Device : VMP-300 (SN 0826)
Address : USB
EC-Lab for windows v11.52 (software)
Internet server v11.52 (firmware)
Command interpretor v11.52 (firmware)
Electrode material : 
Initial state : 
Electrolyte : 
Comments : 
Cable : special
Reference electrode : SCE Saturated Calomel Electrode (0.241 V)
Electrode surface area : 0.001 cm²
Characteristic mass : 0.001 g
Equivalent Weight : 0.000 g/eq.
Density : 0.000 g/cm3
Volume (V) : 0.001 cm³
Record EIS quality indicators
Cycle Definition : Charge/Discharge alternance
Mode                Single sine         
E (V)               0.0000              
vs.                 Eoc                 
tE (h:m:s)          0:01:0.0000         
record              0                   
dI                  0.000               
unit dI             mA                  
dt (s)              0.000               
fi                  1.000               
unit fi             MHz                 
ff                  100.000             
unit ff             mHz                 
Nd                  10                  
Points              per decade          
spacing             Logarithmic         
Va (mV)             14.1                
pw                  0.10                
Na                  3                   
corr                0                   
E range min (V)     -1.000              
E range max (V)     1.000               
I Range             Auto                
Bandwidth           8                   
nc cycles           0                   
goto Ns'            0                   
nr cycles           0                   
inc. cycle          1                   

freq/Hz	Re(Z)/Ohm	-Im(Z)/Ohm	|Z|/Ohm	Phase(Z)/deg	time/s	<Ewe>/V	<I>/mA	Cs/µF	Cp/µF	cycle number	I Range	|Ewe|/V	|I|/A	Ns	(Q-Qo)/mA.h	THD Ewe/%	NSD Ewe/%	NSR Ewe/%	|Ewe h2|/V	|Ewe h3|/V	|Ewe h4|/V	|Ewe h5|/V	|Ewe h6|/V	|Ewe h7|/V	THD I/%	NSD I/%	NSR I/%	|I h2|/A	|I h3|/A	|I h4|/A	|I h5|/A	|I h6|/A	|I h7|/A	Re(Y)/Ohm-1	Im(Y)/Ohm-1	|Y|/Ohm-1	Phase(Y)/deg	Re(C)/nF	Im(C)/nF	|C|/nF	Phase(C)/deg	Re(M)	Im(M)	|M|	Phase(M)/deg	Re(Permittivity)	Im(Permittivity)	|Permittivity|	Phase(Permittivity)/deg	Re(Resistivity)/Ohm.cm	Im(Resistivity)/Ohm.cm	|Resistivity|/Ohm.cm	Phase(Resistivity)/deg	Re(Conductivity)/mS/cm	Im(Conductivity)/mS/cm	|Conductivity|/mS/cm	Phase(Conductivity)/deg	Tan(Delta)	Loss Angle(Delta)/deg	dq/mA.h	
1.0000186E+006	3.5150394E+000	4.0837426E+000	5.3881774E+000	-4.9280117E+001	1.084317123614499E+003	4.5938694E-001	-9.2299096E-003	3.8972091E-002	2.2386523E-002	1.000000000000000E+000	38	1.1133301E-002	2.0662462E-003	0	-4.354437566763307E-006	-1	-1	-1	0	0	0	0	0	0	-1	-1	-1	0	0	0	0	0	0	1.2107275E-001	1.4066130E-001	1.8559152E-001	4.9280117E+001	2.2386526E+001	1.9268970E+001	2.9537260E+001	-4.0719883E+001	0.0000000E+000	0.0000000E+000	0.0000000E+000	4.0719883E+001	0.0000000E+000	0.0000000E+000	0.0000000E+000	-4.0719883E+001	0.0000000E+000	0.0000000E+000	0.0000000E+000	-4.9280117E+001	0.0000000E+000	0.0000000E+000	0.0000000E+000	4.9280117E+001	8.6073971E-001	4.0719879E+001	-4.354437566763307E-006
7.9433269E+005	3.5462713E+000	3.2071514E+000	4.7814078E+000	-4.2125336E+001	1.085328134009163E+003	4.5939022E-001	-3.1490359E-004	6.2473845E-002	2.8107718E-002	1.000000000000000E+000	38	1.3845387E-002	2.8956716E-003	0	-6.344092263115777E-006	-1	-1	-1	0	0	0	0	0	0	-1	-1	-1	0	0	0	0	0	0	1.5511735E-001	1.4028393E-001	2.0914343E-001	4.2125336E+001	2.8107719E+001	3.1079790E+001	4.1904621E+001	-4.7874664E+001	0.0000000E+000	0.0000000E+000	0.0000000E+000	4.7874664E+001	0.0000000E+000	0.0000000E+000	0.0000000E+000	-4.7874664E+001	0.0000000E+000	0.0000000E+000	0.0000000E+000	-4.2125336E+001	0.0000000E+000	0.0000000E+000	0.0000000E+000	4.2125336E+001	1.1057386E+000	4.7874664E+001	-1.989654696352470E-006
6.3095681E+005	3.5386407E+000	2.5247416E+000	4.3469872E+000	-3.5507015E+001	1.086474114010300E+003	4.5936498E-001	-1.9310279E-003	9.9908762E-002	3.3702392E-002	1.000000000000000E+000	38	1.4435302E-002	3.3207599E-003	0	-2.253009487202184E-006	-1	-1	-1	0	0	0	0	0	0	-1	-1	-1	0	0	0	0	0	0	1.8726633E-001	1.3361038E-001	2.3004438E-001	3.5507015E+001	3.3702393E+001	4.7236774E+001	5.8027271E+001	-5.4492985E+001	0.0000000E+000	0.0000000E+000	0.0000000E+000	5.4492985E+001	0.0000000E+000	0.0000000E+000	0.0000000E+000	-5.4492985E+001	0.0000000E+000	0.0000000E+000	0.0000000E+000	-3.5507015E+001	0.0000000E+000	0.0000000E+000	0.0000000E+000	3.5507015E+001	1.4015853E+000	5.4492981E+001	4.091082775913593E-006
5.0120622E+005	3.5093651E+000	2.0115590E+000	4.0449986E+000	-2.9821224E+001	1.087622136091479E+003	4.5939434E-001	-8.6971803E-004	1.5785956E-001	3.9039090E-002	1.000000000000000E+000	38	1.4550555E-002	3.5971720E-003	0	-2.756954572939624E-006	-1	-1	-1	0	0	0	0	0	0	-1	-1	-1	0	0	0	0	0	0	2.1448247E-001	1.2294080E-001	2.4721888E-001	2.9821224E+001	3.9039089E+001	6.8107582E+001	7.8502823E+001	-6.0178776E+001	0.0000000E+000	0.0000000E+000	0.0000000E+000	6.0178776E+001	0.0000000E+000	0.0000000E+000	0.0000000E+000	-6.0178776E+001	0.0000000E+000	0.0000000E+000	0.0000000E+000	-2.9821224E+001	0.0000000E+000	0.0000000E+000	0.0000000E+000	2.9821224E+001	1.7445996E+000	6.0178772E+001	-5.039450857374404E-007
3.9810347E+005	3.4688306E+000	1.6367244E+000	3.8355772E+000	-2.5259695E+001	1.088768115079220E+003	4.5937210E-001	-1.2104495E-003	2.4425791E-001	4.4477284E-002	1.000000000000000E+000	38	1.4561369E-002	3.7963956E-003	0	4.049795862908164E-006	-1	-1	-1	0	0	0	0	0	0	-1	-1	-1	0	0	0	0	0	0	2.3578796E-001	1.1125360E-001	2.6071694E-001	2.5259695E+001	4.4477287E+001	9.4263992E+001	1.0423017E+002	-6.4740303E+001	0.0000000E+000	0.0000000E+000	0.0000000E+000	6.4740303E+001	0.0000000E+000	0.0000000E+000	0.0000000E+000	-6.4740303E+001	0.0000000E+000	0.0000000E+000	0.0000000E+000	-2.5259695E+001	0.0000000E+000	0.0000000E+000	0.0000000E+000	2.5259695E+001	2.1193738E+000	6.4740303E+001	6.806750435847788E-006
3.1622997E+005	3.4371686E+000	1.3613429E+000	3.6969423E+000	-2.1606794E+001	1.089915116227072E+003	4.5936689E-001	-1.4134030E-003	3.6970010E-001	5.0130181E-002	1.000000000000000E+000	38	1.4523569E-002	3.9285356E-003	0	-5.326153783050055E-006	-1	-1	-1	0	0	0	0	0	0	-1	-1	-1	0	0	0	0	0	0	2.5148696E-001	9.9605232E-002	2.7049381E-001	2.1606794E+001	5.0130180E+001	1.2657052E+002	1.3613644E+002	-6.8393204E+001	0.0000000E+000	0.0000000E+000	0.0000000E+000	6.8393204E+001	0.0000000E+000	0.0000000E+000	0.0000000E+000	-6.8393204E+001	0.0000000E+000	0.0000000E+000	0.0000000E+000	-2.1606794E+001	0.0000000E+000	0.0000000E+000	0.0000000E+000	2.1606794E+001	2.5248368E+000	6.8393204E+001	-9.375949645958219E-006
2.5118764E+005	3.4121456E+000	1.1783724E+000	3.6098890E+000	-1.9052172E+001	1.091061138921490E+003	4.5937946E-001	1.5435202E-004	5.3769910E-001	5.7294998E-002	1.000000000000000E+000	38	1.4555052E-002	4.0319944E-003	0	-2.453746146444852E-006	-1	-1	-1	0	0	0	0	0	0	-1	-1	-1	0	0	0	0	0	0	2.6184231E-001	9.0426318E-002	2.7701682E-001	1.9052172E+001	5.7294994E+001	1.6590585E+002	1.7552057E+002	-7.0947830E+001	0.0000000E+000	0.0000000E+000	0.0000000E+000	7.0947830E+001	0.0000000E+000	0.0000000E+000	0.0000000E+000	-7.0947830E+001	0.0000000E+000	0.0000000E+000	0.0000000E+000	-1.9052172E+001	0.0000000E+000	0.0000000E+000	0.0000000E+000	1.9052172E+001	2.8956430E+000	7.0947830E+001	2.872407636605203E-006
1.9954350E+005	3.4053218E+000	1.0779928E+000	3.5718741E+000	-1.7565767E+001	1.092209117669336E+003	4.5935169E-001	-1.2439620E-003	7.3988920E-001	6.7391656E-002	1.000000000000000E+000	38	1.4593997E-002	4.0858095E-003	0	-4.122276748918618E-006	-1	-1	-1	0	0	0	0	0	0	-1	-1	-1	0	0	0	0	0	0	2.6691061E-001	8.4493555E-002	2.7996507E-001	1.7565767E+001	6.7391647E+001	2.1288664E+002	2.2329880E+002	-7.2434235E+001	0.0000000E+000	0.0000000E+000	0.0000000E+000	7.2434235E+001	0.0000000E+000	0.0000000E+000	0.0000000E+000	-7.2434235E+001	0.0000000E+000	0.0000000E+000	0.0000000E+000	-1.7565767E+001	0.0000000E+000	0.0000000E+000	0.0000000E+000	1.7565767E+001	3.1589468E+000	7.2434235E+001	-1.668530602473765E-006
1.5848613E+005	3.3980665E+000	1.0144204E+000	3.5462523E+000	-1.6621874E+001	1.093356119457123E+003	4.5935220E-001	-1.0707986E-003	9.8994470E-001	8.1004210E-002	1.000000000000000E+000	38	1.4590375E-002	4.1143084E-003	0	3.956465594522241E-006	-1	-1	-1	0	0	0	0	0	0	-1	-1	-1	0	0	0	0	0	0	2.7020454E-001	8.0663808E-002	2.8198785E-001	1.6621874E+001	8.1004211E+001	2.7134482E+002	2.8317786E+002	-7.3378128E+001	0.0000000E+000	0.0000000E+000	0.0000000E+000	7.3378128E+001	0.0000000E+000	0.0000000E+000	0.0000000E+000	-7.3378128E+001	0.0000000E+000	0.0000000E+000	0.0000000E+000	-1.6621874E+001	0.0000000E+000	0.0000000E+000	0.0000000E+000	1.6621874E+001	3.3497617E+000	7.3378128E+001	8.078742343440858E-006
1.2590929E+005	3.4005291E+000	1.0111949E+000	3.5476913E+000	-1.6560583E+001	1.094504130151661E+003	4.5937866E-001	-1.1843776E-003	1.2500503E+000	1.0155600E-001	1.000000000000000E+000	38	1.4566988E-002	4.1060471E-003	0	-2.761509501064817E-006	-1	-1	-1	0	0	0	0	0	0	-1	-1	-1	0	0	0	0	0	0	2.7018103E-001	8.0342114E-002	2.8187346E-001	1.6560583E+001	1.0155602E+002	3.4152081E+002	3.5630057E+002	-7.3439415E+001	0.0000000E+000	0.0000000E+000	0.0000000E+000	7.3439415E+001	0.0000000E+000	0.0000000E+000	0.0000000E+000	-7.3439415E+001	0.0000000E+000	0.0000000E+000	0.0000000E+000	-1.6560583E+001	0.0000000E+000	0.0000000E+000	0.0000000E+000	1.6560583E+001	3.3628819E+000	7.3439415E+001	-6.717975095587059E-006
1.0000371E+005	3.4130924E+000	1.0676920E+000	3.5761943E+000	-1.7370857E+001	1.095650125486092E+003	4.5938709E-001	-4.3011809E-005	1.4905893E+000	1.3286415E-001	1.000000000000000E+000	38	1.4534985E-002	4.0643723E-003	0	3.986192274916296E-006	5.6340414E-001	2.1633224E-001	9.0757437E+000	2.5040436E-005	2.6830994E-005	3.1144402E-005	3.5893092E-005	3.4454253E-005	2.3655572E-005	7.3906817E-002	4.9109280E-002	7.0494688E-001	2.2497823E-006	1.0434150E-006	1.0247779E-006	5.0752146E-007	6.8954859E-007	6.0402323E-007	2.6687375E-001	8.3484113E-002	2.7962688E-001	1.7370857E+001	1.3286415E+002	4.2472699E+002	4.4502347E+002	-7.2629143E+001	0.0000000E+000	0.0000000E+000	0.0000000E+000	7.2629143E+001	0.0000000E+000	0.0000000E+000	0.0000000E+000	-7.2629143E+001	0.0000000E+000	0.0000000E+000	0.0000000E+000	-1.7370857E+001	0.0000000E+000	0.0000000E+000	0.0000000E+000	1.7370857E+001	3.1967010E+000	7.2629143E+001	6.747701775981114E-006
7.9433273E+004	3.4413626E+000	1.1653513E+000	3.6333208E+000	-1.8707682E+001	1.096797139940565E+003	4.5937881E-001	-7.6371016E-006	1.7193363E+000	1.7687523E-001	1.000000000000000E+000	38	1.4567907E-002	4.0095295E-003	0	-1.164373434640260E-006	4.8122209E-001	3.5470673E-001	8.9435186E+000	2.5253001E-005	2.6651394E-005	2.6570933E-005	1.3226410E-005	2.9462304E-005	3.5058103E-005	6.3141927E-002	7.4252658E-002	7.1191537E-001	1.5185102E-006	1.5130400E-006	4.9266890E-007	2.9439320E-007	8.5635912E-007	7.2774151E-007	2.6068914E-001	8.8277370E-002	2.7523032E-001	1.8707682E+001	1.7687521E+002	5.2232477E+002	5.5145990E+002	-7.1292320E+001	0.0000000E+000	0.0000000E+000	0.0000000E+000	7.1292320E+001	0.0000000E+000	0.0000000E+000	0.0000000E+000	-7.1292320E+001	0.0000000E+000	0.0000000E+000	0.0000000E+000	-1.8707682E+001	0.0000000E+000	0.0000000E+000	0.0000000E+000	1.8707682E+001	2.9530690E+000	7.1292320E+001	-5.150565709556556E-006
6.3093828E+004	3.4661639E+000	1.3207971E+000	3.7092853E+000	-2.0859564E+001	1.097945130075110E+003	4.5937866E-001	-1.0168162E-003	1.9098408E+000	2.4215245E-001	1.000000000000000E+000	38	1.4611576E-002	3.9391890E-003	0	-8.687422094219882E-006	4.6560624E-001	4.0565363E-001	8.8059864E+000	2.6313290E-005	2.0188341E-005	2.6972099E-005	3.5151832E-005	1.6531449E-005	2.9783339E-005	6.1088584E-002	5.4559525E-002	7.1328151E-001	9.9417741E-007	1.4602273E-006	7.3774532E-007	7.6097007E-007	7.8880447E-007	5.3858463E-007	2.5192347E-001	9.5996551E-002	2.6959372E-001	2.0859564E+001	2.4215248E+002	6.3547998E+002	6.8005341E+002	-6.9140434E+001	0.0000000E+000	0.0000000E+000	0.0000000E+000	6.9140434E+001	0.0000000E+000	0.0000000E+000	0.0000000E+000	-6.9140434E+001	0.0000000E+000	0.0000000E+000	0.0000000E+000	-2.0859564E+001	0.0000000E+000	0.0000000E+000	0.0000000E+000	2.0859564E+001	2.6242971E+000	6.9140434E+001	-7.523048659579621E-006
5.0122477E+004	3.4907484E+000	1.5234104E+000	3.8086879E+000	-2.3577116E+001	1.099092129756245E+003	4.5936573E-001	-3.8561001E-004	2.0843501E+000	3.3346769E-001	1.000000000000000E+000	38	1.4529550E-002	3.8148437E-003	0	-2.434348525764007E-006	4.9195841E-001	3.3328503E-001	8.9294720E+000	3.8322352E-005	3.1327847E-005	1.4514229E-005	2.6231457E-005	1.9944211E-005	2.8048817E-005	6.6778950E-002	4.1916553E-002	7.3948991E-001	6.3523123E-007	1.5613987E-006	5.8447358E-007	1.1834202E-006	1.1726462E-006	4.2525460E-007	2.4063995E-001	1.0501858E-001	2.6255760E-001	2.3577116E+001	3.3346774E+002	7.6410919E+002	8.3370471E+002	-6.6422882E+001	0.0000000E+000	0.0000000E+000	0.0000000E+000	6.6422882E+001	0.0000000E+000	0.0000000E+000	0.0000000E+000	-6.6422882E+001	0.0000000E+000	0.0000000E+000	0.0000000E+000	-2.3577116E+001	0.0000000E+000	0.0000000E+000	0.0000000E+000	2.3577116E+001	2.2914038E+000	6.6422882E+001	6.253073568455875E-006
3.9814063E+004	3.5541232E+000	1.8096527E+000	3.9883122E+000	-2.6983828E+001	1.100239130610731E+003	4.5938689E-001	-7.6917611E-004	2.2089629E+000	4.5477918E-001	1.000000000000000E+000	38	1.4585685E-002	3.6571070E-003	0	-5.000163334266593E-006	4.5986101E-001	3.6996827E-001	9.0088596E+000	2.2941933E-005	1.6126351E-005	1.8539735E-005	3.0641299E-005	1.4157817E-005	4.2993681E-005	5.3756014E-002	1.1140890E-001	7.8372097E-001	6.9776706E-007	1.1233257E-006	6.5600244E-007	6.6433296E-007	6.7186483E-007	6.8339267E-007	2.2343653E-001	1.1376717E-001	2.5073263E-001	2.6983828E+001	4.5477914E+002	8.9317755E+002	1.0022925E+003	-6.3016174E+001	0.0000000E+000	0.0000000E+000	0.0000000E+000	6.3016174E+001	0.0000000E+000	0.0000000E+000	0.0000000E+000	-6.3016174E+001	0.0000000E+000	0.0000000E+000	0.0000000E+000	-2.6983828E+001	0.0000000E+000	0.0000000E+000	0.0000000E+000	2.6983828E+001	1.9639808E+000	6.3016174E+001	-2.565814808502586E-006
3.1621143E+004	3.6166680E+000	2.1717591E+000	4.2186284E+000	-3.0984234E+001	1.101386124958532E+003	4.5939392E-001	-1.0019219E-003	2.3175595E+000	6.1420262E-001	1.000000000000000E+000	38	1.4681347E-002	3.4801231E-003	0	-1.034883406737612E-005	5.1792735E-001	3.4407917E-001	9.0114574E+000	3.0804702E-005	2.4298713E-005	3.1486816E-005	2.6691574E-005	3.0604693E-005	2.2355138E-005	6.4955048E-002	1.0927711E-001	8.1699777E-001	8.1095476E-007	1.6537120E-006	5.4382804E-007	8.2925385E-007	6.9514368E-007	2.3065479E-007	2.0321985E-001	1.2203071E-001	2.3704387E-001	3.0984234E+001	6.1420264E+002	1.0228423E+003	1.1930847E+003	-5.9015766E+001	0.0000000E+000	0.0000000E+000	0.0000000E+000	5.9015766E+001	0.0000000E+000	0.0000000E+000	0.0000000E+000	-5.9015766E+001	0.0000000E+000	0.0000000E+000	0.0000000E+000	-3.0984234E+001	0.0000000E+000	0.0000000E+000	0.0000000E+000	3.0984234E+001	1.6653173E+000	5.9015762E+001	-5.348670733109531E-006
2.5116906E+004	3.6792057E+000	2.6289406E+000	4.5219336E+000	-3.5547333E+001	1.102533135333055E+003	4.5935741E-001	-4.1728953E-004	2.4103117E+000	8.1467879E-001	1.000000000000000E+000	38	1.4749873E-002	3.2618511E-003	0	-9.307971967772270E-006	4.7576615E-001	3.5376856E-001	8.8603487E+000	2.3077395E-005	2.1784486E-005	3.3747339E-005	3.0146315E-005	3.4784927E-005	1.6703594E-005	6.5258399E-002	1.0073283E-001	8.7158883E-001	7.3937491E-007	1.0271862E-006	1.0267038E-006	7.4595818E-007	5.5160490E-007	6.1765024E-007	1.7993088E-001	1.2856786E-001	2.2114433E-001	3.5547333E+001	8.1467871E+002	1.1401439E+003	1.4012957E+003	-5.4452667E+001	0.0000000E+000	0.0000000E+000	0.0000000E+000	5.4452667E+001	0.0000000E+000	0.0000000E+000	0.0000000E+000	-5.4452667E+001	0.0000000E+000	0.0000000E+000	0.0000000E+000	-3.5547333E+001	0.0000000E+000	0.0000000E+000	0.0000000E+000	3.5547333E+001	1.3995012E+000	5.4452667E+001	1.040862099603854E-006
1.9948781E+004	3.7641461E+000	3.2020075E+000	4.9418263E+000	-4.0386475E+001	1.103680127467509E+003	4.5934069E-001	-6.4446789E-004	2.4916177E+000	1.0460469E+000	1.000000000000000E+000	38	1.4723178E-002	2.9792988E-003	0	-7.585706520840883E-006	4.3133664E-001	2.0095229E-001	8.8637419E+000	3.8178976E-005	1.8923492E-005	1.4359833E-005	2.0762209E-005	2.3202103E-005	2.3535264E-005	6.9144107E-002	6.4887829E-002	9.5830095E-001	1.0484771E-006	6.9161138E-007	9.5459825E-007	8.0535580E-007	4.3161003E-007	5.7230932E-007	1.5413153E-001	1.3111350E-001	2.0235434E-001	4.0386475E+001	1.0460469E+003	1.2296890E+003	1.6144191E+003	-4.9613525E+001	0.0000000E+000	0.0000000E+000	0.0000000E+000	4.9613525E+001	0.0000000E+000	0.0000000E+000	0.0000000E+000	-4.9613525E+001	0.0000000E+000	0.0000000E+000	0.0000000E+000	-4.0386475E+001	0.0000000E+000	0.0000000E+000	0.0000000E+000	4.0386475E+001	1.1755582E+000	4.9613525E+001	1.722265446931386E-006
1.5847683E+004	3.8870859E+000	3.9253626E+000	5.5243015E+000	-4.5280716E+001	1.104829126962068E+003	4.5936397E-001	-1.5381970E-003	2.5584362E+000	1.2917527E+000	1.000000000000000E+000	38	1.4870855E-002	2.6918978E-003	0	-1.964686775295478E-006	3.8911900E-001	3.5630429E-001	8.7408962E+000	1.5745525E-005	2.3643059E-005	1.2316049E-005	1.2703779E-005	2.9701352E-005	2.6437912E-005	1.0301697E-001	1.7142361E-001	1.0540363E+000	1.9846693E-006	1.0925753E-006	3.1077278E-007	8.4710808E-007	5.1488820E-007	1.1009440E-006	1.2737066E-001	1.2862489E-001	1.8101835E-001	4.5280716E+001	1.2917528E+003	1.2791567E+003	1.8179294E+003	-4.4719284E+001	0.0000000E+000	0.0000000E+000	0.0000000E+000	4.4719284E+001	0.0000000E+000	0.0000000E+000	0.0000000E+000	-4.4719284E+001	0.0000000E+000	0.0000000E+000	0.0000000E+000	-4.5280716E+001	0.0000000E+000	0.0000000E+000	0.0000000E+000	4.5280716E+001	9.9024886E-001	4.4719284E+001	5.621019745545406E-006
1.2590930E+004	4.0344853E+000	4.8195424E+000	6.2853050E+000	-5.0066975E+001	1.105976127096583E+003	4.5936862E-001	-1.9198995E-003	2.6227479E+000	1.5421103E+000	1.000000000000000E+000	38	1.4718981E-002	2.3418085E-003	0	-2.859939443102727E-006	4.4761327E-001	3.3441821E-001	8.8159018E+000	2.5405956E-005	1.4715519E-005	1.5535390E-005	2.9202638E-005	1.7681668E-005	3.0639450E-005	1.3714853E-001	2.1950942E-001	1.2281606E+000	2.8174093E-006	1.0758487E-006	5.2394381E-007	3.3853954E-007	5.0383227E-007	5.5976432E-007	1.0212579E-001	1.2199810E-001	1.5910126E-001	5.0066975E+001	1.5421101E+003	1.2909153E+003	2.0111106E+003	-3.9933025E+001	0.0000000E+000	0.0000000E+000	0.0000000E+000	3.9933025E+001	0.0000000E+000	0.0000000E+000	0.0000000E+000	-3.9933025E+001	0.0000000E+000	0.0000000E+000	0.0000000E+000	-5.0066975E+001	0.0000000E+000	0.0000000E+000	0.0000000E+000	5.0066975E+001	8.3710963E-001	3.9933029E+001	-8.952526678072496E-007
