EC-Lab ASCII FILE
Nb header lines : 67                          

Potentio Electrochemical Impedance Spectroscopy

Run on channel : 15 (SN 19485)
User : 
Electrode connection : standard
Potential control : Ewe
Ewe ctrl range : min = -1.00 V, max = 1.00 V
Ewe,I filtering : 50 kHz
Safety Limits :
	Do not start on E overload
Channel : Floating
Acquisition started on : 02/23/2024 12:36:41.987
Loaded Setting File :  C:\Data\mathias\RDE-RPM-variation\240222-CV-EIS-Fe2Fe3_5mM-HCl1M-0RPM-Ag_AgCl_BLF8-GC-RDE-DefaultSettings.mps
Saved on :
	File : 240223-OCV-EIS-Fe2Fe3_5mM-HCl1M-2000RPM-Ag_AgCl_BLF8-GC-RDE-AllPreviousVariations_08_PEIS_C15.mpr
	Directory : C:\Data\mathias\RDE-RPM-variation\
	Host : 192.168.0.1
Device : VMP-300 (SN 0826)
Address : USB
EC-Lab for windows v11.52 (software)
Internet server v11.52 (firmware)
Command interpretor v11.52 (firmware)
Electrode material : 
Initial state : 
Electrolyte : 
Comments : 
Cable : special
Reference electrode : SCE Saturated Calomel Electrode (0.241 V)
Electrode surface area : 0.001 cm²
Characteristic mass : 0.001 g
Equivalent Weight : 0.000 g/eq.
Density : 0.000 g/cm3
Volume (V) : 0.001 cm³
Record EIS quality indicators
Cycle Definition : Charge/Discharge alternance
Mode                Single sine         
E (V)               0.0000              
vs.                 Ref                 
tE (h:m:s)          0:05:0.0000         
record              0                   
dI                  0.000               
unit dI             mA                  
dt (s)              0.000               
fi                  1.000               
unit fi             MHz                 
ff                  100.000             
unit ff             mHz                 
Nd                  10                  
Points              per decade          
spacing             Logarithmic         
Va (mV)             14.1                
pw                  0.10                
Na                  5                   
corr                0                   
E range min (V)     -1.000              
E range max (V)     1.000               
I Range             Auto                
Bandwidth           8                   
nc cycles           2                   
goto Ns'            0                   
nr cycles           0                   
inc. cycle          1                   

freq/Hz	Re(Z)/Ohm	-Im(Z)/Ohm	|Z|/Ohm	Phase(Z)/deg	time/s	<Ewe>/V	<I>/mA	Cs/µF	Cp/µF	cycle number	I Range	|Ewe|/V	|I|/A	Ns	(Q-Qo)/mA.h	THD Ewe/%	NSD Ewe/%	NSR Ewe/%	|Ewe h2|/V	|Ewe h3|/V	|Ewe h4|/V	|Ewe h5|/V	|Ewe h6|/V	|Ewe h7|/V	THD I/%	NSD I/%	NSR I/%	|I h2|/A	|I h3|/A	|I h4|/A	|I h5|/A	|I h6|/A	|I h7|/A	Re(Y)/Ohm-1	Im(Y)/Ohm-1	|Y|/Ohm-1	Phase(Y)/deg	Re(C)/nF	Im(C)/nF	|C|/nF	Phase(C)/deg	Re(M)	Im(M)	|M|	Phase(M)/deg	Re(Permittivity)	Im(Permittivity)	|Permittivity|	Phase(Permittivity)/deg	Re(Resistivity)/Ohm.cm	Im(Resistivity)/Ohm.cm	|Resistivity|/Ohm.cm	Phase(Resistivity)/deg	Re(Conductivity)/mS/cm	Im(Conductivity)/mS/cm	|Conductivity|/mS/cm	Phase(Conductivity)/deg	Tan(Delta)	Loss Angle(Delta)/deg	dq/mA.h	
1.0000186E+006	3.5444283E+000	4.0986767E+000	5.4186826E+000	-4.9147606E+001	3.085366985312095E+003	-1.5875025E-004	-5.1110327E-001	3.8830090E-002	2.2216124E-002	1.000000000000000E+000	38	1.1143275E-002	2.0564545E-003	0	-4.279948909479322E-002	-1	-1	-1	0	0	0	0	0	0	-1	-1	-1	0	0	0	0	0	0	1.2071432E-001	1.3959062E-001	1.8454671E-001	4.9147606E+001	2.2216124E+001	1.9211924E+001	2.9370974E+001	-4.0852394E+001	0.0000000E+000	0.0000000E+000	0.0000000E+000	4.0852394E+001	0.0000000E+000	0.0000000E+000	0.0000000E+000	-4.0852394E+001	0.0000000E+000	0.0000000E+000	0.0000000E+000	-4.9147606E+001	0.0000000E+000	0.0000000E+000	0.0000000E+000	4.9147606E+001	8.6477381E-001	4.0852386E+001	-4.279948909479322E-002
7.9433269E+005	3.5853715E+000	3.2221060E+000	4.8204622E+000	-4.1945438E+001	3.087044989125119E+003	-1.4942986E-004	-5.0942189E-001	6.2183890E-002	2.7783064E-002	1.000000000000000E+000	38	1.3903293E-002	2.8842241E-003	0	-4.303616987121085E-002	-1	-1	-1	0	0	0	0	0	0	-1	-1	-1	0	0	0	0	0	0	1.5429676E-001	1.3866359E-001	2.0744899E-001	4.1945438E+001	2.7783064E+001	3.0915373E+001	4.1565117E+001	-4.8054562E+001	0.0000000E+000	0.0000000E+000	0.0000000E+000	4.8054562E+001	0.0000000E+000	0.0000000E+000	0.0000000E+000	-4.8054562E+001	0.0000000E+000	0.0000000E+000	0.0000000E+000	-4.1945438E+001	0.0000000E+000	0.0000000E+000	0.0000000E+000	4.1945438E+001	1.1127416E+000	4.8054565E+001	-2.366807764176207E-004
6.3095681E+005	3.5724955E+000	2.5251319E+000	4.3748159E+000	-3.5253654E+001	3.088857994891252E+003	-1.6210553E-004	-5.1129127E-001	9.9893309E-002	3.3280130E-002	1.000000000000000E+000	38	1.4444272E-002	3.3016868E-003	0	-4.329946638855089E-002	-1	-1	-1	0	0	0	0	0	0	-1	-1	-1	0	0	0	0	0	0	1.8666036E-001	1.3193636E-001	2.2858104E-001	3.5253654E+001	3.3280128E+001	4.7083920E+001	5.7658150E+001	-5.4746346E+001	0.0000000E+000	0.0000000E+000	0.0000000E+000	5.4746346E+001	0.0000000E+000	0.0000000E+000	0.0000000E+000	-5.4746346E+001	0.0000000E+000	0.0000000E+000	0.0000000E+000	-3.5253654E+001	0.0000000E+000	0.0000000E+000	0.0000000E+000	3.5253654E+001	1.4147757E+000	5.4746346E+001	-2.632965173400489E-004
5.0120622E+005	3.5360236E+000	2.0030506E+000	4.0639482E+000	-2.9530245E+001	3.090672992550783E+003	-1.5375449E-004	-5.1165622E-001	1.5853012E-001	3.8512286E-002	1.000000000000000E+000	38	1.4509861E-002	3.5703855E-003	0	-4.356284144435658E-002	-1	-1	-1	0	0	0	0	0	0	-1	-1	-1	0	0	0	0	0	0	2.1410108E-001	1.2128180E-001	2.4606614E-001	2.9530245E+001	3.8512283E+001	6.7986473E+001	7.8136780E+001	-6.0469757E+001	0.0000000E+000	0.0000000E+000	0.0000000E+000	6.0469757E+001	0.0000000E+000	0.0000000E+000	0.0000000E+000	-6.0469757E+001	0.0000000E+000	0.0000000E+000	0.0000000E+000	-2.9530245E+001	0.0000000E+000	0.0000000E+000	0.0000000E+000	2.9530245E+001	1.7653192E+000	6.0469757E+001	-2.633750558056827E-004
3.9810347E+005	3.4922972E+000	1.6149337E+000	3.8476162E+000	-2.4817114E+001	3.092485991756912E+003	-1.8337458E-004	-5.1228738E-001	2.4755374E-001	4.3610934E-002	1.000000000000000E+000	38	1.4543760E-002	3.7799403E-003	0	-4.382009062896995E-002	-1	-1	-1	0	0	0	0	0	0	-1	-1	-1	0	0	0	0	0	0	2.3589988E-001	1.0908657E-001	2.5990120E-001	2.4817114E+001	4.3610939E+001	9.4308723E+001	1.0390404E+002	-6.5182884E+001	0.0000000E+000	0.0000000E+000	0.0000000E+000	6.5182884E+001	0.0000000E+000	0.0000000E+000	0.0000000E+000	-6.5182884E+001	0.0000000E+000	0.0000000E+000	0.0000000E+000	-2.4817114E+001	0.0000000E+000	0.0000000E+000	0.0000000E+000	2.4817114E+001	2.1625018E+000	6.5182884E+001	-2.572491846133743E-004
3.1622997E+005	3.4614396E+000	1.3315164E+000	3.7087059E+000	-2.1040300E+001	3.094298983229688E+003	-1.4536617E-004	-5.1180702E-001	3.7798154E-001	4.8721295E-002	1.000000000000000E+000	38	1.4544517E-002	3.9217230E-003	0	-4.406644328195591E-002	-1	-1	-1	0	0	0	0	0	0	-1	-1	-1	0	0	0	0	0	0	2.5165871E-001	9.6805871E-002	2.6963583E-001	2.1040300E+001	4.8721287E+001	1.2665695E+002	1.3570464E+002	-6.8959702E+001	0.0000000E+000	0.0000000E+000	0.0000000E+000	6.8959702E+001	0.0000000E+000	0.0000000E+000	0.0000000E+000	-6.8959702E+001	0.0000000E+000	0.0000000E+000	0.0000000E+000	-2.1040300E+001	0.0000000E+000	0.0000000E+000	0.0000000E+000	2.1040300E+001	2.5996222E+000	6.8959702E+001	-2.463526529859622E-004
2.5118764E+005	3.4378502E+000	1.1415155E+000	3.6224124E+000	-1.8368406E+001	3.096111992862439E+003	-1.5793000E-004	-5.0915754E-001	5.5506015E-001	5.5119831E-002	1.000000000000000E+000	38	1.4579008E-002	4.0246681E-003	0	-4.431898845244220E-002	-1	-1	-1	0	0	0	0	0	0	-1	-1	-1	0	0	0	0	0	0	2.6199389E-001	8.6993344E-002	2.7605912E-001	1.8368406E+001	5.5119843E+001	1.6600191E+002	1.7491377E+002	-7.1631592E+001	0.0000000E+000	0.0000000E+000	0.0000000E+000	7.1631592E+001	0.0000000E+000	0.0000000E+000	0.0000000E+000	-7.1631592E+001	0.0000000E+000	0.0000000E+000	0.0000000E+000	-1.8368406E+001	0.0000000E+000	0.0000000E+000	0.0000000E+000	1.8368406E+001	3.0116544E+000	7.1631592E+001	-2.525451704862847E-004
1.9954350E+005	3.4239106E+000	1.0152922E+000	3.5712719E+000	-1.6516670E+001	3.097924997241891E+003	-1.6417465E-004	-5.1063401E-001	7.8558201E-001	6.3493282E-002	1.000000000000000E+000	38	1.4543243E-002	4.0722867E-003	0	-4.458023006613346E-002	-1	-1	-1	0	0	0	0	0	0	-1	-1	-1	0	0	0	0	0	0	2.6845816E-001	7.9605892E-002	2.8001228E-001	1.6516670E+001	6.3493286E+001	2.1412096E+002	2.2333647E+002	-7.3483330E+001	0.0000000E+000	0.0000000E+000	0.0000000E+000	7.3483330E+001	0.0000000E+000	0.0000000E+000	0.0000000E+000	-7.3483330E+001	0.0000000E+000	0.0000000E+000	0.0000000E+000	-1.6516670E+001	0.0000000E+000	0.0000000E+000	0.0000000E+000	1.6516670E+001	3.3723402E+000	7.3483330E+001	-2.612416136912599E-004
1.5848613E+005	3.4184198E+000	9.4465894E-001	3.5465441E+000	-1.5447804E+001	3.099737994501324E+003	-1.3082642E-004	-5.1136386E-001	1.0630504E+000	7.5421162E-002	1.000000000000000E+000	38	1.4549696E-002	4.1024997E-003	0	-4.484467139122956E-002	-1	-1	-1	0	0	0	0	0	0	-1	-1	-1	0	0	0	0	0	0	2.7177823E-001	7.5104214E-002	2.8196463E-001	1.5447804E+001	7.5421165E+001	2.7292514E+002	2.8315451E+002	-7.4552193E+001	0.0000000E+000	0.0000000E+000	0.0000000E+000	7.4552193E+001	0.0000000E+000	0.0000000E+000	0.0000000E+000	-7.4552193E+001	0.0000000E+000	0.0000000E+000	0.0000000E+000	-1.5447804E+001	0.0000000E+000	0.0000000E+000	0.0000000E+000	1.5447804E+001	3.6186814E+000	7.4552193E+001	-2.644413250961000E-004
1.2590929E+005	3.4220307E+000	9.3243676E-001	3.5467918E+000	-1.5241960E+001	3.101551989280866E+003	-1.6639289E-004	-5.1191872E-001	1.3556358E+000	9.3693696E-002	1.000000000000000E+000	38	1.4570579E-002	4.1081011E-003	0	-4.510320316464102E-002	-1	-1	-1	0	0	0	0	0	0	-1	-1	-1	0	0	0	0	0	0	2.7202731E-001	7.4122146E-002	2.8194493E-001	1.5241960E+001	9.3693680E+001	3.4385461E+002	3.5639093E+002	-7.4758041E+001	0.0000000E+000	0.0000000E+000	0.0000000E+000	7.4758041E+001	0.0000000E+000	0.0000000E+000	0.0000000E+000	-7.4758041E+001	0.0000000E+000	0.0000000E+000	0.0000000E+000	-1.5241960E+001	0.0000000E+000	0.0000000E+000	0.0000000E+000	1.5241960E+001	3.6699870E+000	7.4758041E+001	-2.585317734114662E-004
1.0000371E+005	3.4328203E+000	9.6091753E-001	3.5647745E+000	-1.5638034E+001	3.103365005020300E+003	-1.6544221E-004	-5.1042545E-001	1.6562194E+000	1.2034443E-001	1.000000000000000E+000	38	1.4562018E-002	4.0849759E-003	0	-4.536758462358514E-002	4.5537937E-001	2.9675144E-001	9.1127844E+000	2.0716723E-005	2.7125998E-005	1.5330323E-005	2.6573476E-005	3.3259381E-005	2.1890475E-005	8.0203868E-002	3.1353649E-002	7.1174037E-001	2.0325417E-006	1.7733367E-006	9.4345711E-007	9.7801103E-007	7.0972345E-007	7.5454113E-007	2.7013877E-001	7.5617440E-002	2.8052264E-001	1.5638034E+001	1.2034441E+002	4.2992328E+002	4.4644910E+002	-7.4361969E+001	0.0000000E+000	0.0000000E+000	0.0000000E+000	7.4361969E+001	0.0000000E+000	0.0000000E+000	0.0000000E+000	-7.4361969E+001	0.0000000E+000	0.0000000E+000	0.0000000E+000	-1.5638034E+001	0.0000000E+000	0.0000000E+000	0.0000000E+000	1.5638034E+001	3.5724401E+000	7.4361969E+001	-2.643814589441199E-004
7.9433273E+004	3.4494934E+000	1.0361886E+000	3.6017623E+000	-1.6719669E+001	3.105177987346382E+003	-1.6456611E-004	-5.0970674E-001	1.9336545E+000	1.6003920E-001	1.000000000000000E+000	38	1.4555478E-002	4.0412098E-003	0	-4.561980033969155E-002	5.1271051E-001	2.4550581E-001	9.2644281E+000	3.0077239E-005	2.7808139E-005	2.2992570E-005	3.1404561E-005	3.2279029E-005	2.3234881E-005	6.4395010E-002	2.2528809E-002	7.1881634E-001	1.8559450E-006	1.0751232E-006	6.9894003E-007	8.5881146E-007	5.3016322E-007	4.0467572E-007	2.6590422E-001	7.9874597E-002	2.7764186E-001	1.6719669E+001	1.6003915E+002	5.3277386E+002	5.5629175E+002	-7.3280334E+001	0.0000000E+000	0.0000000E+000	0.0000000E+000	7.3280334E+001	0.0000000E+000	0.0000000E+000	0.0000000E+000	-7.3280334E+001	0.0000000E+000	0.0000000E+000	0.0000000E+000	-1.6719669E+001	0.0000000E+000	0.0000000E+000	0.0000000E+000	1.6719669E+001	3.3290207E+000	7.3280334E+001	-2.522157161064034E-004
6.3093828E+004	3.4833803E+000	1.1680735E+000	3.6740079E+000	-1.8537724E+001	3.106991989192567E+003	-1.7701810E-004	-5.1044220E-001	2.1595490E+000	2.1828468E-001	1.000000000000000E+000	38	1.4586642E-002	3.9702263E-003	0	-4.587604866606380E-002	4.4706205E-001	2.8159997E-001	9.0927877E+000	2.7666561E-005	3.1222720E-005	1.2901478E-005	2.0585336E-005	2.9371187E-005	2.5744866E-005	7.2748728E-002	4.1334454E-002	7.3142922E-001	1.4291577E-006	1.5779698E-006	8.1812033E-007	1.4272830E-006	4.1656540E-007	5.1130775E-007	2.5806001E-001	8.6534642E-002	2.7218232E-001	1.8537724E+001	2.1828464E+002	6.5095953E+002	6.8658319E+002	-7.1462280E+001	0.0000000E+000	0.0000000E+000	0.0000000E+000	7.1462280E+001	0.0000000E+000	0.0000000E+000	0.0000000E+000	-7.1462280E+001	0.0000000E+000	0.0000000E+000	0.0000000E+000	-1.8537724E+001	0.0000000E+000	0.0000000E+000	0.0000000E+000	1.8537724E+001	2.9821584E+000	7.1462280E+001	-2.562483263722493E-004
5.0122477E+004	3.5236723E+000	1.3361310E+000	3.7684894E+000	-2.0766081E+001	3.108804000265271E+003	-1.5099566E-004	-5.0865108E-001	2.3765042E+000	2.9874596E-001	1.000000000000000E+000	38	1.4578375E-002	3.8684930E-003	0	-4.613586463348389E-002	4.9861163E-001	2.2116172E-001	9.1392117E+000	2.4883993E-005	2.5753436E-005	1.3227637E-005	2.8808385E-005	2.6405978E-005	3.9473623E-005	6.3429520E-002	2.8434942E-002	7.4881983E-001	1.3115580E-006	1.4901231E-006	6.7436389E-007	8.1226000E-007	5.1658208E-007	6.5633054E-007	2.4811952E-001	9.4083719E-002	2.6535833E-001	2.0766081E+001	2.9874600E+002	7.8785901E+002	8.4259778E+002	-6.9233917E+001	0.0000000E+000	0.0000000E+000	0.0000000E+000	6.9233917E+001	0.0000000E+000	0.0000000E+000	0.0000000E+000	-6.9233917E+001	0.0000000E+000	0.0000000E+000	0.0000000E+000	-2.0766081E+001	0.0000000E+000	0.0000000E+000	0.0000000E+000	2.0766081E+001	2.6372209E+000	6.9233917E+001	-2.598159674200920E-004
3.9814063E+004	3.5733616E+000	1.5676152E+000	3.9020932E+000	-2.3686811E+001	3.110616997951423E+003	-1.7981420E-004	-5.1181817E-001	2.5500236E+000	4.1155496E-001	1.000000000000000E+000	38	1.4614401E-002	3.7452723E-003	0	-4.639300897756519E-002	4.5199424E-001	2.3506531E-001	9.1595097E+000	3.8153245E-005	1.4853403E-005	2.5543390E-005	2.8725583E-005	1.8304401E-005	2.2932501E-005	5.3493891E-002	5.3087328E-002	7.7999908E-001	7.6347811E-007	9.6174244E-007	5.3622921E-007	9.3903589E-007	5.1560983E-007	6.2767771E-007	2.3468304E-001	1.0295422E-001	2.5627270E-001	2.3686811E+001	4.1155502E+002	9.3813507E+002	1.0244388E+003	-6.6313187E+001	0.0000000E+000	0.0000000E+000	0.0000000E+000	6.6313187E+001	0.0000000E+000	0.0000000E+000	0.0000000E+000	-6.6313187E+001	0.0000000E+000	0.0000000E+000	0.0000000E+000	-2.3686811E+001	0.0000000E+000	0.0000000E+000	0.0000000E+000	2.3686811E+001	2.2794890E+000	6.6313187E+001	-2.571443440812990E-004
3.1621143E+004	3.6352363E+000	1.8642759E+000	4.0853968E+000	-2.7150333E+001	3.112430007424162E+003	-1.4788266E-004	-5.1152587E-001	2.6998048E+000	5.6219149E-001	1.000000000000000E+000	38	1.4647570E-002	3.5853481E-003	0	-4.664875132250393E-002	4.8149756E-001	2.9956776E-001	9.1297569E+000	2.3515067E-005	2.1465825E-005	3.1186766E-005	2.8010149E-005	2.5208234E-005	3.0868436E-005	5.4182544E-002	5.7057969E-002	8.1559724E-001	8.1903119E-007	1.0615665E-006	9.1817702E-007	5.5899358E-007	4.3225876E-007	5.2699318E-007	2.1780315E-001	1.1169705E-001	2.4477427E-001	2.7150333E+001	5.6219147E+002	1.0962427E+003	1.2319932E+003	-6.2849667E+001	0.0000000E+000	0.0000000E+000	0.0000000E+000	6.2849667E+001	0.0000000E+000	0.0000000E+000	0.0000000E+000	-6.2849667E+001	0.0000000E+000	0.0000000E+000	0.0000000E+000	-2.7150333E+001	0.0000000E+000	0.0000000E+000	0.0000000E+000	2.7150333E+001	1.9499454E+000	6.2849670E+001	-2.557423449387405E-004
2.5116906E+004	3.7143116E+000	2.2481794E+000	4.3417072E+000	-3.1185465E+001	3.114241998283556E+003	-1.6972958E-004	-5.1080346E-001	2.8185325E+000	7.5572520E-001	1.000000000000000E+000	38	1.4689811E-002	3.3834181E-003	0	-4.690290661941397E-002	5.1678109E-001	2.4420777E-001	8.9729099E+000	3.3533390E-005	1.7377821E-005	1.6230193E-005	2.9984833E-005	3.4229684E-005	3.0504774E-005	4.3500170E-002	7.7160507E-002	8.5937607E-001	4.8903138E-007	8.4755436E-007	2.9843514E-007	5.8785622E-007	5.1019583E-007	4.2118890E-007	1.9704130E-001	1.1926415E-001	2.3032415E-001	3.1185465E+001	7.5572516E+002	1.2485653E+003	1.4594642E+003	-5.8814537E+001	0.0000000E+000	0.0000000E+000	0.0000000E+000	5.8814537E+001	0.0000000E+000	0.0000000E+000	0.0000000E+000	-5.8814537E+001	0.0000000E+000	0.0000000E+000	0.0000000E+000	-3.1185465E+001	0.0000000E+000	0.0000000E+000	0.0000000E+000	3.1185465E+001	1.6521419E+000	5.8814537E+001	-2.541552969100372E-004
1.9948781E+004	3.8173695E+000	2.7155631E+000	4.6847191E+000	-3.5426914E+001	3.116055005649701E+003	-1.5047372E-004	-5.0942189E-001	2.9379463E+000	9.8718047E-001	1.000000000000000E+000	38	1.4693447E-002	3.1364628E-003	0	-4.715562442065724E-002	5.4487818E-001	2.0315099E-001	9.1692905E+000	3.3932694E-005	2.3701839E-005	2.5067600E-005	3.1854543E-005	3.0920492E-005	2.9242457E-005	6.5956824E-002	3.7761685E-002	9.4017965E-001	6.8330974E-007	9.4543884E-007	1.0850927E-006	6.3858181E-007	7.5004334E-007	3.9008395E-007	1.7393905E-001	1.2373506E-001	2.1345997E-001	3.5426914E+001	9.8718042E+002	1.3877168E+003	1.7030217E+003	-5.4573086E+001	0.0000000E+000	0.0000000E+000	0.0000000E+000	5.4573086E+001	0.0000000E+000	0.0000000E+000	0.0000000E+000	-5.4573086E+001	0.0000000E+000	0.0000000E+000	0.0000000E+000	-3.5426914E+001	0.0000000E+000	0.0000000E+000	0.0000000E+000	3.5426914E+001	1.4057378E+000	5.4573090E+001	-2.527178012432726E-004
1.5847683E+004	3.9437010E+000	3.3018754E+000	5.1434579E+000	-3.9937855E+001	3.117867995655819E+003	-1.7910585E-004	-5.1046836E-001	3.0415409E+000	1.2534431E+000	1.000000000000000E+000	38	1.4782161E-002	2.8739732E-003	0	-4.740848100730497E-002	5.0860244E-001	2.9907218E-001	9.1125317E+000	2.3992166E-005	2.7212052E-005	1.8789397E-005	2.9938350E-005	2.4938248E-005	4.1323685E-005	8.6443461E-002	4.4460583E-002	1.0315592E+000	1.7505705E-006	8.9623273E-007	6.8238683E-007	6.8267167E-007	4.6494600E-007	8.0646458E-007	1.4907116E-001	1.2481027E-001	1.9442174E-001	3.9937855E+001	1.2534431E+003	1.4970901E+003	1.9525364E+003	-5.0062145E+001	0.0000000E+000	0.0000000E+000	0.0000000E+000	5.0062145E+001	0.0000000E+000	0.0000000E+000	0.0000000E+000	-5.0062145E+001	0.0000000E+000	0.0000000E+000	0.0000000E+000	-3.9937855E+001	0.0000000E+000	0.0000000E+000	0.0000000E+000	3.9937855E+001	1.1943822E+000	5.0062149E+001	-2.528565866477331E-004
1.2590930E+004	4.1047544E+000	4.0262580E+000	5.7497621E+000	-4.4446884E+001	3.119681004701895E+003	-1.5690477E-004	-5.1059866E-001	3.1395020E+000	1.5394452E+000	1.000000000000000E+000	38	1.4764279E-002	2.5678070E-003	0	-4.766782989095803E-002	4.1458368E-001	3.1787595E-001	8.9200697E+000	2.9094270E-005	1.7472392E-005	2.1991083E-005	2.1281063E-005	2.5545040E-005	2.4419065E-005	1.2238447E-001	4.8361961E-002	1.1596568E+000	2.4919725E-006	1.2463361E-006	6.2955235E-007	6.5757831E-007	6.5768438E-007	6.9297948E-007	1.2416165E-001	1.2178726E-001	1.7392024E-001	4.4446884E+001	1.5394449E+003	1.5694583E+003	2.1984290E+003	-4.5553116E+001	0.0000000E+000	0.0000000E+000	0.0000000E+000	4.5553116E+001	0.0000000E+000	0.0000000E+000	0.0000000E+000	-4.5553116E+001	0.0000000E+000	0.0000000E+000	0.0000000E+000	-4.4446884E+001	0.0000000E+000	0.0000000E+000	0.0000000E+000	4.4446884E+001	1.0194961E+000	4.5553116E+001	-2.593488836530600E-004
