EC-Lab ASCII FILE
Nb header lines : 67                          

Potentio Electrochemical Impedance Spectroscopy

Run on channel : 15 (SN 19485)
User : 
Electrode connection : standard
Potential control : Ewe
Ewe ctrl range : min = -1.00 V, max = 1.00 V
Ewe,I filtering : 50 kHz
Safety Limits :
	Do not start on E overload
Channel : Floating
Acquisition started on : 02/23/2024 14:49:54.683
Loaded Setting File :  NONE
Saved on :
	File : 240223-OCV-EIS-Fe2Fe3_5mM-HCl1M-1225RPM-Ag_AgCl_BLF8-GC-RDE-1minRestVSEoc-3ppf-14p1mVAmplitude_06_PEIS_C15.mpr
	Directory : C:\Data\mathias\RDE-RPM-variation\
	Host : 192.168.0.1
Device : VMP-300 (SN 0826)
Address : USB
EC-Lab for windows v11.52 (software)
Internet server v11.52 (firmware)
Command interpretor v11.52 (firmware)
Electrode material : 
Initial state : 
Electrolyte : 
Comments : 
Cable : special
Reference electrode : SCE Saturated Calomel Electrode (0.241 V)
Electrode surface area : 0.001 cm²
Characteristic mass : 0.001 g
Equivalent Weight : 0.000 g/eq.
Density : 0.000 g/cm3
Volume (V) : 0.001 cm³
Record EIS quality indicators
Cycle Definition : Charge/Discharge alternance
Mode                Single sine         
E (V)               0.0000              
vs.                 Eoc                 
tE (h:m:s)          0:01:0.0000         
record              0                   
dI                  0.000               
unit dI             mA                  
dt (s)              0.000               
fi                  1.000               
unit fi             MHz                 
ff                  100.000             
unit ff             mHz                 
Nd                  10                  
Points              per decade          
spacing             Logarithmic         
Va (mV)             14.1                
pw                  0.10                
Na                  3                   
corr                0                   
E range min (V)     -1.000              
E range max (V)     1.000               
I Range             Auto                
Bandwidth           8                   
nc cycles           0                   
goto Ns'            0                   
nr cycles           0                   
inc. cycle          1                   

freq/Hz	Re(Z)/Ohm	-Im(Z)/Ohm	|Z|/Ohm	Phase(Z)/deg	time/s	<Ewe>/V	<I>/mA	Cs/µF	Cp/µF	cycle number	I Range	|Ewe|/V	|I|/A	Ns	(Q-Qo)/mA.h	THD Ewe/%	NSD Ewe/%	NSR Ewe/%	|Ewe h2|/V	|Ewe h3|/V	|Ewe h4|/V	|Ewe h5|/V	|Ewe h6|/V	|Ewe h7|/V	THD I/%	NSD I/%	NSR I/%	|I h2|/A	|I h3|/A	|I h4|/A	|I h5|/A	|I h6|/A	|I h7|/A	Re(Y)/Ohm-1	Im(Y)/Ohm-1	|Y|/Ohm-1	Phase(Y)/deg	Re(C)/nF	Im(C)/nF	|C|/nF	Phase(C)/deg	Re(M)	Im(M)	|M|	Phase(M)/deg	Re(Permittivity)	Im(Permittivity)	|Permittivity|	Phase(Permittivity)/deg	Re(Resistivity)/Ohm.cm	Im(Resistivity)/Ohm.cm	|Resistivity|/Ohm.cm	Phase(Resistivity)/deg	Re(Conductivity)/mS/cm	Im(Conductivity)/mS/cm	|Conductivity|/mS/cm	Phase(Conductivity)/deg	Tan(Delta)	Loss Angle(Delta)/deg	dq/mA.h	
1.0000186E+006	3.5544696E+000	4.0680480E+000	5.4021540E+000	-4.8854561E+001	1.081775716542877E+003	4.5963687E-001	-1.1710007E-002	3.9122447E-002	2.2185244E-002	1.000000000000000E+000	38	1.1145231E-002	2.0631088E-003	0	-8.655972831002954E-006	-1	-1	-1	0	0	0	0	0	0	-1	-1	-1	0	0	0	0	0	0	1.2179820E-001	1.3939658E-001	1.8511134E-001	4.8854561E+001	2.2185244E+001	1.9384426E+001	2.9460838E+001	-4.1145439E+001	0.0000000E+000	0.0000000E+000	0.0000000E+000	4.1145439E+001	0.0000000E+000	0.0000000E+000	0.0000000E+000	-4.1145439E+001	0.0000000E+000	0.0000000E+000	0.0000000E+000	-4.8854561E+001	0.0000000E+000	0.0000000E+000	0.0000000E+000	4.8854561E+001	8.7375313E-001	4.1145447E+001	-8.655972831002954E-006
7.9433269E+005	3.5857985E+000	3.1932125E+000	4.8015161E+000	-4.1685589E+001	1.082788738804316E+003	4.5963579E-001	-2.4077210E-003	6.2746555E-002	2.7751645E-002	1.000000000000000E+000	38	1.3883279E-002	2.8914365E-003	0	-7.278994866006542E-006	-1	-1	-1	0	0	0	0	0	0	-1	-1	-1	0	0	0	0	0	0	1.5553536E-001	1.3850679E-001	2.0826755E-001	4.1685589E+001	2.7751644E+001	3.1163540E+001	4.1729126E+001	-4.8314411E+001	0.0000000E+000	0.0000000E+000	0.0000000E+000	4.8314411E+001	0.0000000E+000	0.0000000E+000	0.0000000E+000	-4.8314411E+001	0.0000000E+000	0.0000000E+000	0.0000000E+000	-4.1685589E+001	0.0000000E+000	0.0000000E+000	0.0000000E+000	4.1685589E+001	1.1229439E+000	4.8314407E+001	1.376977964996411E-006
6.3095681E+005	3.5687361E+000	2.5075655E+000	4.3616238E+000	-3.5093719E+001	1.083935721098766E+003	4.5961210E-001	-2.7986940E-003	1.0059310E-001	3.3248831E-002	1.000000000000000E+000	38	1.4483240E-002	3.3206076E-003	0	-1.261188979961702E-005	-1	-1	-1	0	0	0	0	0	0	-1	-1	-1	0	0	0	0	0	0	1.8759361E-001	1.3181227E-001	2.2927241E-001	3.5093719E+001	3.3248829E+001	4.7319324E+001	5.7832542E+001	-5.4906281E+001	0.0000000E+000	0.0000000E+000	0.0000000E+000	5.4906281E+001	0.0000000E+000	0.0000000E+000	0.0000000E+000	-5.4906281E+001	0.0000000E+000	0.0000000E+000	0.0000000E+000	-3.5093719E+001	0.0000000E+000	0.0000000E+000	0.0000000E+000	3.5093719E+001	1.4231876E+000	5.4906281E+001	-5.332894933610482E-006
5.0120622E+005	3.5282803E+000	1.9979709E+000	4.0547071E+000	-2.9521721E+001	1.085083725179982E+003	4.5964330E-001	-2.7055894E-003	1.5893316E-001	3.8589921E-002	1.000000000000000E+000	38	1.4548346E-002	3.5880140E-003	0	-7.929068543715403E-006	-1	-1	-1	0	0	0	0	0	0	-1	-1	-1	0	0	0	0	0	0	2.1460710E-001	1.2152629E-001	2.4662694E-001	2.9521721E+001	3.8589924E+001	6.8147163E+001	7.8314865E+001	-6.0478279E+001	0.0000000E+000	0.0000000E+000	0.0000000E+000	6.0478279E+001	0.0000000E+000	0.0000000E+000	0.0000000E+000	-6.0478279E+001	0.0000000E+000	0.0000000E+000	0.0000000E+000	-2.9521721E+001	0.0000000E+000	0.0000000E+000	0.0000000E+000	2.9521721E+001	1.7659317E+000	6.0478279E+001	4.682821255901621E-006
3.9810347E+005	3.4831476E+000	1.6228826E+000	3.8426638E+000	-2.4981949E+001	1.086230724567809E+003	4.5960721E-001	-2.7577165E-003	2.4634121E-001	4.3938633E-002	1.000000000000000E+000	38	1.4519460E-002	3.7784881E-003	0	-5.515747293791113E-006	-1	-1	-1	0	0	0	0	0	0	-1	-1	-1	0	0	0	0	0	0	2.3588867E-001	1.0990623E-001	2.6023614E-001	2.4981949E+001	4.3938629E+001	9.4304253E+001	1.0403795E+002	-6.5018051E+001	0.0000000E+000	0.0000000E+000	0.0000000E+000	6.5018051E+001	0.0000000E+000	0.0000000E+000	0.0000000E+000	-6.5018051E+001	0.0000000E+000	0.0000000E+000	0.0000000E+000	-2.4981949E+001	0.0000000E+000	0.0000000E+000	0.0000000E+000	2.4981949E+001	2.1462722E+000	6.5018051E+001	2.413321249924291E-006
3.1622997E+005	3.4575970E+000	1.3424048E+000	3.7090468E+000	-2.1218597E+001	1.087377727288957E+003	4.5962897E-001	-3.0723831E-003	3.7491569E-001	4.9110685E-002	1.000000000000000E+000	38	1.4583252E-002	3.9318060E-003	0	4.641990482600199E-007	-1	-1	-1	0	0	0	0	0	0	-1	-1	-1	0	0	0	0	0	0	2.5133315E-001	9.7579569E-002	2.6961106E-001	2.1218597E+001	4.9110683E+001	1.2649310E+002	1.3569217E+002	-6.8781403E+001	0.0000000E+000	0.0000000E+000	0.0000000E+000	6.8781403E+001	0.0000000E+000	0.0000000E+000	0.0000000E+000	-6.8781403E+001	0.0000000E+000	0.0000000E+000	0.0000000E+000	-2.1218597E+001	0.0000000E+000	0.0000000E+000	0.0000000E+000	2.1218597E+001	2.5756738E+000	6.8781403E+001	5.979946342051133E-006
2.5118764E+005	3.4227941E+000	1.1684444E+000	3.6167364E+000	-1.8848442E+001	1.088524715316744E+003	4.5963782E-001	-2.5380021E-003	5.4226780E-001	5.6597363E-002	1.000000000000000E+000	38	1.4546108E-002	4.0218877E-003	0	-2.025525645715081E-007	-1	-1	-1	0	0	0	0	0	0	-1	-1	-1	0	0	0	0	0	0	2.6166585E-001	8.9325264E-002	2.7649236E-001	1.8848442E+001	5.6597363E+001	1.6579405E+002	1.7518826E+002	-7.1151558E+001	0.0000000E+000	0.0000000E+000	0.0000000E+000	7.1151558E+001	0.0000000E+000	0.0000000E+000	0.0000000E+000	-7.1151558E+001	0.0000000E+000	0.0000000E+000	0.0000000E+000	-1.8848442E+001	0.0000000E+000	0.0000000E+000	0.0000000E+000	1.8848442E+001	2.9293599E+000	7.1151558E+001	-6.667516128315279E-007
1.9954350E+005	3.4102514E+000	1.0516609E+000	3.5687261E+000	-1.7138832E+001	1.089670718971203E+003	4.5964569E-001	-1.4003628E-003	7.5841480E-001	6.5861538E-002	1.000000000000000E+000	38	1.4553218E-002	4.0779868E-003	0	-3.555161654860260E-006	-1	-1	-1	0	0	0	0	0	0	-1	-1	-1	0	0	0	0	0	0	2.6776880E-001	8.2575142E-002	2.8021204E-001	1.7138832E+001	6.5861534E+001	2.1357111E+002	2.2349577E+002	-7.2861168E+001	0.0000000E+000	0.0000000E+000	0.0000000E+000	7.2861168E+001	0.0000000E+000	0.0000000E+000	0.0000000E+000	-7.2861168E+001	0.0000000E+000	0.0000000E+000	0.0000000E+000	-1.7138832E+001	0.0000000E+000	0.0000000E+000	0.0000000E+000	1.7138832E+001	3.2427292E+000	7.2861168E+001	-3.352609090288751E-006
1.5848613E+005	3.4052398E+000	9.9909699E-001	3.5487819E+000	-1.6351683E+001	1.090817735958990E+003	4.5963052E-001	-2.1265189E-003	1.0051277E+000	7.9666898E-002	1.000000000000000E+000	38	1.4551673E-002	4.1004699E-003	0	-2.559733030619100E-006	-1	-1	-1	0	0	0	0	0	0	-1	-1	-1	0	0	0	0	0	0	2.7038905E-001	7.9332113E-002	2.8178683E-001	1.6351683E+001	7.9666908E+001	2.7153009E+002	2.8297598E+002	-7.3648315E+001	0.0000000E+000	0.0000000E+000	0.0000000E+000	7.3648315E+001	0.0000000E+000	0.0000000E+000	0.0000000E+000	-7.3648315E+001	0.0000000E+000	0.0000000E+000	0.0000000E+000	-1.6351683E+001	0.0000000E+000	0.0000000E+000	0.0000000E+000	1.6351683E+001	3.4083176E+000	7.3648315E+001	9.954286242411599E-007
1.2590929E+005	3.4141819E+000	1.0018890E+000	3.5581484E+000	-1.6354284E+001	1.091967719000269E+003	4.5961747E-001	-1.4953200E-003	1.2616613E+000	1.0003082E-001	1.000000000000000E+000	38	1.4569248E-002	4.0946151E-003	0	-8.049834085686598E-007	-1	-1	-1	0	0	0	0	0	0	-1	-1	-1	0	0	0	0	0	0	2.6967368E-001	7.9135522E-002	2.8104505E-001	1.6354284E+001	1.0003084E+002	3.4087952E+002	3.5525345E+002	-7.3645714E+001	0.0000000E+000	0.0000000E+000	0.0000000E+000	7.3645714E+001	0.0000000E+000	0.0000000E+000	0.0000000E+000	-7.3645714E+001	0.0000000E+000	0.0000000E+000	0.0000000E+000	-1.6354284E+001	0.0000000E+000	0.0000000E+000	0.0000000E+000	1.6354284E+001	3.4077446E+000	7.3645714E+001	1.754749622050440E-006
1.0000371E+005	3.4298880E+000	1.0510036E+000	3.5873027E+000	-1.7036375E+001	1.093114719614765E+003	4.5962185E-001	-1.8621233E-003	1.5142578E+000	1.2997869E-001	1.000000000000000E+000	38	1.4565193E-002	4.0602074E-003	0	-9.879084680501062E-006	4.4284004E-001	2.6405632E-001	8.5170641E+000	4.2171032E-005	2.3579138E-005	1.2378351E-005	2.0198295E-005	2.0976588E-005	2.5153551E-005	8.3733432E-002	2.9686464E-002	7.0224279E-001	2.2429624E-006	1.6526078E-006	1.0406968E-006	9.2060168E-007	5.4916575E-007	1.0195125E-006	2.6652864E-001	8.1671044E-002	2.7876097E-001	1.7036375E+001	1.2997870E+002	4.2417776E+002	4.4364539E+002	-7.2963623E+001	0.0000000E+000	0.0000000E+000	0.0000000E+000	7.2963623E+001	0.0000000E+000	0.0000000E+000	0.0000000E+000	-7.2963623E+001	0.0000000E+000	0.0000000E+000	0.0000000E+000	-1.7036375E+001	0.0000000E+000	0.0000000E+000	0.0000000E+000	1.7036375E+001	3.2634408E+000	7.2963623E+001	-9.074101271932402E-006
7.9433273E+004	3.4472508E+000	1.1429659E+000	3.6317916E+000	-1.8343386E+001	1.094260722282546E+003	4.5963216E-001	-2.2847867E-003	1.7530100E+000	1.7362374E-001	1.000000000000000E+000	38	1.4571552E-002	4.0122215E-003	0	-4.427182184144234E-006	4.9125713E-001	3.1477478E-001	8.9396152E+000	2.2105734E-005	1.9904113E-005	3.1492029E-005	4.1072799E-005	2.0571526E-005	2.8639197E-005	5.7735402E-002	3.2700565E-002	7.1529484E-001	1.5661129E-006	1.0110238E-006	4.8780123E-007	7.0816486E-007	6.1952755E-007	5.3173278E-007	2.6135513E-001	8.6654559E-002	2.7534619E-001	1.8343386E+001	1.7362370E+002	5.2365918E+002	5.5169208E+002	-7.1656616E+001	0.0000000E+000	0.0000000E+000	0.0000000E+000	7.1656616E+001	0.0000000E+000	0.0000000E+000	0.0000000E+000	-7.1656616E+001	0.0000000E+000	0.0000000E+000	0.0000000E+000	-1.8343386E+001	0.0000000E+000	0.0000000E+000	0.0000000E+000	1.8343386E+001	3.0160575E+000	7.1656616E+001	5.451902496356828E-006
6.3093828E+004	3.4813077E+000	1.2949457E+000	3.7143490E+000	-2.0403744E+001	1.095407719403651E+003	4.5963413E-001	-1.5195378E-003	1.9479674E+000	2.3676603E-001	1.000000000000000E+000	38	1.4606222E-002	3.9323773E-003	0	-1.028128144165708E-005	5.1303118E-001	2.7726993E-001	8.7808189E+000	2.5423678E-005	3.2538486E-005	3.8890037E-005	3.1725776E-005	2.5894527E-005	1.5095519E-005	6.3034862E-002	2.4978610E-002	7.4273676E-001	1.6007699E-006	1.0754738E-006	7.9781989E-007	8.0990594E-007	9.3292630E-007	3.4031856E-007	2.5233474E-001	9.3861215E-002	2.6922619E-001	2.0403744E+001	2.3676607E+002	6.3651733E+002	6.7912628E+002	-6.9596252E+001	0.0000000E+000	0.0000000E+000	0.0000000E+000	6.9596252E+001	0.0000000E+000	0.0000000E+000	0.0000000E+000	-6.9596252E+001	0.0000000E+000	0.0000000E+000	0.0000000E+000	-2.0403744E+001	0.0000000E+000	0.0000000E+000	0.0000000E+000	2.0403744E+001	2.6883812E+000	6.9596252E+001	-5.854099257512845E-006
5.0122477E+004	3.5166543E+000	1.5048853E+000	3.8251193E+000	-2.3167582E+001	1.096554737804836E+003	4.5964372E-001	-2.6013153E-003	2.1100085E+000	3.2658863E-001	1.000000000000000E+000	38	1.4611212E-002	3.8198056E-003	0	-5.424498918233440E-006	5.0518280E-001	2.3780540E-001	8.7591095E+000	2.1872298E-005	2.7001057E-005	3.4395867E-005	2.8103517E-005	3.4041052E-005	2.8101402E-005	6.8382554E-002	2.5520889E-002	7.5881064E-001	9.5696601E-007	1.1884978E-006	9.9929900E-007	7.7973340E-007	1.2205134E-006	8.3687422E-007	2.4034756E-001	1.0285217E-001	2.6142976E-001	2.3167582E+001	3.2658859E+002	7.6318060E+002	8.3012335E+002	-6.6832420E+001	0.0000000E+000	0.0000000E+000	0.0000000E+000	6.6832420E+001	0.0000000E+000	0.0000000E+000	0.0000000E+000	-6.6832420E+001	0.0000000E+000	0.0000000E+000	0.0000000E+000	-2.3167582E+001	0.0000000E+000	0.0000000E+000	0.0000000E+000	2.3167582E+001	2.3368254E+000	6.6832420E+001	4.856782523423639E-006
3.9814063E+004	3.5675650E+000	1.7802398E+000	3.9870758E+000	-2.6519518E+001	1.097701727299282E+003	4.5963973E-001	-2.4728435E-003	2.2454591E+000	4.4766504E-001	1.000000000000000E+000	38	1.4665530E-002	3.6782671E-003	0	4.175393602345139E-007	3.4329161E-001	2.1958308E-001	9.0659103E+000	2.2927359E-005	1.8685787E-005	2.1520455E-005	2.5161035E-005	1.4144668E-005	8.9118021E-006	5.6183636E-002	5.0326150E-002	7.7970189E-001	8.1622824E-007	1.1365141E-006	5.9759958E-007	6.9441552E-007	5.8754904E-007	8.0827027E-007	2.2442070E-001	1.1198750E-001	2.5081038E-001	2.6519518E+001	4.4766501E+002	8.9711176E+002	1.0026033E+003	-6.3480484E+001	0.0000000E+000	0.0000000E+000	0.0000000E+000	6.3480484E+001	0.0000000E+000	0.0000000E+000	0.0000000E+000	-6.3480484E+001	0.0000000E+000	0.0000000E+000	0.0000000E+000	-2.6519518E+001	0.0000000E+000	0.0000000E+000	0.0000000E+000	2.6519518E+001	2.0039799E+000	6.3480484E+001	5.842038278467954E-006
3.1621143E+004	3.6182635E+000	2.1336913E+000	4.2005320E+000	-3.0527868E+001	1.098847718260397E+003	4.5961735E-001	-2.2363844E-003	2.3589079E+000	6.0864711E-001	1.000000000000000E+000	38	1.4671964E-002	3.4928825E-003	0	-9.362658153598507E-007	5.0299829E-001	2.7348757E-001	8.9609003E+000	2.5646086E-005	3.3259126E-005	2.0472567E-005	1.7997951E-005	3.9514562E-005	3.0513051E-005	5.4022077E-002	5.7195000E-002	8.3876210E-001	4.6331851E-007	1.1096110E-006	9.1180914E-007	6.9924596E-007	5.3454153E-007	3.5089852E-007	2.0506503E-001	1.2092692E-001	2.3806508E-001	3.0527868E+001	6.0864716E+002	1.0321294E+003	1.1982247E+003	-5.9472130E+001	0.0000000E+000	0.0000000E+000	0.0000000E+000	5.9472130E+001	0.0000000E+000	0.0000000E+000	0.0000000E+000	-5.9472130E+001	0.0000000E+000	0.0000000E+000	0.0000000E+000	-3.0527868E+001	0.0000000E+000	0.0000000E+000	0.0000000E+000	3.0527868E+001	1.6957765E+000	5.9472130E+001	-1.353805175594365E-006
2.5116906E+004	3.6905153E+000	2.5784001E+000	4.5020051E+000	-3.4940300E+001	1.099994719221577E+003	4.5963374E-001	-1.7113350E-003	2.4575574E+000	8.0610639E-001	1.000000000000000E+000	38	1.4710560E-002	3.2675574E-003	0	-2.688993798413624E-007	4.7250211E-001	3.0616885E-001	8.7512236E+000	2.3757239E-005	2.2631995E-005	2.4557254E-005	3.5016114E-005	2.0873153E-005	2.6640026E-005	5.8043268E-002	6.7214616E-002	8.9331383E-001	5.6410022E-007	8.2783703E-007	5.9707691E-007	1.1752093E-006	4.9443520E-007	4.6790441E-007	1.8208537E-001	1.2721501E-001	2.2212325E-001	3.4940300E+001	8.0610626E+002	1.1537960E+003	1.4074987E+003	-5.5059700E+001	0.0000000E+000	0.0000000E+000	0.0000000E+000	5.5059700E+001	0.0000000E+000	0.0000000E+000	0.0000000E+000	-5.5059700E+001	0.0000000E+000	0.0000000E+000	0.0000000E+000	-3.4940300E+001	0.0000000E+000	0.0000000E+000	0.0000000E+000	3.4940300E+001	1.4313198E+000	5.5059700E+001	6.673664355184883E-007
1.9948781E+004	3.7765784E+000	3.1381526E+000	4.9102492E+000	-3.9724930E+001	1.101139716769248E+003	4.5961836E-001	-2.6497727E-003	2.5423169E+000	1.0384145E+000	1.000000000000000E+000	38	1.4738974E-002	3.0016752E-003	0	-9.012862776755355E-006	5.4288471E-001	2.8450617E-001	8.6411896E+000	4.2193937E-005	3.9152805E-005	3.8190046E-005	1.7480190E-005	1.8703429E-005	1.5920074E-005	7.6754838E-002	5.1312357E-002	9.7510242E-001	1.3684557E-006	9.2628261E-007	1.0843578E-006	8.1324652E-007	3.5522123E-007	6.3457958E-007	1.5663594E-001	1.3015684E-001	2.0365565E-001	3.9724930E+001	1.0384146E+003	1.2496696E+003	1.6248011E+003	-5.0275070E+001	0.0000000E+000	0.0000000E+000	0.0000000E+000	5.0275070E+001	0.0000000E+000	0.0000000E+000	0.0000000E+000	-5.0275070E+001	0.0000000E+000	0.0000000E+000	0.0000000E+000	-3.9724930E+001	0.0000000E+000	0.0000000E+000	0.0000000E+000	3.9724930E+001	1.2034401E+000	5.0275070E+001	-8.743963396913993E-006
1.5847683E+004	3.8929617E+000	3.8421412E+000	5.4696617E+000	-4.4623566E+001	1.102287719037122E+003	4.5964694E-001	-1.8491416E-003	2.6138523E+000	1.2897536E+000	1.000000000000000E+000	38	1.4820463E-002	2.7095757E-003	0	-7.076555660770586E-006	4.0706456E-001	2.7847746E-001	8.6579447E+000	2.3132759E-005	1.8296088E-005	2.6219122E-005	9.0430567E-006	1.9881678E-005	3.7237929E-005	1.0644152E-001	2.6302539E-002	1.0882709E+000	2.0902962E-006	1.0524811E-006	7.3221730E-007	8.9052213E-007	7.3038331E-007	7.0615027E-007	1.3012454E-001	1.2842584E-001	1.8282667E-001	4.4623566E+001	1.2897537E+003	1.3068134E+003	1.8360897E+003	-4.5376434E+001	0.0000000E+000	0.0000000E+000	0.0000000E+000	4.5376434E+001	0.0000000E+000	0.0000000E+000	0.0000000E+000	-4.5376434E+001	0.0000000E+000	0.0000000E+000	0.0000000E+000	-4.4623566E+001	0.0000000E+000	0.0000000E+000	0.0000000E+000	4.4623566E+001	1.0132271E+000	4.5376434E+001	1.936307115984769E-006
1.2590930E+004	4.0411139E+000	4.7017369E+000	6.1997523E+000	-4.9321144E+001	1.103434740051598E+003	4.5964298E-001	-2.5436492E-003	2.6884627E+000	1.5462226E+000	1.000000000000000E+000	38	1.4819767E-002	2.3903805E-003	0	-1.080764785333951E-005	5.0551611E-001	3.1913403E-001	8.7863598E+000	2.9799310E-005	1.5511676E-005	3.2782311E-005	2.7143329E-005	3.1999385E-005	1.2261587E-005	1.4562863E-001	4.6068702E-002	1.2065743E+000	2.7422848E-006	1.1313523E-006	7.9394209E-007	5.8071282E-007	6.9308589E-007	1.1126851E-006	1.0513623E-001	1.2232342E-001	1.6129677E-001	4.9321144E+001	1.5462223E+003	1.3289686E+003	2.0388627E+003	-4.0678856E+001	0.0000000E+000	0.0000000E+000	0.0000000E+000	4.0678856E+001	0.0000000E+000	0.0000000E+000	0.0000000E+000	-4.0678856E+001	0.0000000E+000	0.0000000E+000	0.0000000E+000	-4.9321144E+001	0.0000000E+000	0.0000000E+000	0.0000000E+000	4.9321144E+001	8.5949385E-001	4.0678864E+001	-3.731092192568920E-006
