EC-Lab ASCII FILE
Nb header lines : 67                          

Potentio Electrochemical Impedance Spectroscopy

Run on channel : 15 (SN 19485)
User : 
Electrode connection : standard
Potential control : Ewe
Ewe ctrl range : min = -1.00 V, max = 1.00 V
Ewe,I filtering : 50 kHz
Safety Limits :
	Do not start on E overload
Channel : Floating
Acquisition started on : 02/23/2024 15:19:09.853
Loaded Setting File :  NONE
Saved on :
	File : 240223-OCV-EIS-Fe2Fe3_5mM-HCl1M-625RPM-Ag_AgCl_BLF8-GC-RDE-1minRestVSEoc-3ppf-14p1mVAmplitude_04_PEIS_C15.mpr
	Directory : C:\Data\mathias\RDE-RPM-variation\
	Host : 192.168.0.1
Device : VMP-300 (SN 0826)
Address : USB
EC-Lab for windows v11.52 (software)
Internet server v11.52 (firmware)
Command interpretor v11.52 (firmware)
Electrode material : 
Initial state : 
Electrolyte : 
Comments : 
Cable : special
Reference electrode : SCE Saturated Calomel Electrode (0.241 V)
Electrode surface area : 0.001 cm²
Characteristic mass : 0.001 g
Equivalent Weight : 0.000 g/eq.
Density : 0.000 g/cm3
Volume (V) : 0.001 cm³
Record EIS quality indicators
Cycle Definition : Charge/Discharge alternance
Mode                Single sine         
E (V)               0.0000              
vs.                 Eoc                 
tE (h:m:s)          0:01:0.0000         
record              0                   
dI                  0.000               
unit dI             mA                  
dt (s)              0.000               
fi                  1.000               
unit fi             MHz                 
ff                  100.000             
unit ff             mHz                 
Nd                  10                  
Points              per decade          
spacing             Logarithmic         
Va (mV)             14.1                
pw                  0.10                
Na                  3                   
corr                0                   
E range min (V)     -1.000              
E range max (V)     1.000               
I Range             Auto                
Bandwidth           8                   
nc cycles           0                   
goto Ns'            0                   
nr cycles           0                   
inc. cycle          1                   

freq/Hz	Re(Z)/Ohm	-Im(Z)/Ohm	|Z|/Ohm	Phase(Z)/deg	time/s	<Ewe>/V	<I>/mA	Cs/µF	Cp/µF	cycle number	I Range	|Ewe|/V	|I|/A	Ns	(Q-Qo)/mA.h	THD Ewe/%	NSD Ewe/%	NSR Ewe/%	|Ewe h2|/V	|Ewe h3|/V	|Ewe h4|/V	|Ewe h5|/V	|Ewe h6|/V	|Ewe h7|/V	THD I/%	NSD I/%	NSR I/%	|I h2|/A	|I h3|/A	|I h4|/A	|I h5|/A	|I h6|/A	|I h7|/A	Re(Y)/Ohm-1	Im(Y)/Ohm-1	|Y|/Ohm-1	Phase(Y)/deg	Re(C)/nF	Im(C)/nF	|C|/nF	Phase(C)/deg	Re(M)	Im(M)	|M|	Phase(M)/deg	Re(Permittivity)	Im(Permittivity)	|Permittivity|	Phase(Permittivity)/deg	Re(Resistivity)/Ohm.cm	Im(Resistivity)/Ohm.cm	|Resistivity|/Ohm.cm	Phase(Resistivity)/deg	Re(Conductivity)/mS/cm	Im(Conductivity)/mS/cm	|Conductivity|/mS/cm	Phase(Conductivity)/deg	Tan(Delta)	Loss Angle(Delta)/deg	dq/mA.h	
1.0000186E+006	3.5254242E+000	4.0849385E+000	5.3958631E+000	-4.9204823E+001	6.023652971419651E+002	4.5951658E-001	-1.0006336E-002	3.8960680E-002	2.2329332E-002	1.000000000000000E+000	38	1.1143991E-002	2.0652842E-003	0	-7.326804487335418E-006	-1	-1	-1	0	0	0	0	0	0	-1	-1	-1	0	0	0	0	0	0	1.2108477E-001	1.4030193E-001	1.8532716E-001	4.9204823E+001	2.2329332E+001	1.9270884E+001	2.9495186E+001	-4.0795177E+001	0.0000000E+000	0.0000000E+000	0.0000000E+000	4.0795177E+001	0.0000000E+000	0.0000000E+000	0.0000000E+000	-4.0795177E+001	0.0000000E+000	0.0000000E+000	0.0000000E+000	-4.9204823E+001	0.0000000E+000	0.0000000E+000	0.0000000E+000	4.9204823E+001	8.6302996E-001	4.0795181E+001	-7.326804487335418E-006
7.9433269E+005	3.5637798E+000	3.2090399E+000	4.7956715E+000	-4.2001759E+001	6.033762972166442E+002	4.5953986E-001	-2.0558136E-003	6.2437076E-002	2.7957220E-002	1.000000000000000E+000	38	1.3902145E-002	2.8988945E-003	0	-6.662885293286915E-006	-1	-1	-1	0	0	0	0	0	0	-1	-1	-1	0	0	0	0	0	0	1.5495729E-001	1.3953279E-001	2.0852137E-001	4.2001759E+001	2.7957218E+001	3.1047720E+001	4.1779984E+001	-4.7998241E+001	0.0000000E+000	0.0000000E+000	0.0000000E+000	4.7998241E+001	0.0000000E+000	0.0000000E+000	0.0000000E+000	-4.7998241E+001	0.0000000E+000	0.0000000E+000	0.0000000E+000	-4.2001759E+001	0.0000000E+000	0.0000000E+000	0.0000000E+000	4.2001759E+001	1.1105440E+000	4.7998245E+001	6.639191940485033E-007
6.3095681E+005	3.5490530E+000	2.5208180E+000	4.3531942E+000	-3.5385380E+001	6.045233127378306E+002	4.5951176E-001	-1.7932486E-003	1.0006426E-001	3.3554126E-002	1.000000000000000E+000	38	1.4447109E-002	3.3187375E-003	0	-1.157957018269776E-005	-1	-1	-1	0	0	0	0	0	0	-1	-1	-1	0	0	0	0	0	0	1.8728215E-001	1.3302259E-001	2.2971638E-001	3.5385380E+001	3.3554123E+001	4.7240765E+001	5.7944534E+001	-5.4614620E+001	0.0000000E+000	0.0000000E+000	0.0000000E+000	5.4614620E+001	0.0000000E+000	0.0000000E+000	0.0000000E+000	-5.4614620E+001	0.0000000E+000	0.0000000E+000	0.0000000E+000	-3.5385380E+001	0.0000000E+000	0.0000000E+000	0.0000000E+000	3.5385380E+001	1.4078974E+000	5.4614624E+001	-4.916684889410843E-006
5.0120622E+005	3.5158978E+000	2.0072467E+000	4.0485277E+000	-2.9722300E+001	6.056713146056427E+002	4.5950234E-001	-1.5623573E-003	1.5819871E-001	3.8887516E-002	1.000000000000000E+000	38	1.4521338E-002	3.5868196E-003	0	-1.790772185627268E-005	-1	-1	-1	0	0	0	0	0	0	-1	-1	-1	0	0	0	0	0	0	2.1450727E-001	1.2246346E-001	2.4700338E-001	2.9722300E+001	3.8887512E+001	6.8115456E+001	7.8434395E+001	-6.0277702E+001	0.0000000E+000	0.0000000E+000	0.0000000E+000	6.0277702E+001	0.0000000E+000	0.0000000E+000	0.0000000E+000	-6.0277702E+001	0.0000000E+000	0.0000000E+000	0.0000000E+000	-2.9722300E+001	0.0000000E+000	0.0000000E+000	0.0000000E+000	2.9722300E+001	1.7516022E+000	6.0277702E+001	-6.328151673574919E-006
3.9810347E+005	3.4744377E+000	1.6254619E+000	3.8358629E+000	-2.5071815E+001	6.068183108734811E+002	4.5949593E-001	-1.9831534E-003	2.4595033E-001	4.4164654E-002	1.000000000000000E+000	38	1.4570896E-002	3.7985966E-003	0	-2.275490899956397E-005	-1	-1	-1	0	0	0	0	0	0	-1	-1	-1	0	0	0	0	0	0	2.3613393E-001	1.1047161E-001	2.6069754E-001	2.5071815E+001	4.4164650E+001	9.4402298E+001	1.0422240E+002	-6.4928185E+001	0.0000000E+000	0.0000000E+000	0.0000000E+000	6.4928185E+001	0.0000000E+000	0.0000000E+000	0.0000000E+000	-6.4928185E+001	0.0000000E+000	0.0000000E+000	0.0000000E+000	-2.5071815E+001	0.0000000E+000	0.0000000E+000	0.0000000E+000	2.5071815E+001	2.1375079E+000	6.4928185E+001	-4.847187143291294E-006
3.1622997E+005	3.4455092E+000	1.3575580E+000	3.7033091E+000	-2.1504833E+001	6.079643060478993E+002	4.5948657E-001	-9.4233593E-004	3.7073082E-001	4.9819067E-002	1.000000000000000E+000	38	1.4560296E-002	3.9316989E-003	0	-1.560267039396179E-005	-1	-1	-1	0	0	0	0	0	0	-1	-1	-1	0	0	0	0	0	0	2.5123116E-001	9.8987065E-002	2.7002877E-001	2.1504833E+001	4.9819073E+001	1.2644178E+002	1.3590240E+002	-6.8495163E+001	0.0000000E+000	0.0000000E+000	0.0000000E+000	6.8495163E+001	0.0000000E+000	0.0000000E+000	0.0000000E+000	-6.8495163E+001	0.0000000E+000	0.0000000E+000	0.0000000E+000	-2.1504833E+001	0.0000000E+000	0.0000000E+000	0.0000000E+000	2.1504833E+001	2.5380199E+000	6.8495163E+001	7.152238605602177E-006
2.5118764E+005	3.4160945E+000	1.1690046E+000	3.6105781E+000	-1.8891201E+001	6.091113195156940E+002	4.5947826E-001	-1.2793407E-003	5.4200798E-001	5.6817822E-002	1.000000000000000E+000	38	1.4505734E-002	4.0175654E-003	0	-2.005123518381475E-005	-1	-1	-1	0	0	0	0	0	0	-1	-1	-1	0	0	0	0	0	0	2.6204532E-001	8.9673206E-002	2.7696395E-001	1.8891201E+001	5.6817833E+001	1.6603447E+002	1.7548708E+002	-7.1108795E+001	0.0000000E+000	0.0000000E+000	0.0000000E+000	7.1108795E+001	0.0000000E+000	0.0000000E+000	0.0000000E+000	-7.1108795E+001	0.0000000E+000	0.0000000E+000	0.0000000E+000	-1.8891201E+001	0.0000000E+000	0.0000000E+000	0.0000000E+000	1.8891201E+001	2.9222252E+000	7.1108795E+001	-4.448564789852953E-006
1.9954350E+005	3.4024587E+000	1.0601374E+000	3.5637925E+000	-1.7305979E+001	6.102582992235111E+002	4.5951653E-001	-1.2234853E-003	7.5235081E-001	6.6576339E-002	1.000000000000000E+000	38	1.4539856E-002	4.0798830E-003	0	-2.031684551591105E-005	-1	-1	-1	0	0	0	0	0	0	-1	-1	-1	0	0	0	0	0	0	2.6789713E-001	8.3471328E-002	2.8059995E-001	1.7305979E+001	6.6576324E+001	2.1367346E+002	2.2380518E+002	-7.2694023E+001	0.0000000E+000	0.0000000E+000	0.0000000E+000	7.2694023E+001	0.0000000E+000	0.0000000E+000	0.0000000E+000	-7.2694023E+001	0.0000000E+000	0.0000000E+000	0.0000000E+000	-1.7305979E+001	0.0000000E+000	0.0000000E+000	0.0000000E+000	1.7305979E+001	3.2094507E+000	7.2694023E+001	-2.656103320963062E-007
1.5848613E+005	3.3991301E+000	1.0058539E+000	3.5448310E+000	-1.6484282E+001	6.114053177046735E+002	4.5950747E-001	-1.7764751E-003	9.9837565E-001	8.0384575E-002	1.000000000000000E+000	38	1.4534182E-002	4.1001057E-003	0	-2.433368570083338E-005	-1	-1	-1	0	0	0	0	0	0	-1	-1	-1	0	0	0	0	0	0	2.7050588E-001	8.0046773E-002	2.8210089E-001	1.6484282E+001	8.0384590E+001	2.7164743E+002	2.8329138E+002	-7.3515717E+001	0.0000000E+000	0.0000000E+000	0.0000000E+000	7.3515717E+001	0.0000000E+000	0.0000000E+000	0.0000000E+000	-7.3515717E+001	0.0000000E+000	0.0000000E+000	0.0000000E+000	-1.6484282E+001	0.0000000E+000	0.0000000E+000	0.0000000E+000	1.6484282E+001	3.3793478E+000	7.3515717E+001	-4.016840184922330E-006
1.2590929E+005	3.4070930E+000	1.0064400E+000	3.5526335E+000	-1.6456905E+001	6.125533144791989E+002	4.5951116E-001	-9.5722231E-004	1.2559561E+000	1.0079743E-001	1.000000000000000E+000	38	1.4591170E-002	4.1071419E-003	0	-2.337984251044691E-005	-1	-1	-1	0	0	0	0	0	0	-1	-1	-1	0	0	0	0	0	0	2.6994991E-001	7.9742000E-002	2.8148133E-001	1.6456905E+001	1.0079746E+002	3.4122870E+002	3.5580493E+002	-7.3543091E+001	0.0000000E+000	0.0000000E+000	0.0000000E+000	7.3543091E+001	0.0000000E+000	0.0000000E+000	0.0000000E+000	-7.3543091E+001	0.0000000E+000	0.0000000E+000	0.0000000E+000	-1.6456905E+001	0.0000000E+000	0.0000000E+000	0.0000000E+000	1.6456905E+001	3.3852916E+000	7.3543091E+001	9.538431903864760E-007
1.0000371E+005	3.4118302E+000	1.0536910E+000	3.5708332E+000	-1.7162495E+001	6.136993132803036E+002	4.5949143E-001	-8.4922690E-004	1.5103956E+000	1.3151586E-001	1.000000000000000E+000	38	1.4546466E-002	4.0736897E-003	0	-3.071051499369140E-005	4.8618791E-001	3.3556867E-001	8.9242172E+000	2.7650540E-005	2.3334391E-005	2.9896762E-005	2.5519084E-005	3.0224992E-005	2.9474786E-005	7.0974030E-002	5.4168746E-002	7.0787334E-001	1.9907025E-006	1.3028962E-006	1.0860147E-006	3.5631084E-007	9.2603472E-007	3.6479949E-007	2.6757666E-001	8.2636923E-002	2.8004667E-001	1.7162495E+001	1.3151584E+002	4.2584573E+002	4.4569159E+002	-7.2837509E+001	0.0000000E+000	0.0000000E+000	0.0000000E+000	7.2837509E+001	0.0000000E+000	0.0000000E+000	0.0000000E+000	-7.2837509E+001	0.0000000E+000	0.0000000E+000	0.0000000E+000	-1.7162495E+001	0.0000000E+000	0.0000000E+000	0.0000000E+000	1.7162495E+001	3.2379797E+000	7.2837509E+001	-7.330672483244498E-006
7.9433273E+004	3.4386449E+000	1.1553495E+000	3.6275489E+000	-1.8571823E+001	6.148463144547568E+002	4.5950788E-001	-1.6776436E-004	1.7342204E+000	1.7591566E-001	1.000000000000000E+000	38	1.4569838E-002	4.0164413E-003	0	-2.814843249111436E-005	4.6468413E-001	2.8640664E-001	8.9969187E+000	3.6637575E-005	1.4619972E-005	2.8539405E-005	3.3074273E-005	2.4512568E-005	1.6129523E-005	6.5356039E-002	5.3092659E-002	7.2672009E-001	1.5057705E-006	1.2148305E-006	7.9173054E-007	7.4348168E-007	7.6333293E-007	6.5408614E-007	2.6131284E-001	8.7798454E-002	2.7566823E-001	1.8571823E+001	1.7591568E+002	5.2357446E+002	5.5233734E+002	-7.1428177E+001	0.0000000E+000	0.0000000E+000	0.0000000E+000	7.1428177E+001	0.0000000E+000	0.0000000E+000	0.0000000E+000	-7.1428177E+001	0.0000000E+000	0.0000000E+000	0.0000000E+000	-1.8571823E+001	0.0000000E+000	0.0000000E+000	0.0000000E+000	1.8571823E+001	2.9762812E+000	7.1428177E+001	2.562082502577043E-006
6.3093828E+004	3.4728084E+000	1.3066103E+000	3.7104754E+000	-2.0618320E+001	6.159933063226199E+002	4.5951977E-001	-1.0670885E-003	1.9305772E+000	2.3939784E-001	1.000000000000000E+000	38	1.4606609E-002	3.9365869E-003	0	-1.964220497530833E-005	5.1176608E-001	3.4944791E-001	8.9602079E+000	2.9903769E-005	3.5996589E-005	2.9818677E-005	2.9010422E-005	1.9459603E-005	1.9450199E-005	6.3129038E-002	5.1241402E-002	7.3339957E-001	1.2175144E-006	1.3573259E-006	8.3494700E-007	8.0858814E-007	7.3767814E-007	7.2993788E-007	2.5224447E-001	9.4904527E-002	2.6950723E-001	2.0618320E+001	2.3939778E+002	6.3628979E+002	6.7983527E+002	-6.9381683E+001	0.0000000E+000	0.0000000E+000	0.0000000E+000	6.9381683E+001	0.0000000E+000	0.0000000E+000	0.0000000E+000	-6.9381683E+001	0.0000000E+000	0.0000000E+000	0.0000000E+000	-2.0618320E+001	0.0000000E+000	0.0000000E+000	0.0000000E+000	2.0618320E+001	2.6578760E+000	6.9381683E+001	8.506227515806030E-006
5.0122477E+004	3.5038872E+000	1.5099683E+000	3.8153937E+000	-2.3313187E+001	6.171403054437396E+002	4.5950595E-001	-1.0186686E-003	2.1029055E+000	3.2936445E-001	1.000000000000000E+000	38	1.4577509E-002	3.8207090E-003	0	-1.398704339517280E-005	4.8992363E-001	3.0030733E-001	9.1958103E+000	3.5190922E-005	2.9559333E-005	1.9684989E-005	2.9788409E-005	2.3973314E-005	2.5754429E-005	5.3626467E-002	6.9586016E-002	7.5187039E-001	7.1546009E-007	1.5260331E-006	3.0761879E-007	5.8182150E-007	6.8526333E-007	5.1494106E-007	2.4069738E-001	1.0372635E-001	2.6209614E-001	2.3313187E+001	3.2936444E+002	7.6429144E+002	8.3223938E+002	-6.6686813E+001	0.0000000E+000	0.0000000E+000	0.0000000E+000	6.6686813E+001	0.0000000E+000	0.0000000E+000	0.0000000E+000	-6.6686813E+001	0.0000000E+000	0.0000000E+000	0.0000000E+000	-2.3313187E+001	0.0000000E+000	0.0000000E+000	0.0000000E+000	2.3313187E+001	2.3205037E+000	6.6686813E+001	5.655161580135528E-006
3.9814063E+004	3.5571105E+000	1.7907653E+000	3.9824460E+000	-2.6722172E+001	6.182873194448912E+002	4.5953321E-001	-1.1955589E-003	2.2322609E+000	4.5135945E-001	1.000000000000000E+000	38	1.4644973E-002	3.6773814E-003	0	-9.219637323067419E-006	4.5788080E-001	3.3624771E-001	9.1018238E+000	2.8229741E-005	3.3638564E-005	1.6085834E-005	2.4258356E-005	2.1779162E-005	3.0329449E-005	5.6828111E-002	8.4292002E-002	7.8320175E-001	7.2986836E-007	1.0205197E-006	1.1474658E-006	8.5518604E-007	4.3996400E-007	6.5972131E-007	2.2428364E-001	1.1291169E-001	2.5110197E-001	2.6722172E+001	4.5135944E+002	8.9656384E+002	1.0037689E+003	-6.3277828E+001	0.0000000E+000	0.0000000E+000	0.0000000E+000	6.3277828E+001	0.0000000E+000	0.0000000E+000	0.0000000E+000	-6.3277828E+001	0.0000000E+000	0.0000000E+000	0.0000000E+000	-2.6722172E+001	0.0000000E+000	0.0000000E+000	0.0000000E+000	2.6722172E+001	1.9863634E+000	6.3277832E+001	4.767406072105385E-006
3.1621143E+004	3.6137857E+000	2.1500115E+000	4.2049966E+000	-3.0750410E+001	6.194353097927669E+002	4.5953086E-001	-1.9906107E-003	2.3410020E+000	6.1200088E-001	1.000000000000000E+000	38	1.4681184E-002	3.4913665E-003	0	-1.066808576263267E-005	4.0048730E-001	3.0194360E-001	9.0632172E+000	2.2522385E-005	3.5946552E-005	1.5201000E-005	2.0123296E-005	1.2028770E-005	1.6708373E-005	6.3235410E-002	1.1632194E-001	8.2197565E-001	6.2666624E-007	1.1957861E-006	7.5582187E-007	6.1819821E-007	6.9031029E-007	4.4019984E-007	2.0437656E-001	1.2159326E-001	2.3781233E-001	3.0750410E+001	6.1200092E+002	1.0286643E+003	1.1969525E+003	-5.9249588E+001	0.0000000E+000	0.0000000E+000	0.0000000E+000	5.9249588E+001	0.0000000E+000	0.0000000E+000	0.0000000E+000	-5.9249588E+001	0.0000000E+000	0.0000000E+000	0.0000000E+000	-3.0750410E+001	0.0000000E+000	0.0000000E+000	0.0000000E+000	3.0750410E+001	1.6808215E+000	5.9249588E+001	-1.448448439565255E-006
2.5116906E+004	3.6763585E+000	2.6006358E+000	4.5032120E+000	-3.5275379E+001	6.205813108871953E+002	4.5952386E-001	-1.5232770E-003	2.4365451E+000	8.1262231E-001	1.000000000000000E+000	38	1.4701749E-002	3.2647250E-003	0	-7.387292208253509E-006	4.5183411E-001	3.0915812E-001	8.9876394E+000	2.9066352E-005	1.1486430E-005	2.0440953E-005	2.6281470E-005	3.7521469E-005	2.5080759E-005	7.0205882E-002	1.2837894E-001	8.9841908E-001	6.3542484E-007	1.4199145E-006	5.8955106E-007	1.1754003E-006	7.2743978E-007	4.7551313E-007	1.8128967E-001	1.2824333E-001	2.2206372E-001	3.5275379E+001	8.1262238E+002	1.1487542E+003	1.4071216E+003	-5.4724621E+001	0.0000000E+000	0.0000000E+000	0.0000000E+000	5.4724621E+001	0.0000000E+000	0.0000000E+000	0.0000000E+000	-5.4724621E+001	0.0000000E+000	0.0000000E+000	0.0000000E+000	-3.5275379E+001	0.0000000E+000	0.0000000E+000	0.0000000E+000	3.5275379E+001	1.4136384E+000	5.4724625E+001	3.280793554379165E-006
1.9948781E+004	3.7752163E+000	3.1618612E+000	4.9243908E+000	-3.9947224E+001	6.217272974482767E+002	4.5950037E-001	-9.9823752E-004	2.5232539E+000	1.0402591E+000	1.000000000000000E+000	38	1.4757023E-002	2.9967206E-003	0	-9.328230098200342E-006	4.5673645E-001	2.1897095E-001	9.1159048E+000	9.7580960E-006	3.0640833E-005	3.1238025E-005	1.7147377E-005	3.0637420E-005	2.8353106E-005	6.4888865E-002	1.2525748E-001	9.6984065E-001	6.9746494E-007	1.1510274E-006	4.4693297E-007	3.3354902E-007	3.4537086E-007	1.1348151E-006	1.5568143E-001	1.3038805E-001	2.0307080E-001	3.9947224E+001	1.0402593E+003	1.2420543E+003	1.6201353E+003	-5.0052776E+001	0.0000000E+000	0.0000000E+000	0.0000000E+000	5.0052776E+001	0.0000000E+000	0.0000000E+000	0.0000000E+000	-5.0052776E+001	0.0000000E+000	0.0000000E+000	0.0000000E+000	-3.9947224E+001	0.0000000E+000	0.0000000E+000	0.0000000E+000	3.9947224E+001	1.1939855E+000	5.0052780E+001	-1.940937889946832E-006
1.5847683E+004	3.8796546E+000	3.8856361E+000	5.4908915E+000	-4.5044136E+001	6.228742992627813E+002	4.5951074E-001	-5.1041134E-004	2.5845933E+000	1.2942876E+000	1.000000000000000E+000	38	1.4838938E-002	2.7024641E-003	0	-9.497227791399281E-006	4.6390244E-001	3.1827360E-001	9.0321922E+000	1.6668766E-005	1.7811744E-005	2.4657738E-005	2.0863705E-005	3.4149482E-005	2.9592949E-005	9.9195980E-002	1.4285241E-001	1.0803584E+000	1.8100318E-006	9.4467754E-007	7.1053751E-007	9.8637918E-007	7.0214372E-007	7.9319449E-007	1.2867890E-001	1.2887730E-001	1.8211979E-001	4.5044136E+001	1.2942876E+003	1.2922952E+003	1.8289907E+003	-4.4955864E+001	0.0000000E+000	0.0000000E+000	0.0000000E+000	4.4955864E+001	0.0000000E+000	0.0000000E+000	0.0000000E+000	-4.4955864E+001	0.0000000E+000	0.0000000E+000	0.0000000E+000	-4.5044136E+001	0.0000000E+000	0.0000000E+000	0.0000000E+000	4.5044136E+001	9.9846065E-001	4.4955872E+001	-1.689976931989397E-007
1.2590930E+004	4.0239072E+000	4.7514381E+000	6.2263951E+000	-4.9739338E+001	6.240223037439428E+002	4.5948616E-001	-8.7163161E-004	2.6603408E+000	1.5492235E+000	1.000000000000000E+000	38	1.4806852E-002	2.3780777E-003	0	-9.095040855715827E-006	5.1668805E-001	3.9793515E-001	9.2623978E+000	4.3124692E-005	2.5272077E-005	1.6332566E-005	3.0783187E-005	2.3970548E-005	2.2542523E-005	1.2775293E-001	1.6584574E-001	1.2136090E+000	2.5720783E-006	9.6514725E-007	5.5713400E-007	3.6927494E-007	5.0470737E-007	7.6787296E-007	1.0379457E-001	1.2256084E-001	1.6060658E-001	4.9739338E+001	1.5492234E+003	1.3120094E+003	2.0301384E+003	-4.0260662E+001	0.0000000E+000	0.0000000E+000	0.0000000E+000	4.0260662E+001	0.0000000E+000	0.0000000E+000	0.0000000E+000	-4.0260662E+001	0.0000000E+000	0.0000000E+000	0.0000000E+000	-4.9739338E+001	0.0000000E+000	0.0000000E+000	0.0000000E+000	4.9739338E+001	8.4688193E-001	4.0260666E+001	4.021869356834538E-007
