EC-Lab ASCII FILE
Nb header lines : 67                          

Potentio Electrochemical Impedance Spectroscopy

Run on channel : 15 (SN 19485)
User : 
Electrode connection : standard
Potential control : Ewe
Ewe ctrl range : min = -1.00 V, max = 1.00 V
Ewe,I filtering : 50 kHz
Safety Limits :
	Do not start on E overload
Channel : Floating
Acquisition started on : 02/23/2024 11:36:28.401
Loaded Setting File :  NONE
Saved on :
	File : 240223-OCV-EIS-Fe2Fe3_5mM-HCl1M-0RPM-Ag_AgCl_BLF8-GC-RDE-5minVsOCV-5ppf-3scans-14p1mVAmplitude-1MHz_100mHz_02_PEIS_C15.mpr
	Directory : C:\Data\mathias\RDE-RPM-variation\
	Host : 192.168.0.1
Device : VMP-300 (SN 0826)
Address : USB
EC-Lab for windows v11.52 (software)
Internet server v11.52 (firmware)
Command interpretor v11.52 (firmware)
Electrode material : 
Initial state : 
Electrolyte : 
Comments : 
Cable : special
Reference electrode : SCE Saturated Calomel Electrode (0.241 V)
Electrode surface area : 0.001 cm²
Characteristic mass : 0.001 g
Equivalent Weight : 0.000 g/eq.
Density : 0.000 g/cm3
Volume (V) : 0.001 cm³
Record EIS quality indicators
Cycle Definition : Charge/Discharge alternance
Mode                Single sine         
E (V)               0.0000              
vs.                 Ref                 
tE (h:m:s)          0:05:0.0000         
record              0                   
dI                  0.000               
unit dI             mA                  
dt (s)              0.000               
fi                  1.000               
unit fi             MHz                 
ff                  100.000             
unit ff             mHz                 
Nd                  10                  
Points              per decade          
spacing             Logarithmic         
Va (mV)             14.1                
pw                  0.10                
Na                  5                   
corr                0                   
E range min (V)     -1.000              
E range max (V)     1.000               
I Range             Auto                
Bandwidth           8                   
nc cycles           2                   
goto Ns'            0                   
nr cycles           0                   
inc. cycle          1                   

freq/Hz	Re(Z)/Ohm	-Im(Z)/Ohm	|Z|/Ohm	Phase(Z)/deg	time/s	<Ewe>/V	<I>/mA	Cs/µF	Cp/µF	cycle number	I Range	|Ewe|/V	|I|/A	Ns	(Q-Qo)/mA.h	THD Ewe/%	NSD Ewe/%	NSR Ewe/%	|Ewe h2|/V	|Ewe h3|/V	|Ewe h4|/V	|Ewe h5|/V	|Ewe h6|/V	|Ewe h7|/V	THD I/%	NSD I/%	NSR I/%	|I h2|/A	|I h3|/A	|I h4|/A	|I h5|/A	|I h6|/A	|I h7|/A	Re(Y)/Ohm-1	Im(Y)/Ohm-1	|Y|/Ohm-1	Phase(Y)/deg	Re(C)/nF	Im(C)/nF	|C|/nF	Phase(C)/deg	Re(M)	Im(M)	|M|	Phase(M)/deg	Re(Permittivity)	Im(Permittivity)	|Permittivity|	Phase(Permittivity)/deg	Re(Resistivity)/Ohm.cm	Im(Resistivity)/Ohm.cm	|Resistivity|/Ohm.cm	Phase(Resistivity)/deg	Re(Conductivity)/mS/cm	Im(Conductivity)/mS/cm	|Conductivity|/mS/cm	Phase(Conductivity)/deg	Tan(Delta)	Loss Angle(Delta)/deg	dq/mA.h	
1.0000186E+006	4.1686687E+000	3.9742901E+000	5.7595816E+000	-4.3632568E+001	3.633979066014872E+002	-1.6279529E-004	-2.2488700E-002	4.0045388E-002	1.9067325E-002	1.000000000000000E+000	38	1.1659756E-002	2.0244103E-003	0	-1.844228493683946E-003	-1	-1	-1	0	0	0	0	0	0	-1	-1	-1	0	0	0	0	0	0	1.2566534E-001	1.1980577E-001	1.7362373E-001	4.3632568E+001	1.9067324E+001	1.9999886E+001	2.7632559E+001	-4.6367432E+001	0.0000000E+000	0.0000000E+000	0.0000000E+000	4.6367432E+001	0.0000000E+000	0.0000000E+000	0.0000000E+000	-4.6367432E+001	0.0000000E+000	0.0000000E+000	0.0000000E+000	-4.3632568E+001	0.0000000E+000	0.0000000E+000	0.0000000E+000	4.3632568E+001	1.0489091E+000	4.6367432E+001	-1.844228493683946E-003
7.9433269E+005	4.1601257E+000	3.0680697E+000	5.1691098E+000	-3.6408569E+001	3.650749086278374E+002	-1.5692340E-004	-2.2907622E-002	6.5305904E-002	2.3006545E-002	1.000000000000000E+000	38	1.4668262E-002	2.8376766E-003	0	-1.853364503409571E-003	-1	-1	-1	0	0	0	0	0	0	-1	-1	-1	0	0	0	0	0	0	1.5569510E-001	1.1482427E-001	1.9345690E-001	3.6408569E+001	2.3006546E+001	3.1195549E+001	3.8761623E+001	-5.3591431E+001	0.0000000E+000	0.0000000E+000	0.0000000E+000	5.3591431E+001	0.0000000E+000	0.0000000E+000	0.0000000E+000	-5.3591431E+001	0.0000000E+000	0.0000000E+000	0.0000000E+000	-3.6408569E+001	0.0000000E+000	0.0000000E+000	0.0000000E+000	3.6408569E+001	1.3559424E+000	5.3591431E+001	-9.136009725625553E-006
6.3095681E+005	4.0925894E+000	2.3765023E+000	4.7325521E+000	-3.0143063E+001	3.668878944205935E+002	-1.6698940E-004	-2.2557566E-002	1.0614078E-001	2.6765043E-002	1.000000000000000E+000	38	1.4586222E-002	3.0821050E-003	0	-1.869123699035586E-003	-1	-1	-1	0	0	0	0	0	0	-1	-1	-1	0	0	0	0	0	0	1.8272895E-001	1.0610783E-001	2.1130249E-001	3.0143063E+001	2.6765041E+001	4.6092243E+001	5.3299740E+001	-5.9856937E+001	0.0000000E+000	0.0000000E+000	0.0000000E+000	5.9856937E+001	0.0000000E+000	0.0000000E+000	0.0000000E+000	-5.9856937E+001	0.0000000E+000	0.0000000E+000	0.0000000E+000	-3.0143063E+001	0.0000000E+000	0.0000000E+000	0.0000000E+000	3.0143063E+001	1.7221062E+000	5.9856934E+001	-1.575919562601491E-005
5.0120622E+005	4.0169616E+000	1.8705301E+000	4.4311242E+000	-2.4969416E+001	3.687018901600968E+002	-1.8272216E-004	-2.2512861E-002	1.6976140E-001	3.0251056E-002	1.000000000000000E+000	38	1.4578409E-002	3.2900025E-003	0	-1.882472793379533E-003	-1	-1	-1	0	0	0	0	0	0	-1	-1	-1	0	0	0	0	0	0	2.0458312E-001	9.5265761E-002	2.2567636E-001	2.4969416E+001	3.0251051E+001	6.4964104E+001	7.1662132E+001	-6.5030586E+001	0.0000000E+000	0.0000000E+000	0.0000000E+000	6.5030586E+001	0.0000000E+000	0.0000000E+000	0.0000000E+000	-6.5030586E+001	0.0000000E+000	0.0000000E+000	0.0000000E+000	-2.4969416E+001	0.0000000E+000	0.0000000E+000	0.0000000E+000	2.4969416E+001	2.1474991E+000	6.5030586E+001	-1.334909434394732E-005
3.9810347E+005	3.9380722E+000	1.5083736E+000	4.2170610E+000	-2.0958008E+001	3.705149031528854E+002	-1.7571326E-004	-2.3024889E-002	2.6504233E-001	3.3908874E-002	1.000000000000000E+000	38	1.4566958E-002	3.4542915E-003	0	-1.900244765780113E-003	-1	-1	-1	0	0	0	0	0	0	-1	-1	-1	0	0	0	0	0	0	2.2144398E-001	8.4818222E-002	2.3713197E-001	2.0958008E+001	3.3908871E+001	8.8529503E+001	9.4801292E+001	-6.9041992E+001	0.0000000E+000	0.0000000E+000	0.0000000E+000	6.9041992E+001	0.0000000E+000	0.0000000E+000	0.0000000E+000	-6.9041992E+001	0.0000000E+000	0.0000000E+000	0.0000000E+000	-2.0958008E+001	0.0000000E+000	0.0000000E+000	0.0000000E+000	2.0958008E+001	2.6108069E+000	6.9041992E+001	-1.777197240057930E-005
3.1622997E+005	3.8747334E+000	1.2640892E+000	4.0757184E+000	-1.8068346E+001	3.723279049990233E+002	-1.6639290E-004	-2.2546368E-002	3.9814326E-001	3.8298916E-002	1.000000000000000E+000	38	1.4568635E-002	3.5744950E-003	0	-1.914146995522573E-003	-1	-1	-1	0	0	0	0	0	0	-1	-1	-1	0	0	0	0	0	0	2.3325635E-001	7.6097324E-002	2.4535552E-001	1.8068346E+001	3.8298912E+001	1.1739527E+002	1.2348464E+002	-7.1931656E+001	0.0000000E+000	0.0000000E+000	0.0000000E+000	7.1931656E+001	0.0000000E+000	0.0000000E+000	0.0000000E+000	-7.1931656E+001	0.0000000E+000	0.0000000E+000	0.0000000E+000	-1.8068346E+001	0.0000000E+000	0.0000000E+000	0.0000000E+000	1.8068346E+001	3.0652373E+000	7.1931656E+001	-1.390222974246083E-005
2.5118764E+005	3.8454254E+000	1.1075368E+000	4.0017414E+000	-1.6067148E+001	3.741408888450824E+002	-1.4452734E-004	-2.2743735E-002	5.7208914E-001	4.3820970E-002	1.000000000000000E+000	38	1.4591058E-002	3.6461770E-003	0	-1.925809735812467E-003	-1	-1	-1	0	0	0	0	0	0	-1	-1	-1	0	0	0	0	0	0	2.4012996E-001	6.9160819E-002	2.4989121E-001	1.6067148E+001	4.3820969E+001	1.5214870E+002	1.5833351E+002	-7.3932854E+001	0.0000000E+000	0.0000000E+000	0.0000000E+000	7.3932854E+001	0.0000000E+000	0.0000000E+000	0.0000000E+000	-7.3932854E+001	0.0000000E+000	0.0000000E+000	0.0000000E+000	-1.6067148E+001	0.0000000E+000	0.0000000E+000	0.0000000E+000	1.6067148E+001	3.4720521E+000	7.3932854E+001	-1.166274028989315E-005
1.9954350E+005	3.8270779E+000	1.0192584E+000	3.9604814E+000	-1.4913305E+001	3.759549030645867E+002	-1.5000772E-004	-2.3274381E-002	7.8252512E-001	5.1828768E-002	1.000000000000000E+000	38	1.4570945E-002	3.6790844E-003	0	-1.936184743611634E-003	-1	-1	-1	0	0	0	0	0	0	-1	-1	-1	0	0	0	0	0	0	2.4398960E-001	6.4981289E-002	2.5249454E-001	1.4913305E+001	5.1828773E+001	1.9460493E+002	2.0138844E+002	-7.5086693E+001	0.0000000E+000	0.0000000E+000	0.0000000E+000	7.5086693E+001	0.0000000E+000	0.0000000E+000	0.0000000E+000	-7.5086693E+001	0.0000000E+000	0.0000000E+000	0.0000000E+000	-1.4913305E+001	0.0000000E+000	0.0000000E+000	0.0000000E+000	1.4913305E+001	3.7547672E+000	7.5086693E+001	-1.037500779916688E-005
1.5848613E+005	3.8191085E+000	9.9088371E-001	3.9455595E+000	-1.4544920E+001	3.777679047240526E+002	-1.7054977E-004	-2.3386100E-002	1.0134590E+000	6.3919649E-002	1.000000000000000E+000	38	1.4575363E-002	3.6941182E-003	0	-1.949866308096292E-003	-1	-1	-1	0	0	0	0	0	0	-1	-1	-1	0	0	0	0	0	0	2.4532668E-001	6.3651033E-002	2.5344947E-001	1.4544920E+001	6.3919659E+001	2.4636198E+002	2.5451906E+002	-7.5455078E+001	0.0000000E+000	0.0000000E+000	0.0000000E+000	7.5455078E+001	0.0000000E+000	0.0000000E+000	0.0000000E+000	-7.5455078E+001	0.0000000E+000	0.0000000E+000	0.0000000E+000	-1.4544920E+001	0.0000000E+000	0.0000000E+000	0.0000000E+000	1.4544920E+001	3.8542449E+000	7.5455078E+001	-1.368156448465821E-005
1.2590929E+005	3.8287735E+000	1.0078772E+000	3.9592073E+000	-1.4747835E+001	3.795818917168654E+002	-1.6348493E-004	-2.3023020E-002	1.2541652E+000	8.1274353E-002	1.000000000000000E+000	38	1.4595656E-002	3.6865096E-003	0	-1.960109316906504E-003	-1	-1	-1	0	0	0	0	0	0	-1	-1	-1	0	0	0	0	0	0	2.4425484E-001	6.4297065E-002	2.5257581E-001	1.4747835E+001	8.1274338E+001	3.0874899E+002	3.1926706E+002	-7.5252167E+001	0.0000000E+000	0.0000000E+000	0.0000000E+000	7.5252167E+001	0.0000000E+000	0.0000000E+000	0.0000000E+000	-7.5252167E+001	0.0000000E+000	0.0000000E+000	0.0000000E+000	-1.4747835E+001	0.0000000E+000	0.0000000E+000	0.0000000E+000	1.4747835E+001	3.7988491E+000	7.5252167E+001	-1.024300881021217E-005
1.0000371E+005	3.8486011E+000	1.0632042E+000	3.9927602E+000	-1.5443203E+001	3.813949026829796E+002	-1.7910586E-004	-2.2553815E-002	1.4968811E+000	1.0613881E-001	1.000000000000000E+000	38	1.4577908E-002	3.6510851E-003	0	-1.979526545735736E-003	5.0829720E-001	3.4884441E-001	8.9050245E+000	1.5968690E-005	3.4633296E-005	2.4903873E-005	2.8209713E-005	3.1796779E-005	2.9201130E-005	7.2292209E-002	4.0715255E-002	7.9506427E-001	1.5441243E-006	1.2394821E-006	1.0366953E-006	6.6963014E-007	5.3551270E-007	6.3153590E-007	2.4141067E-001	6.6691466E-002	2.5045332E-001	1.5443203E+001	1.0613884E+002	3.8420273E+002	3.9859402E+002	-7.4556793E+001	0.0000000E+000	0.0000000E+000	0.0000000E+000	7.4556793E+001	0.0000000E+000	0.0000000E+000	0.0000000E+000	-7.4556793E+001	0.0000000E+000	0.0000000E+000	0.0000000E+000	-1.5443203E+001	0.0000000E+000	0.0000000E+000	0.0000000E+000	1.5443203E+001	3.6198137E+000	7.4556793E+001	-1.941722882923191E-005
7.9433273E+004	3.8720841E+000	1.1760479E+000	4.0467424E+000	-1.6894836E+001	3.832089107958018E+002	-1.6518125E-004	-2.2471888E-002	1.7036983E+000	1.4389032E-001	1.000000000000000E+000	38	1.4542527E-002	3.5936378E-003	0	-1.987717455017186E-003	5.2323699E-001	2.4846339E-001	8.9474659E+000	4.0236577E-005	2.0774096E-005	2.3746050E-005	3.1491232E-005	2.4287670E-005	2.7350796E-005	6.6736363E-002	2.2732304E-002	8.0139744E-001	1.5304404E-006	1.0401176E-006	6.9122387E-007	7.7924489E-007	6.9103157E-007	4.2090332E-007	2.3644693E-001	7.1814790E-002	2.4711235E-001	1.6894836E+001	1.4389032E+002	4.7375229E+002	4.9512186E+002	-7.3105164E+001	0.0000000E+000	0.0000000E+000	0.0000000E+000	7.3105164E+001	0.0000000E+000	0.0000000E+000	0.0000000E+000	-7.3105164E+001	0.0000000E+000	0.0000000E+000	0.0000000E+000	-1.6894836E+001	0.0000000E+000	0.0000000E+000	0.0000000E+000	1.6894836E+001	3.2924545E+000	7.3105164E+001	-8.190909281450415E-006
6.3093828E+004	3.9012923E+000	1.3308666E+000	4.1220489E+000	-1.8836296E+001	3.850219048019499E+002	-1.5520847E-004	-2.3121711E-002	1.8953907E+000	1.9757932E-001	1.000000000000000E+000	38	1.4583945E-002	3.5380330E-003	0	-2.000134843505880E-003	5.2823508E-001	2.7249959E-001	8.8112526E+000	3.4257908E-005	3.6906189E-005	2.5416595E-005	3.7196725E-005	1.8111146E-005	2.5216419E-005	6.3067600E-002	4.2583205E-002	8.0833596E-001	1.0263116E-006	1.2363734E-006	8.0727466E-007	7.7504365E-007	4.8649338E-007	7.0630676E-007	2.2960545E-001	7.8326419E-002	2.4259780E-001	1.8836296E+001	1.9757933E+002	5.7918250E+002	6.1195587E+002	-7.1163704E+001	0.0000000E+000	0.0000000E+000	0.0000000E+000	7.1163704E+001	0.0000000E+000	0.0000000E+000	0.0000000E+000	-7.1163704E+001	0.0000000E+000	0.0000000E+000	0.0000000E+000	-1.8836296E+001	0.0000000E+000	0.0000000E+000	0.0000000E+000	1.8836296E+001	2.9313924E+000	7.1163704E+001	-1.241738848869415E-005
5.0122477E+004	3.9395406E+000	1.5522066E+000	4.2343035E+000	-2.1504787E+001	3.868359036614420E+002	-1.4161938E-004	-2.2518443E-002	2.0456817E+000	2.7489901E-001	1.000000000000000E+000	38	1.4581261E-002	3.4436032E-003	0	-2.012442595964414E-003	4.6228144E-001	1.9748159E-001	8.9960556E+000	2.5083398E-005	2.5034869E-005	1.7635954E-005	3.0786534E-005	2.6659905E-005	2.3134697E-005	5.7514913E-002	3.2472771E-002	8.3954799E-001	9.1462869E-007	9.7662235E-007	8.9811635E-007	6.6607384E-007	4.5194241E-007	4.9487323E-007	2.1972610E-001	8.6573623E-002	2.3616636E-001	2.1504787E+001	2.7489905E+002	6.9770081E+002	7.4990393E+002	-6.8495209E+001	0.0000000E+000	0.0000000E+000	0.0000000E+000	6.8495209E+001	0.0000000E+000	0.0000000E+000	0.0000000E+000	-6.8495209E+001	0.0000000E+000	0.0000000E+000	0.0000000E+000	-2.1504787E+001	0.0000000E+000	0.0000000E+000	0.0000000E+000	2.1504787E+001	2.5380259E+000	6.8495209E+001	-1.230775245853388E-005
3.9814063E+004	3.9896777E+000	1.8419546E+000	4.3943515E+000	-2.4781828E+001	3.886488999875146E+002	-1.5735214E-004	-2.3622576E-002	2.1702249E+000	3.8130543E-001	1.000000000000000E+000	38	1.4636201E-002	3.3306852E-003	0	-2.022146764205006E-003	5.2269328E-001	2.7753860E-001	8.9914608E+000	2.6285697E-005	3.1232266E-005	2.5430900E-005	2.6245296E-005	1.7023674E-005	4.0171788E-005	5.8270458E-002	7.6835923E-002	8.6402982E-001	7.3014814E-007	8.2974020E-007	7.7826763E-007	6.7279075E-007	7.1150333E-007	6.2024060E-007	2.0660853E-001	9.5387034E-002	2.2756487E-001	2.4781828E+001	3.8130548E+002	8.2590845E+002	9.0968048E+002	-6.5218170E+001	0.0000000E+000	0.0000000E+000	0.0000000E+000	6.5218170E+001	0.0000000E+000	0.0000000E+000	0.0000000E+000	-6.5218170E+001	0.0000000E+000	0.0000000E+000	0.0000000E+000	-2.4781828E+001	0.0000000E+000	0.0000000E+000	0.0000000E+000	2.4781828E+001	2.1660023E+000	6.5218170E+001	-9.704168240591299E-006
3.1621143E+004	4.0389519E+000	2.2120445E+000	4.6050267E+000	-2.8708546E+001	3.904629115670105E+002	-1.5401546E-004	-2.3395436E-002	2.2753527E+000	5.2501547E-001	1.000000000000000E+000	38	1.4654660E-002	3.1823181E-003	0	-2.033160589862085E-003	4.4979343E-001	2.6142818E-001	8.8470325E+000	2.1313675E-005	3.3389933E-005	2.3004717E-005	2.2350414E-005	1.8346440E-005	2.7232543E-005	5.5532113E-002	6.1596826E-002	9.0326434E-001	3.7928109E-007	1.1413765E-006	6.8339216E-007	6.4150368E-007	4.0861178E-007	5.4815479E-007	1.9046025E-001	1.0431087E-001	2.1715401E-001	2.8708546E+001	5.2501550E+002	9.5862091E+002	1.0929755E+003	-6.1291454E+001	0.0000000E+000	0.0000000E+000	0.0000000E+000	6.1291454E+001	0.0000000E+000	0.0000000E+000	0.0000000E+000	-6.1291454E+001	0.0000000E+000	0.0000000E+000	0.0000000E+000	-2.8708546E+001	0.0000000E+000	0.0000000E+000	0.0000000E+000	2.8708546E+001	1.8258909E+000	6.1291458E+001	-1.101382565707899E-005
2.5116906E+004	4.1012001E+000	2.6795599E+000	4.8989677E+000	-3.3158989E+001	3.922759079997777E+002	-1.8259167E-004	-2.3600262E-002	2.3647788E+000	7.0747048E-001	1.000000000000000E+000	38	1.4705212E-002	3.0016960E-003	0	-2.045770111257301E-003	4.9609965E-001	2.6002997E-001	8.8057384E+000	2.1092474E-005	2.0773512E-005	3.2220651E-005	3.1843509E-005	2.9527584E-005	1.9284395E-005	7.1585476E-002	6.6903293E-002	9.5848578E-001	1.0367038E-006	8.9165093E-007	8.1677297E-007	6.9360055E-007	8.4141328E-007	5.1885399E-007	1.7088416E-001	1.1164885E-001	2.0412463E-001	3.3158989E+001	7.0747034E+002	1.0828188E+003	1.2934492E+003	-5.6841011E+001	0.0000000E+000	0.0000000E+000	0.0000000E+000	5.6841011E+001	0.0000000E+000	0.0000000E+000	0.0000000E+000	-5.6841011E+001	0.0000000E+000	0.0000000E+000	0.0000000E+000	-3.3158989E+001	0.0000000E+000	0.0000000E+000	0.0000000E+000	3.3158989E+001	1.5305499E+000	5.6841011E+001	-1.260952139521630E-005
1.9948781E+004	4.1779599E+000	3.2736173E+000	5.3077226E+000	-3.8080280E+001	3.940888994192355E+002	-1.6799600E-004	-2.3054719E-002	2.4371140E+000	9.2707580E-001	1.000000000000000E+000	38	1.4718623E-002	2.7730581E-003	0	-2.057525097636001E-003	4.5172751E-001	2.5317395E-001	8.8612089E+000	2.2164078E-005	2.8054312E-005	3.1492626E-005	1.8515779E-005	2.7030246E-005	2.2211845E-005	6.3739710E-002	3.9072186E-002	1.0362024E+000	9.1323983E-007	7.4798908E-007	4.9083002E-007	6.4212350E-007	5.1106031E-007	5.6312228E-007	1.4830227E-001	1.1620144E-001	1.8840472E-001	3.8080280E+001	9.2707587E+002	1.1831821E+003	1.5031266E+003	-5.1919720E+001	0.0000000E+000	0.0000000E+000	0.0000000E+000	5.1919720E+001	0.0000000E+000	0.0000000E+000	0.0000000E+000	-5.1919720E+001	0.0000000E+000	0.0000000E+000	0.0000000E+000	-3.8080280E+001	0.0000000E+000	0.0000000E+000	0.0000000E+000	3.8080280E+001	1.2762518E+000	5.1919724E+001	-1.175498637870061E-005
1.5847683E+004	4.2798462E+000	4.0187011E+000	5.8708639E+000	-4.3197567E+001	3.959018990786863E+002	-2.0028171E-004	-2.3509033E-002	2.4990137E+000	1.1709437E+000	1.000000000000000E+000	38	1.4787191E-002	2.5187419E-003	0	-2.066846607135570E-003	4.7075757E-001	2.4681349E-001	8.8935356E+000	2.3614004E-005	2.5174393E-005	2.7753773E-005	3.2258587E-005	1.6848042E-005	2.8391414E-005	8.9959219E-002	3.9244916E-002	1.1382483E+000	1.2337455E-006	8.2227967E-007	5.5875699E-007	8.2059194E-007	6.6773805E-007	8.2697841E-007	1.2417214E-001	1.1659548E-001	1.7033269E-001	4.3197567E+001	1.1709437E+003	1.2470345E+003	1.7106152E+003	-4.6802433E+001	0.0000000E+000	0.0000000E+000	0.0000000E+000	4.6802433E+001	0.0000000E+000	0.0000000E+000	0.0000000E+000	-4.6802433E+001	0.0000000E+000	0.0000000E+000	0.0000000E+000	-4.3197567E+001	0.0000000E+000	0.0000000E+000	0.0000000E+000	4.3197567E+001	1.0649824E+000	4.6802429E+001	-9.321509499568472E-006
1.2590930E+004	4.4085817E+000	4.9406090E+000	6.6215715E+000	-4.8256977E+001	3.977149043381214E+002	-1.6760454E-004	-2.3641236E-002	2.5584791E+000	1.4243630E+000	1.000000000000000E+000	38	1.4760268E-002	2.2291185E-003	0	-2.079632519156439E-003	4.7760487E-001	2.6804402E-001	8.8012781E+000	1.5130308E-005	2.5708689E-005	3.1013755E-005	3.2582149E-005	2.2203880E-005	2.9907840E-005	1.4608185E-001	3.6746342E-002	1.2887911E+000	2.5673794E-006	1.0440839E-006	8.1256582E-007	8.0367289E-007	5.6307249E-007	9.1160229E-007	1.0054877E-001	1.1268299E-001	1.5102156E-001	4.8256977E+001	1.4243632E+003	1.2709811E+003	1.9089796E+003	-4.1743023E+001	0.0000000E+000	0.0000000E+000	0.0000000E+000	4.1743023E+001	0.0000000E+000	0.0000000E+000	0.0000000E+000	-4.1743023E+001	0.0000000E+000	0.0000000E+000	0.0000000E+000	-4.8256977E+001	0.0000000E+000	0.0000000E+000	0.0000000E+000	4.8256977E+001	8.9231545E-001	4.1743027E+001	-1.278591202086938E-005
