EC-Lab ASCII FILE
Nb header lines : 65                          

Potentio Electrochemical Impedance Spectroscopy

Run on channel : 15 (SN 19485)
User : 
Electrode connection : standard
Potential control : Ewe
Ewe ctrl range : min = -1.00 V, max = 1.00 V
Ewe,I filtering : <None>
Safety Limits :
	Do not start on E overload
Channel : Floating
Acquisition started on : 03/22/2024 12:30:07.620
Loaded Setting File :  C:\Data\mathias\GoldElectrode\240321-CVEIS-5mM_Fe2Fe3-1M_H2SO4-0000RPM-Ag_AgCl_BLF8-Au_RDE.mps
Saved on :
	File : 240321-CVEIS-5mM_Fe2Fe3-1M_H2SO4-0000RPM-Ag_AgCl_BLF8-GC_RDE_02_PEIS_C15.mpr
	Directory : C:\Data\mathias\GoldElectrode\
	Host : 192.168.0.1
Device : VMP-300 (SN 0826)
Address : USB
EC-Lab for windows v11.52 (software)
Internet server v11.52 (firmware)
Command interpretor v11.52 (firmware)
Electrode material : 
Initial state : 
Electrolyte : 
Comments : 
Cable : special
Electrode surface area : 0.001 cm²
Characteristic mass : 0.001 g
Equivalent Weight : 0.000 g/eq.
Density : 0.000 g/cm3
Volume (V) : 0.001 cm³
Cycle Definition : Charge/Discharge alternance
Mode                Multi sine          
E (V)               0.0000              
vs.                 Eoc                 
tE (h:m:s)          0:00:0.0000         
record              0                   
dI                  0.000               
unit dI             mA                  
dt (s)              0.000               
fi                  400.000             
unit fi             kHz                 
ff                  100.000             
unit ff             mHz                 
Nd                  10                  
Points              per decade          
spacing             Logarithmic         
Va (mV)             5.0                 
pw                  0.10                
Na                  3                   
corr                0                   
E range min (V)     -1.000              
E range max (V)     1.000               
I Range             Auto                
Bandwidth           8                   
nc cycles           2                   
goto Ns'            0                   
nr cycles           0                   
inc. cycle          1                   

freq/Hz	Re(Z)/Ohm	-Im(Z)/Ohm	|Z|/Ohm	Phase(Z)/deg	time/s	<Ewe>/V	<I>/mA	Cs/µF	Cp/µF	cycle number	I Range	|Ewe|/V	|I|/A	Ns	(Q-Qo)/mA.h	Re(Y)/Ohm-1	Im(Y)/Ohm-1	|Y|/Ohm-1	Phase(Y)/deg	Re(C)/nF	Im(C)/nF	|C|/nF	Phase(C)/deg	Re(M)	Im(M)	|M|	Phase(M)/deg	Re(Permittivity)	Im(Permittivity)	|Permittivity|	Phase(Permittivity)/deg	Re(Resistivity)/Ohm.cm	Im(Resistivity)/Ohm.cm	|Resistivity|/Ohm.cm	Phase(Resistivity)/deg	Re(Conductivity)/mS/cm	Im(Conductivity)/mS/cm	|Conductivity|/mS/cm	Phase(Conductivity)/deg	Tan(Delta)	Loss Angle(Delta)/deg	dq/mA.h	
3.9999628E+005	3.1303716E+000	1.2448070E+000	3.3687937E+000	-2.1685474E+001	1.427820786263037E+002	4.4122803E-001	-1.5931042E-002	3.1964076E-001	4.3643277E-002	1.000000000000000E+000	38	4.5829182E-003	1.3604034E-003	0	-2.552392069815040E-006	2.7583355E-001	1.0968650E-001	2.9684216E-001	2.1685474E+001	4.3643272E+001	1.0975171E+002	1.1811085E+002	-6.8314529E+001	0.0000000E+000	0.0000000E+000	0.0000000E+000	6.8314529E+001	0.0000000E+000	0.0000000E+000	0.0000000E+000	-6.8314529E+001	0.0000000E+000	0.0000000E+000	0.0000000E+000	-2.1685474E+001	0.0000000E+000	0.0000000E+000	0.0000000E+000	2.1685474E+001	2.5147445E+000	6.8314529E+001	-2.552392069815040E-006
3.1770525E+005	3.2648020E+000	2.7810225E-001	3.2766252E+000	-4.8688140E+000	1.437690717398946E+002	4.4120729E-001	-8.6136043E-002	1.8013214E+000	1.2976175E-002	1.000000000000000E+000	37	4.7004959E-003	1.4345540E-003	0	-1.891745148903323E-005	3.0409080E-001	2.5903054E-002	3.0519205E-001	4.8688140E+000	1.2976172E+001	1.5233478E+002	1.5288644E+002	-8.5131187E+001	0.0000000E+000	0.0000000E+000	0.0000000E+000	8.5131187E+001	0.0000000E+000	0.0000000E+000	0.0000000E+000	-8.5131187E+001	0.0000000E+000	0.0000000E+000	0.0000000E+000	-4.8688140E+000	0.0000000E+000	0.0000000E+000	0.0000000E+000	4.8688140E+000	1.1739574E+001	8.5131187E+001	-1.636505941921819E-005
2.5234747E+005	3.1578803E+000	2.7141944E-001	3.1695230E+000	-4.9124923E+000	1.443200776060403E+002	4.4124374E-001	-7.7574857E-002	2.3237009E+000	1.7040186E-002	1.000000000000000E+000	37	5.1383646E-003	1.6211792E-003	0	-3.034771487954559E-005	3.1434593E-001	2.7017994E-002	3.1550488E-001	4.9124923E+000	1.7040180E+001	1.9825723E+002	1.9898819E+002	-8.5087509E+001	0.0000000E+000	0.0000000E+000	0.0000000E+000	8.5087509E+001	0.0000000E+000	0.0000000E+000	0.0000000E+000	-8.5087509E+001	0.0000000E+000	0.0000000E+000	0.0000000E+000	-4.9124923E+000	0.0000000E+000	0.0000000E+000	0.0000000E+000	4.9124923E+000	1.1634687E+001	8.5087509E+001	-1.143026339051236E-005
2.0043423E+005	3.0935838E+000	2.7812475E-001	3.1060610E+000	-5.1372929E+000	1.448710753122286E+002	4.4124132E-001	-7.9770990E-002	2.8550165E+000	2.2891168E-002	1.000000000000000E+000	37	5.2065947E-003	1.6762693E-003	0	-4.624660511152413E-005	3.2065791E-001	2.8828342E-002	3.2195118E-001	5.1372929E+000	2.2891157E+001	2.5461864E+002	2.5564557E+002	-8.4862709E+001	0.0000000E+000	0.0000000E+000	0.0000000E+000	8.4862709E+001	0.0000000E+000	0.0000000E+000	0.0000000E+000	-8.4862709E+001	0.0000000E+000	0.0000000E+000	0.0000000E+000	-5.1372929E+000	0.0000000E+000	0.0000000E+000	0.0000000E+000	5.1372929E+000	1.1123008E+001	8.4862709E+001	-1.589889023197854E-005
1.5920056E+005	3.0520353E+000	3.1327784E-001	3.0680716E+000	-5.8606310E+000	1.454220794983848E+002	4.4120374E-001	-7.9380147E-002	3.1911399E+000	3.3271641E-002	1.000000000000000E+000	37	5.2516540E-003	1.7117116E-003	0	-5.515593189151978E-005	3.2423401E-001	3.3281177E-002	3.2593763E-001	5.8606310E+000	3.3271656E+001	3.2414111E+002	3.2584424E+002	-8.4139366E+001	0.0000000E+000	0.0000000E+000	0.0000000E+000	8.4139366E+001	0.0000000E+000	0.0000000E+000	0.0000000E+000	-8.4139366E+001	0.0000000E+000	0.0000000E+000	0.0000000E+000	-5.8606310E+000	0.0000000E+000	0.0000000E+000	0.0000000E+000	5.8606310E+000	9.7422638E+000	8.4139366E+001	-8.909326779995654E-006
1.2644745E+005	3.0251782E+000	3.8220128E-001	3.0492263E+000	-7.2006040E+000	1.459740886446380E+002	4.4122630E-001	-7.8672923E-002	3.2931983E+000	5.1739581E-002	1.000000000000000E+000	37	5.2369847E-003	1.7174798E-003	0	-6.684743414300101E-005	3.2536563E-001	4.1106723E-002	3.2795206E-001	7.2006040E+000	5.1739609E+001	4.0952625E+002	4.1278171E+002	-8.2799393E+001	0.0000000E+000	0.0000000E+000	0.0000000E+000	8.2799393E+001	0.0000000E+000	0.0000000E+000	0.0000000E+000	-8.2799393E+001	0.0000000E+000	0.0000000E+000	0.0000000E+000	-7.2006040E+000	0.0000000E+000	0.0000000E+000	0.0000000E+000	7.2006040E+000	7.9151440E+000	8.2799393E+001	-1.169150225148123E-005
1.0043052E+005	3.0259604E+000	4.3551069E-001	3.0571401E+000	-8.1900415E+000	1.465250863241090E+002	4.4122410E-001	-8.0645718E-002	3.6387784E+000	7.3845252E-002	1.000000000000000E+000	37	5.1949797E-003	1.6992940E-003	0	-8.058621385486145E-005	3.2376698E-001	4.6598095E-002	3.2710311E-001	8.1900415E+000	7.3845245E+001	5.1308221E+002	5.1836908E+002	-8.1809959E+001	0.0000000E+000	0.0000000E+000	0.0000000E+000	8.1809959E+001	0.0000000E+000	0.0000000E+000	0.0000000E+000	-8.1809959E+001	0.0000000E+000	0.0000000E+000	0.0000000E+000	-8.1900415E+000	0.0000000E+000	0.0000000E+000	0.0000000E+000	8.1900415E+000	6.9480739E+000	8.1809959E+001	-1.373877971186044E-005
7.9767297E+004	3.0102406E+000	5.3053379E-001	3.0566344E+000	-9.9953327E+000	1.470760875769483E+002	4.4125810E-001	-7.6160401E-002	3.7608171E+000	1.1329775E-001	1.000000000000000E+000	37	5.1554847E-003	1.6866539E-003	0	-9.146412233343007E-005	3.2219157E-001	5.6784008E-002	3.2715720E-001	9.9953327E+000	1.1329773E+002	6.4284973E+002	6.5275732E+002	-8.0004669E+001	0.0000000E+000	0.0000000E+000	0.0000000E+000	8.0004669E+001	0.0000000E+000	0.0000000E+000	0.0000000E+000	-8.0004669E+001	0.0000000E+000	0.0000000E+000	0.0000000E+000	-9.9953327E+000	0.0000000E+000	0.0000000E+000	0.0000000E+000	9.9953327E+000	5.6739845E+000	8.0004669E+001	-1.087790847856862E-005
6.3362902E+004	3.0337682E+000	6.4346892E-001	3.1012580E+000	-1.1975091E+001	1.476270803764637E+002	4.4122669E-001	-7.3908441E-002	3.9035301E+000	1.6804935E-001	1.000000000000000E+000	37	5.2123661E-003	1.6807263E-003	0	-1.042137219083812E-004	3.1543261E-001	6.6903956E-002	3.2244980E-001	1.1975091E+001	1.6804935E+002	7.9230365E+002	8.0992944E+002	-7.8024910E+001	0.0000000E+000	0.0000000E+000	0.0000000E+000	7.8024910E+001	0.0000000E+000	0.0000000E+000	0.0000000E+000	-7.8024910E+001	0.0000000E+000	0.0000000E+000	0.0000000E+000	-1.1975091E+001	0.0000000E+000	0.0000000E+000	0.0000000E+000	1.1975091E+001	4.7147083E+000	7.8024910E+001	-1.274959957495109E-005
5.0326602E+004	3.0687134E+000	7.8595048E-001	3.1677628E+000	-1.4365642E+001	1.481780739492679E+002	4.4124556E-001	-7.5546227E-002	4.0237160E+000	2.4769224E-001	1.000000000000000E+000	37	5.1605776E-003	1.6290921E-003	0	-1.129440563386391E-004	3.0580956E-001	7.8323103E-002	3.1568021E-001	1.4365642E+001	2.4769220E+002	9.6710492E+002	9.9832025E+002	-7.5634361E+001	0.0000000E+000	0.0000000E+000	0.0000000E+000	7.5634361E+001	0.0000000E+000	0.0000000E+000	0.0000000E+000	-7.5634361E+001	0.0000000E+000	0.0000000E+000	0.0000000E+000	-1.4365642E+001	0.0000000E+000	0.0000000E+000	0.0000000E+000	1.4365642E+001	3.9044616E+000	7.5634361E+001	-8.730334430257961E-006
3.9971793E+004	3.1112823E+000	9.3582779E-001	3.2489769E+000	-1.6740513E+001	1.487290744288184E+002	4.4124845E-001	-7.9584882E-002	4.2547159E+000	3.5299551E-001	1.000000000000000E+000	37	5.1856213E-003	1.5960782E-003	0	-1.228058870185325E-004	2.9474482E-001	8.8654898E-002	3.0778921E-001	1.6740513E+001	3.5299548E+002	1.1735800E+003	1.2255186E+003	-7.3259491E+001	0.0000000E+000	0.0000000E+000	0.0000000E+000	7.3259491E+001	0.0000000E+000	0.0000000E+000	0.0000000E+000	-7.3259491E+001	0.0000000E+000	0.0000000E+000	0.0000000E+000	-1.6740513E+001	0.0000000E+000	0.0000000E+000	0.0000000E+000	1.6740513E+001	3.3246312E+000	7.3259491E+001	-9.861830679893380E-006
3.1751037E+004	3.1462877E+000	1.1333631E+000	3.3441947E+000	-1.9810154E+001	1.492800937883148E+002	4.4122675E-001	-7.5769566E-002	4.4227571E+000	5.0798184E-001	1.000000000000000E+000	37	5.1453914E-003	1.5386040E-003	0	-1.350618163666044E-004	2.8132954E-001	1.0134119E-001	2.9902565E-001	1.9810154E+001	5.0798175E+002	1.4101897E+003	1.4988931E+003	-7.0189850E+001	0.0000000E+000	0.0000000E+000	0.0000000E+000	7.0189850E+001	0.0000000E+000	0.0000000E+000	0.0000000E+000	-7.0189850E+001	0.0000000E+000	0.0000000E+000	0.0000000E+000	-1.9810154E+001	0.0000000E+000	0.0000000E+000	0.0000000E+000	1.9810154E+001	2.7760632E+000	7.0189850E+001	-1.225592934807194E-005
2.5218971E+004	3.2073340E+000	1.3949708E+000	3.4975612E+000	-2.3505743E+001	1.498310861878272E+002	4.4124487E-001	-7.6290675E-002	4.5240531E+000	7.1965975E-001	1.000000000000000E+000	37	5.1740445E-003	1.4793292E-003	0	-1.447798968855010E-004	2.6218843E-001	1.1403402E-001	2.8591350E-001	2.3505743E+001	7.1965985E+002	1.6546506E+003	1.8043777E+003	-6.6494255E+001	0.0000000E+000	0.0000000E+000	0.0000000E+000	6.6494255E+001	0.0000000E+000	0.0000000E+000	0.0000000E+000	-6.6494255E+001	0.0000000E+000	0.0000000E+000	0.0000000E+000	-2.3505743E+001	0.0000000E+000	0.0000000E+000	0.0000000E+000	2.3505743E+001	2.2992125E+000	6.6494255E+001	-9.718080518896595E-006
2.0032287E+004	3.2524533E+000	1.6678679E+000	3.6551657E+000	-2.7148890E+001	1.503820894940000E+002	4.4124109E-001	-6.9199778E-002	4.7635198E+000	9.9182969E-001	1.000000000000000E+000	37	5.2267406E-003	1.4299600E-003	0	-1.541295784209910E-004	2.4344280E-001	1.2483821E-001	2.7358541E-001	2.7148890E+001	9.9182965E+002	1.9341339E+003	2.1736145E+003	-6.2851112E+001	0.0000000E+000	0.0000000E+000	0.0000000E+000	6.2851112E+001	0.0000000E+000	0.0000000E+000	0.0000000E+000	-6.2851112E+001	0.0000000E+000	0.0000000E+000	0.0000000E+000	-2.7148890E+001	0.0000000E+000	0.0000000E+000	0.0000000E+000	2.7148890E+001	1.9500664E+000	6.2851112E+001	-9.349681535489958E-006
1.5912637E+004	3.3355150E+000	2.0410585E+000	3.9104450E+000	-3.1463175E+001	1.509340954935469E+002	4.4120917E-001	-7.0055895E-002	4.9002981E+000	1.3349994E+000	1.000000000000000E+000	37	5.1575443E-003	1.3189149E-003	0	-1.635880316764895E-004	2.1812756E-001	1.3347597E-001	2.5572538E-001	3.1463175E+001	1.3349994E+003	2.1816675E+003	2.5577131E+003	-5.8536827E+001	0.0000000E+000	0.0000000E+000	0.0000000E+000	5.8536827E+001	0.0000000E+000	0.0000000E+000	0.0000000E+000	-5.8536827E+001	0.0000000E+000	0.0000000E+000	0.0000000E+000	-3.1463175E+001	0.0000000E+000	0.0000000E+000	0.0000000E+000	3.1463175E+001	1.6342084E+000	5.8536827E+001	-9.458453255498567E-006
1.2637324E+004	3.4059093E+000	2.5308335E+000	4.2432694E+000	-3.6614983E+001	1.514850935996801E+002	4.4122073E-001	-7.0055902E-002	4.9762411E+000	1.7702205E+000	1.000000000000000E+000	37	5.1160771E-003	1.2056923E-003	0	-1.732113188343986E-004	1.8916111E-001	1.4056019E-001	2.3566733E-001	3.6614983E+001	1.7702205E+003	2.3823022E+003	2.9680034E+003	-5.3385017E+001	0.0000000E+000	0.0000000E+000	0.0000000E+000	5.3385017E+001	0.0000000E+000	0.0000000E+000	0.0000000E+000	-5.3385017E+001	0.0000000E+000	0.0000000E+000	0.0000000E+000	-3.6614983E+001	0.0000000E+000	0.0000000E+000	0.0000000E+000	3.6614983E+001	1.3457658E+000	5.3385017E+001	-9.623287157909050E-006
1.0039345E+004	3.5298719E+000	3.0975568E+000	4.6962595E+000	-4.1267815E+001	1.523370927335054E+002	4.4122601E-001	-5.9603374E-003	5.1179433E+000	2.2265368E+000	1.000000000000000E+000	38	4.9814703E-003	1.0607315E-003	0	-1.824079737622281E-004	1.6004966E-001	1.4044784E-001	2.1293542E-001	4.1267815E+001	2.2265366E+003	2.5372864E+003	3.3756907E+003	-4.8732185E+001	0.0000000E+000	0.0000000E+000	0.0000000E+000	4.8732185E+001	0.0000000E+000	0.0000000E+000	0.0000000E+000	-4.8732185E+001	0.0000000E+000	0.0000000E+000	0.0000000E+000	-4.1267815E+001	0.0000000E+000	0.0000000E+000	0.0000000E+000	4.1267815E+001	1.1395665E+000	4.8732178E+001	-9.196654927829523E-006
7.9676660E+003	3.6281519E+000	3.7950435E+000	5.2503181E+000	-4.6287933E+001	1.529672202301554E+002	4.4113290E-001	-6.3625146E-003	5.2634711E+000	2.7500117E+000	1.000000000000000E+000	38	5.1483368E-003	9.8057615E-004	0	-1.837793248085347E-004	1.3161767E-001	1.3767196E-001	1.9046465E-001	4.6287933E+001	2.7500115E+003	2.6290764E+003	3.8045508E+003	-4.3712067E+001	0.0000000E+000	0.0000000E+000	0.0000000E+000	4.3712067E+001	0.0000000E+000	0.0000000E+000	0.0000000E+000	-4.3712067E+001	0.0000000E+000	0.0000000E+000	0.0000000E+000	-4.6287933E+001	0.0000000E+000	0.0000000E+000	0.0000000E+000	4.6287933E+001	9.5602381E-001	4.3712067E+001	-1.371351046306591E-006
6.3326284E+003	3.7651110E+000	4.6505322E+000	5.9836035E+000	-5.1006069E+001	1.537255157594918E+002	4.4111684E-001	-6.3829967E-003	5.4042258E+000	3.2644737E+000	1.000000000000000E+000	38	5.2468888E-003	8.7687775E-004	0	-1.842775617377176E-004	1.0516039E-001	1.2989040E-001	1.6712338E-001	5.1006069E+001	3.2644736E+003	2.6429460E+003	4.2002324E+003	-3.8993931E+001	0.0000000E+000	0.0000000E+000	0.0000000E+000	3.8993931E+001	0.0000000E+000	0.0000000E+000	0.0000000E+000	-3.8993931E+001	0.0000000E+000	0.0000000E+000	0.0000000E+000	-5.1006069E+001	0.0000000E+000	0.0000000E+000	0.0000000E+000	5.1006069E+001	8.0960864E-001	3.8993927E+001	-4.982369291829051E-007
5.0283892E+003	3.9307568E+000	5.7146912E+000	6.9360323E+000	-5.5478497E+001	1.544084229119326E+002	4.4106004E-001	-7.6323627E-003	5.5385804E+000	3.7597744E+000	1.000000000000000E+000	38	5.3913756E-003	7.7729969E-004	0	-1.854240128854112E-004	8.1706010E-002	1.1878745E-001	1.4417465E-001	5.5478497E+001	3.7597747E+003	2.5860996E+003	4.5633120E+003	-3.4521503E+001	0.0000000E+000	0.0000000E+000	0.0000000E+000	3.4521503E+001	0.0000000E+000	0.0000000E+000	0.0000000E+000	-3.4521503E+001	0.0000000E+000	0.0000000E+000	0.0000000E+000	-5.5478497E+001	0.0000000E+000	0.0000000E+000	0.0000000E+000	5.5478497E+001	6.8783367E-001	3.4521500E+001	-1.146451147693550E-006
3.9937197E+003	4.1539044E+000	7.0399222E+000	8.1740704E+000	-5.9457283E+001	1.550914004110382E+002	4.4118622E-001	-6.5189260E-003	5.6607590E+000	4.1988821E+000	1.000000000000000E+000	38	5.2159876E-003	6.3811388E-004	0	-1.864026988245751E-004	6.2169835E-002	1.0536373E-001	1.2233807E-001	5.9457283E+001	4.1988823E+003	2.4775493E+003	4.8753320E+003	-3.0542717E+001	0.0000000E+000	0.0000000E+000	0.0000000E+000	3.0542717E+001	0.0000000E+000	0.0000000E+000	0.0000000E+000	-3.0542717E+001	0.0000000E+000	0.0000000E+000	0.0000000E+000	-5.9457283E+001	0.0000000E+000	0.0000000E+000	0.0000000E+000	5.9457283E+001	5.9004974E-001	3.0542725E+001	-9.786859391638979E-007
3.1719580E+003	4.4001131E+000	8.6548920E+000	9.7091789E+000	-6.3051395E+001	1.557755515901954E+002	4.4113693E-001	-6.6716080E-003	5.7973704E+000	4.6066937E+000	1.000000000000000E+000	38	4.9651181E-003	5.1138393E-004	0	-1.876099444009677E-004	4.6676561E-002	9.1811411E-002	1.0299532E-001	6.3051395E+001	4.6066938E+003	2.3420251E+003	5.1678535E+003	-2.6948605E+001	0.0000000E+000	0.0000000E+000	0.0000000E+000	2.6948605E+001	0.0000000E+000	0.0000000E+000	0.0000000E+000	-2.6948605E+001	0.0000000E+000	0.0000000E+000	0.0000000E+000	-6.3051395E+001	0.0000000E+000	0.0000000E+000	0.0000000E+000	6.3051395E+001	5.0839609E-001	2.6948608E+001	-1.207245576392667E-006
2.5191904E+003	4.6696630E+000	1.0590762E+001	1.1574541E+001	-6.6206429E+001	1.564584278092952E+002	4.4113678E-001	-5.3179841E-003	5.9652948E+000	4.9943480E+000	1.000000000000000E+000	38	4.7317389E-003	4.0880576E-004	0	-1.885339000145824E-004	3.4856036E-002	7.9053238E-002	8.6396515E-002	6.6206429E+001	4.9943481E+003	2.2021006E+003	5.4582744E+003	-2.3793571E+001	0.0000000E+000	0.0000000E+000	0.0000000E+000	2.3793571E+001	0.0000000E+000	0.0000000E+000	0.0000000E+000	-2.3793571E+001	0.0000000E+000	0.0000000E+000	0.0000000E+000	-6.6206429E+001	0.0000000E+000	0.0000000E+000	0.0000000E+000	6.6206429E+001	4.4091851E-001	2.3793579E+001	-9.239556136146653E-007
2.0019188E+003	5.0410614E+000	1.3037641E+001	1.3978282E+001	-6.8860786E+001	1.571411398683267E+002	4.4113553E-001	-6.5077641E-003	6.0978212E+000	5.3047519E+000	1.000000000000000E+000	38	4.5882729E-003	3.2824298E-004	0	-1.895109113873995E-004	2.5799684E-002	6.6725433E-002	7.1539551E-002	6.8860786E+001	5.3047520E+003	2.0511057E+003	5.6874800E+003	-2.1139214E+001	0.0000000E+000	0.0000000E+000	0.0000000E+000	2.1139214E+001	0.0000000E+000	0.0000000E+000	0.0000000E+000	-2.1139214E+001	0.0000000E+000	0.0000000E+000	0.0000000E+000	-6.8860786E+001	0.0000000E+000	0.0000000E+000	0.0000000E+000	6.8860786E+001	3.8665444E-001	2.1139221E+001	-9.770113728170635E-007
1.5894919E+003	5.5771141E+000	1.6038944E+001	1.6980928E+001	-7.0826248E+001	1.578254396608972E+002	4.4104993E-001	-5.3533665E-003	6.2428951E+000	5.5694809E+000	1.000000000000000E+000	38	4.4937325E-003	2.6463409E-004	0	-1.904622108185771E-004	1.9341344E-002	5.5622809E-002	5.8889594E-002	7.0826248E+001	5.5694805E+003	1.9366379E+003	5.8965820E+003	-1.9173752E+001	0.0000000E+000	0.0000000E+000	0.0000000E+000	1.9173752E+001	0.0000000E+000	0.0000000E+000	0.0000000E+000	-1.9173752E+001	0.0000000E+000	0.0000000E+000	0.0000000E+000	-7.0826248E+001	0.0000000E+000	0.0000000E+000	0.0000000E+000	7.0826248E+001	3.4772328E-001	1.9173752E+001	-9.512994311775913E-007
1.2629777E+003	6.1045189E+000	1.9681946E+001	2.0606895E+001	-7.2768288E+001	1.587326833306288E+002	4.4110578E-001	-6.1130370E-003	6.4026012E+000	5.8407331E+000	1.000000000000000E+000	38	4.8900321E-003	2.3730077E-004	0	-1.920375841917153E-004	1.4375612E-002	4.6349268E-002	4.8527446E-002	7.2768288E+001	5.8407329E+003	1.8115520E+003	6.1152173E+003	-1.7231712E+001	0.0000000E+000	0.0000000E+000	0.0000000E+000	1.7231712E+001	0.0000000E+000	0.0000000E+000	0.0000000E+000	-1.7231712E+001	0.0000000E+000	0.0000000E+000	0.0000000E+000	-7.2768288E+001	0.0000000E+000	0.0000000E+000	0.0000000E+000	7.2768288E+001	3.1015831E-001	1.7231720E+001	-1.575373373138259E-006
