EC-Lab ASCII FILE
Nb header lines : 66                          

Potentio Electrochemical Impedance Spectroscopy

Run on channel : 15 (SN 19485)
User : 
Electrode connection : standard
Potential control : Ewe
Ewe ctrl range : min = -1.00 V, max = 1.00 V
Ewe,I filtering : <None>
Safety Limits :
	Do not start on E overload
Channel : Floating
Acquisition started on : 04/16/2024 11:45:13.974
Loaded Setting File :  NONE
Saved on :
	File : 240416-EIS-0p5M_FeCl2FeCl3-1M_HCl-20mLmin_Dampened-25mHz_10ppd_C15.mpr
	Directory : C:\Data\mathias\IRFB\
	Host : 192.168.0.1
Device : VMP-300 (SN 0826)
Address : USB
EC-Lab for windows v11.52 (software)
Internet server v11.52 (firmware)
Command interpretor v11.52 (firmware)
Electrode material : 
Initial state : 
Electrolyte : 
Comments : 
Cable : special
Electrode surface area : 0.001 cm²
Characteristic mass : 0.001 g
Equivalent Weight : 0.000 g/eq.
Density : 0.000 g/cm3
Volume (V) : 0.001 cm³
Record EIS quality indicators
Cycle Definition : Charge/Discharge alternance
Mode                Single sine         
E (V)               0.0000              
vs.                 Eoc                 
tE (h:m:s)          0:00:0.0000         
record              0                   
dI                  0.000               
unit dI             mA                  
dt (s)              0.000               
fi                  920.000             
unit fi             kHz                 
ff                  25.000              
unit ff             mHz                 
Nd                  10                  
Points              per decade          
spacing             Logarithmic         
Va (mV)             5.0                 
pw                  0.10                
Na                  3                   
corr                0                   
E range min (V)     -1.000              
E range max (V)     1.000               
I Range             Auto                
Bandwidth           8                   
nc cycles           0                   
goto Ns'            0                   
nr cycles           999                 
inc. cycle          1                   

freq/Hz	Re(Z)/Ohm	-Im(Z)/Ohm	|Z|/Ohm	Phase(Z)/deg	time/s	<Ewe>/V	<I>/mA	Cs/µF	Cp/µF	cycle number	I Range	|Ewe|/V	|I|/A	Ns	(Q-Qo)/mA.h	THD Ewe/%	NSD Ewe/%	NSR Ewe/%	|Ewe h2|/V	|Ewe h3|/V	|Ewe h4|/V	|Ewe h5|/V	|Ewe h6|/V	|Ewe h7|/V	THD I/%	NSD I/%	NSR I/%	|I h2|/A	|I h3|/A	|I h4|/A	|I h5|/A	|I h6|/A	|I h7|/A	Re(Y)/Ohm-1	Im(Y)/Ohm-1	|Y|/Ohm-1	Phase(Y)/deg	Re(C)/nF	Im(C)/nF	|C|/nF	Phase(C)/deg	Re(M)	Im(M)	|M|	Phase(M)/deg	Re(Permittivity)	Im(Permittivity)	|Permittivity|	Phase(Permittivity)/deg	Re(Resistivity)/Ohm.cm	Im(Resistivity)/Ohm.cm	|Resistivity|/Ohm.cm	Phase(Resistivity)/deg	Re(Conductivity)/mS/cm	Im(Conductivity)/mS/cm	|Conductivity|/mS/cm	Phase(Conductivity)/deg	Tan(Delta)	Loss Angle(Delta)/deg	dq/mA.h	
9.2000075E+005	-9.4514363E-002	-2.2110330E-001	2.4045713E-001	1.1314511E+002	1.976478920521913E+000	-1.2061895E-004	-5.0876087E-001	-7.8241426E-001	-6.6153353E-001	1.000000000000000E+000	37	7.0862914E-004	2.9470082E-003	0	-2.623722949903976E-004	-1	-1	-1	0	0	0	0	0	0	-1	-1	-1	0	0	0	0	0	0	-1.6346414E+000	-3.8240175E+000	4.1587453E+000	-1.1314511E+002	-6.6153351E+002	-2.8278375E+002	7.1943951E+002	1.5685489E+002	0.0000000E+000	0.0000000E+000	0.0000000E+000	-1.5685489E+002	0.0000000E+000	0.0000000E+000	0.0000000E+000	1.5685489E+002	0.0000000E+000	0.0000000E+000	0.0000000E+000	1.1314511E+002	0.0000000E+000	0.0000000E+000	0.0000000E+000	-1.1314511E+002	4.2746699E-001	2.3145111E+001	-2.623722949903976E-004
7.3153575E+005	-2.1707820E-002	-1.2080494E-001	1.2273982E-001	1.0018694E+002	3.123491855018074E+000	-1.2147643E-004	-4.7801495E-001	-1.8009427E+000	-1.7446098E+000	1.000000000000000E+000	37	5.8770273E-004	4.7881994E-003	0	-4.116993334010864E-004	-1	-1	-1	0	0	0	0	0	0	-1	-1	-1	0	0	0	0	0	0	-1.4409378E+000	-8.0188799E+000	8.1473150E+000	-1.0018694E+002	-1.7446099E+003	-3.1349466E+002	1.7725525E+003	1.6981305E+002	0.0000000E+000	0.0000000E+000	0.0000000E+000	-1.6981305E+002	0.0000000E+000	0.0000000E+000	0.0000000E+000	1.6981305E+002	0.0000000E+000	0.0000000E+000	0.0000000E+000	1.0018694E+002	0.0000000E+000	0.0000000E+000	0.0000000E+000	-1.0018694E+002	1.7969315E-001	1.0186943E+001	-1.493270384106888E-004
5.8167869E+005	2.5631616E-002	-7.2073810E-002	7.6495841E-002	7.0423080E+001	4.270491349481745E+000	-1.2222206E-004	-4.6362838E-001	-3.7962909E+000	-3.3700690E+000	1.000000000000000E+000	37	5.7024317E-004	7.4545643E-003	0	-5.583201575329424E-004	-1	-1	-1	0	0	0	0	0	0	-1	-1	-1	0	0	0	0	0	0	4.3802648E+000	-1.2316912E+001	1.3072606E+001	-7.0423080E+001	-3.3700688E+003	1.1984980E+003	3.5768369E+003	-1.6042308E+002	0.0000000E+000	0.0000000E+000	0.0000000E+000	1.6042308E+002	0.0000000E+000	0.0000000E+000	0.0000000E+000	-1.6042308E+002	0.0000000E+000	0.0000000E+000	0.0000000E+000	7.0423080E+001	0.0000000E+000	0.0000000E+000	0.0000000E+000	-7.0423080E+001	3.5563010E-001	1.9576920E+001	-1.466208241318559E-004
4.6252413E+005	5.2724108E-002	-4.9960095E-002	7.2634995E-002	4.3458107E+001	5.417475857277168E+000	-1.2785154E-004	-5.2796751E-001	-6.8875141E+000	-3.2584960E+000	1.000000000000000E+000	37	7.7000348E-004	1.0600999E-002	0	-6.977292060736023E-004	-1	-1	-1	0	0	0	0	0	0	-1	-1	-1	0	0	0	0	0	0	9.9934950E+000	-9.4695959E+000	1.3767468E+001	-4.3458107E+001	-3.2584954E+003	3.4387705E+003	4.7373975E+003	-1.3345810E+002	0.0000000E+000	0.0000000E+000	0.0000000E+000	1.3345810E+002	0.0000000E+000	0.0000000E+000	0.0000000E+000	-1.3345810E+002	0.0000000E+000	0.0000000E+000	0.0000000E+000	4.3458107E+001	0.0000000E+000	0.0000000E+000	0.0000000E+000	-4.3458107E+001	1.0553244E+000	4.6541893E+001	-1.394090485406599E-004
3.6778131E+005	6.7248166E-002	-3.7138134E-002	7.6821588E-002	2.8909895E+001	6.564490285090869E+000	-1.2598746E-004	-4.8960945E-001	-1.1652266E+001	-2.7232277E+000	1.000000000000000E+000	37	1.1822446E-003	1.5389484E-002	0	-8.626596814211872E-004	-1	-1	-1	0	0	0	0	0	0	-1	-1	-1	0	0	0	0	0	0	1.1394988E+001	-6.2929392E+000	1.3017175E+001	-2.8909895E+001	-2.7232283E+003	4.9311060E+003	5.6330967E+003	-1.1890990E+002	0.0000000E+000	0.0000000E+000	0.0000000E+000	1.1890990E+002	0.0000000E+000	0.0000000E+000	0.0000000E+000	-1.1890990E+002	0.0000000E+000	0.0000000E+000	0.0000000E+000	2.8909895E+001	0.0000000E+000	0.0000000E+000	0.0000000E+000	-2.8909895E+001	1.8107578E+000	6.1090103E+001	-1.649304753475848E-004
2.9243988E+005	7.5138584E-002	-2.7935266E-002	8.0163494E-002	2.0394291E+001	7.711477219563676E+000	-1.2796336E-004	-5.3727275E-001	-1.9481874E+001	-2.3658276E+000	1.000000000000000E+000	37	1.8019598E-003	2.2478558E-002	0	-9.925217831755677E-004	-1	-1	-1	0	0	0	0	0	0	-1	-1	-1	0	0	0	0	0	0	1.1692563E+001	-4.3470993E+000	1.2474506E+001	-2.0394291E+001	-2.3658274E+003	6.3634600E+003	6.7890176E+003	-1.1039429E+002	0.0000000E+000	0.0000000E+000	0.0000000E+000	1.1039429E+002	0.0000000E+000	0.0000000E+000	0.0000000E+000	-1.1039429E+002	0.0000000E+000	0.0000000E+000	0.0000000E+000	2.0394291E+001	0.0000000E+000	0.0000000E+000	0.0000000E+000	-2.0394291E+001	2.6897392E+000	6.9605713E+001	-1.298621017543805E-004
2.3252858E+005	7.9541571E-002	-2.1210605E-002	8.2321025E-002	1.4931094E+001	8.858478767419001E+000	-1.2442160E-004	-4.7045791E-001	-3.2269390E+001	-2.1422756E+000	1.000000000000000E+000	37	2.6702334E-003	3.2436833E-002	0	-1.140540249497940E-003	-1	-1	-1	0	0	0	0	0	0	-1	-1	-1	0	0	0	0	0	0	1.1737419E+001	-3.1299076E+000	1.2147565E+001	-1.4931094E+001	-2.1422751E+003	8.0337148E+003	8.3144404E+003	-1.0493109E+002	0.0000000E+000	0.0000000E+000	0.0000000E+000	1.0493109E+002	0.0000000E+000	0.0000000E+000	0.0000000E+000	-1.0493109E+002	0.0000000E+000	0.0000000E+000	0.0000000E+000	1.4931094E+001	0.0000000E+000	0.0000000E+000	0.0000000E+000	-1.4931094E+001	3.7500849E+000	7.5068909E+001	-1.480184663223724E-004
1.8490202E+005	8.2425125E-002	-1.5784064E-002	8.3922811E-002	1.0840661E+001	1.000548252856242E+001	-1.2225925E-004	-4.8140100E-001	-5.4533028E+001	-1.9290224E+000	1.000000000000000E+000	37	3.8682995E-003	4.6093542E-002	0	-1.271689436216942E-003	-1	-1	-1	0	0	0	0	0	0	-1	-1	-1	0	0	0	0	0	0	1.1703064E+001	-2.2410874E+000	1.1915711E+001	-1.0840661E+001	-1.9290225E+003	1.0073446E+004	1.0256483E+004	-1.0084066E+002	0.0000000E+000	0.0000000E+000	0.0000000E+000	1.0084066E+002	0.0000000E+000	0.0000000E+000	0.0000000E+000	-1.0084066E+002	0.0000000E+000	0.0000000E+000	0.0000000E+000	1.0840661E+001	0.0000000E+000	0.0000000E+000	0.0000000E+000	-1.0840661E+001	5.2220469E+000	7.9159340E+001	-1.311491867190021E-004
1.4701789E+005	8.4217347E-002	-1.0907507E-002	8.4920757E-002	7.3796487E+000	1.101848959000199E+001	-1.2458929E-004	-4.6280792E-001	-9.9248619E+001	-1.6373734E+000	1.000000000000000E+000	37	5.4469355E-003	6.4141393E-002	0	-1.383837443181624E-003	-1	-1	-1	0	0	0	0	0	0	-1	-1	-1	0	0	0	0	0	0	1.1678144E+001	-1.5125084E+000	1.1775684E+001	-7.3796487E+000	-1.6373727E+003	1.2642232E+004	1.2747824E+004	-9.7379646E+001	0.0000000E+000	0.0000000E+000	0.0000000E+000	9.7379646E+001	0.0000000E+000	0.0000000E+000	0.0000000E+000	-9.7379646E+001	0.0000000E+000	0.0000000E+000	0.0000000E+000	7.3796487E+000	0.0000000E+000	0.0000000E+000	0.0000000E+000	-7.3796487E+000	7.7210450E+000	8.2620354E+001	-1.121480069646817E-004
1.1690915E+005	8.5428558E-002	-6.9737928E-003	8.5712731E-002	4.6668806E+000	1.216649836450233E+001	-1.1860563E-004	-4.4894272E-001	-1.9521024E+002	-1.2922604E+000	1.000000000000000E+000	37	5.2813105E-003	6.1616410E-002	0	-1.660614467878309E-003	-1	-1	-1	0	0	0	0	0	0	-1	-1	-1	0	0	0	0	0	0	1.1628198E+001	-9.4924521E-001	1.1666879E+001	-4.6668806E+000	-1.2922595E+003	1.5830113E+004	1.5882771E+004	-9.4666878E+001	0.0000000E+000	0.0000000E+000	0.0000000E+000	9.4666878E+001	0.0000000E+000	0.0000000E+000	0.0000000E+000	-9.4666878E+001	0.0000000E+000	0.0000000E+000	0.0000000E+000	4.6668806E+000	0.0000000E+000	0.0000000E+000	0.0000000E+000	-4.6668806E+000	1.2249942E+001	8.5333122E+001	-2.767770246966846E-004
9.2961328E+004	8.6816110E-002	-3.8703030E-003	8.6902335E-002	2.5525827E+000	1.331447588573792E+001	-1.2719899E-004	-4.7563142E-001	-4.4235693E+002	-8.7740457E-001	1.000000000000000E+000	37	5.2414895E-003	6.0314715E-002	0	-1.766967789162778E-003	2.9700315E-001	1.5784517E-001	6.0747929E+000	4.4577082E-006	8.8438355E-006	4.9557939E-006	4.6001205E-006	7.7202403E-006	4.8701440E-006	9.1441952E-002	2.0578481E-002	3.5853210E-001	1.0836630E-005	5.3232365E-005	3.4817294E-006	6.8087143E-006	4.5466982E-006	2.5752479E-006	1.1495753E+001	-5.1248610E-001	1.1507171E+001	-2.5525827E+000	-8.7740424E+002	1.9681367E+004	1.9700914E+004	-9.2552582E+001	0.0000000E+000	0.0000000E+000	0.0000000E+000	9.2552582E+001	0.0000000E+000	0.0000000E+000	0.0000000E+000	-9.2552582E+001	0.0000000E+000	0.0000000E+000	0.0000000E+000	2.5525827E+000	0.0000000E+000	0.0000000E+000	0.0000000E+000	-2.5525827E+000	2.2431347E+001	8.7447418E+001	-1.063533212844697E-004
7.3912563E+004	8.7898038E-002	-1.0811400E-003	8.7904684E-002	7.0469874E-001	1.446248620693223E+001	-1.2253883E-004	-4.4008383E-001	-1.9916819E+003	-3.0127272E-001	1.000000000000000E+000	37	5.2189534E-003	5.9370592E-002	0	-1.939931418935872E-003	3.7546962E-001	2.2853050E-001	6.2083788E+000	6.5685963E-006	5.9372414E-006	7.7620607E-006	9.0955009E-006	6.6873531E-006	7.8659114E-006	1.0398959E-001	2.6920840E-002	3.7394390E-001	1.1135954E-005	6.0276754E-005	2.6443734E-006	4.2730899E-006	3.3784615E-006	2.3839484E-006	1.1375098E+001	-1.3991295E-001	1.1375958E+001	-7.0469874E-001	-3.0127179E+002	2.4493846E+004	2.4495699E+004	-9.0704697E+001	0.0000000E+000	0.0000000E+000	0.0000000E+000	9.0704697E+001	0.0000000E+000	0.0000000E+000	0.0000000E+000	-9.0704697E+001	0.0000000E+000	0.0000000E+000	0.0000000E+000	7.0469874E-001	0.0000000E+000	0.0000000E+000	0.0000000E+000	-7.0469874E-001	8.1301254E+001	8.9295303E+001	-1.729636297730936E-004
5.8770039E+004	8.9003295E-002	1.3107734E-003	8.9012943E-002	-8.4374803E-001	1.561049468812416E+001	-1.3029335E-004	-4.6226847E-001	2.0660295E+003	4.4800770E-001	1.000000000000000E+000	37	5.2199364E-003	5.8642443E-002	0	-2.170742754232449E-003	4.1451785E-001	1.5130006E-001	6.2923732E+000	1.1492637E-005	8.2887527E-006	7.7055020E-006	3.4924885E-006	7.1829168E-006	8.6550226E-006	1.0817654E-001	5.3432032E-002	3.8317192E-001	8.4620860E-006	6.2042294E-005	2.6725947E-006	6.9170678E-006	3.9938213E-006	4.1485446E-006	1.1233104E+001	1.6543268E-001	1.1234322E+001	8.4374803E-001	4.4800870E+002	3.0420328E+004	3.0423627E+004	-8.9156250E+001	0.0000000E+000	0.0000000E+000	0.0000000E+000	8.9156250E+001	0.0000000E+000	0.0000000E+000	0.0000000E+000	-8.9156250E+001	0.0000000E+000	0.0000000E+000	0.0000000E+000	-8.4374803E-001	0.0000000E+000	0.0000000E+000	0.0000000E+000	8.4374803E-001	6.7901360E+001	8.9156250E+001	-2.308113352965770E-004
4.6735824E+004	9.0193160E-002	3.5128789E-003	9.0261541E-002	-2.2304513E+000	1.675848434263025E+001	-1.2732948E-004	-4.4996646E-001	9.6940906E+002	1.4683443E+000	1.000000000000000E+000	37	5.1837564E-003	5.7430401E-002	0	-2.426844444281732E-003	3.3020526E-001	2.0332207E-001	6.3785424E+000	4.4729882E-006	1.0299097E-005	4.5380457E-006	7.3426313E-006	5.8392247E-006	5.8237288E-006	1.2149809E-001	1.1357486E-002	3.9603040E-001	5.6151216E-006	6.8580594E-005	4.3848572E-006	7.1623654E-006	4.0959098E-006	2.1152432E-006	1.1070522E+001	4.3117908E-001	1.1078916E+001	2.2304513E+000	1.4683457E+003	3.7699734E+004	3.7728320E+004	-8.7769547E+001	0.0000000E+000	0.0000000E+000	0.0000000E+000	8.7769547E+001	0.0000000E+000	0.0000000E+000	0.0000000E+000	-8.7769547E+001	0.0000000E+000	0.0000000E+000	0.0000000E+000	-2.2304513E+000	0.0000000E+000	0.0000000E+000	0.0000000E+000	2.2304513E+000	2.5674999E+001	8.7769547E+001	-2.561016900492832E-004
3.7160402E+004	9.1843352E-002	5.4137572E-003	9.2002772E-002	-3.3734281E+000	1.790648653046810E+001	-1.1895980E-004	-4.2184478E-001	7.9111749E+002	2.7392817E+000	1.000000000000000E+000	37	5.1977644E-003	5.6495737E-002	0	-2.560676642140322E-003	3.1428799E-001	1.6359559E-001	6.3621230E+000	2.7607582E-006	8.5844185E-006	6.1509327E-006	6.3245461E-006	7.6225283E-006	4.7586932E-006	1.2872265E-001	4.6054170E-002	3.8201195E-001	4.7754406E-006	7.1237737E-005	5.6823797E-006	1.0642641E-005	4.5273359E-006	2.9083169E-006	1.0850404E+001	6.3958311E-001	1.0869238E+001	3.3734281E+000	2.7392822E+003	4.6471391E+004	4.6552055E+004	-8.6626572E+001	0.0000000E+000	0.0000000E+000	0.0000000E+000	8.6626572E+001	0.0000000E+000	0.0000000E+000	0.0000000E+000	-8.6626572E+001	0.0000000E+000	0.0000000E+000	0.0000000E+000	-3.3734281E+000	0.0000000E+000	0.0000000E+000	0.0000000E+000	3.3734281E+000	1.6964808E+001	8.6626572E+001	-1.338321978585897E-004
2.9552035E+004	9.3359515E-002	7.0472141E-003	9.3625113E-002	-4.3167677E+000	1.905550109173055E+001	-1.1936990E-004	-4.2048621E-001	7.6421448E+002	4.3297768E+000	1.000000000000000E+000	37	5.1981928E-003	5.5521350E-002	0	-2.816679054253217E-003	3.9607573E-001	2.0109831E-001	6.3365107E+000	7.8465964E-006	1.3104828E-005	7.7833138E-006	7.3912875E-006	5.2924383E-006	4.8742822E-006	1.3367170E-001	2.1796146E-002	3.9323449E-001	1.2446269E-005	7.2041606E-005	2.4463429E-006	1.0810117E-005	4.0063987E-006	2.1775249E-006	1.0650595E+001	8.0395687E-001	1.0680895E+001	4.3167677E+000	4.3297734E+003	5.7359664E+004	5.7522848E+004	-8.5683235E+001	0.0000000E+000	0.0000000E+000	0.0000000E+000	8.5683235E+001	0.0000000E+000	0.0000000E+000	0.0000000E+000	-8.5683235E+001	0.0000000E+000	0.0000000E+000	0.0000000E+000	-4.3167677E+000	0.0000000E+000	0.0000000E+000	0.0000000E+000	4.3167677E+000	1.3247720E+001	8.5683235E+001	-2.560024121128954E-004
2.3493170E+004	9.5140599E-002	8.5975807E-003	9.5528275E-002	-5.1636291E+000	2.020347829294042E+001	-1.2050698E-004	-4.3381190E-001	7.8795648E+002	6.3825011E+000	1.000000000000000E+000	37	5.1890877E-003	5.4319914E-002	0	-3.034203682225197E-003	2.8482187E-001	1.9445823E-001	6.1956758E+000	5.8944765E-006	4.2149059E-006	7.2766470E-006	3.4461400E-006	4.6105179E-006	7.2200078E-006	1.2244400E-001	7.2093671E-003	4.0289751E-001	2.0506968E-006	6.5315500E-005	5.1174516E-006	9.4495899E-006	4.1832091E-006	3.1881239E-006	1.0425623E+001	9.4213349E-001	1.0468105E+001	5.1636291E+000	6.3825000E+003	7.0628586E+004	7.0916383E+004	-8.4836372E+001	0.0000000E+000	0.0000000E+000	0.0000000E+000	8.4836372E+001	0.0000000E+000	0.0000000E+000	0.0000000E+000	-8.4836372E+001	0.0000000E+000	0.0000000E+000	0.0000000E+000	-5.1636291E+000	0.0000000E+000	0.0000000E+000	0.0000000E+000	5.1636291E+000	1.1065973E+001	8.4836372E+001	-2.175246279719802E-004
1.8677629E+004	9.7215660E-002	9.7923102E-003	9.7707592E-002	-5.7518716E+000	2.135147968077217E+001	-1.1907165E-004	-3.8693008E-001	8.7018823E+002	8.7403126E+000	1.000000000000000E+000	37	5.1818183E-003	5.3033937E-002	0	-3.114490325733605E-003	3.2939968E-001	1.3381763E-001	6.2892466E+000	7.0641599E-006	6.5183249E-006	5.8762193E-006	4.3693576E-006	6.1573483E-006	7.1088857E-006	1.1619616E-001	3.3657536E-002	4.0889123E-001	5.6202921E-006	5.9661306E-005	7.5561443E-006	7.3692099E-006	5.8559913E-006	4.6289570E-006	1.0183090E+001	1.0257193E+000	1.0234619E+001	5.7518716E+000	8.7403086E+003	8.6771680E+004	8.7210766E+004	-8.4248131E+001	0.0000000E+000	0.0000000E+000	0.0000000E+000	8.4248131E+001	0.0000000E+000	0.0000000E+000	0.0000000E+000	-8.4248131E+001	0.0000000E+000	0.0000000E+000	0.0000000E+000	-5.7518716E+000	0.0000000E+000	0.0000000E+000	0.0000000E+000	5.7518716E+000	9.9277554E+000	8.4248131E+001	-8.028664350840774E-005
1.4854886E+004	9.9241190E-002	1.0549582E-002	9.9800341E-002	-6.0678940E+000	2.249949205529992E+001	-1.2583823E-004	-4.1211119E-001	1.0155834E+003	1.1348070E+001	1.000000000000000E+000	37	5.1619038E-003	5.1722307E-002	0	-3.200724853760634E-003	3.6659539E-001	1.5444490E-001	6.2594199E+000	3.6287031E-006	9.5870600E-006	7.4075306E-006	5.8590467E-006	6.2096810E-006	8.8490260E-006	1.0754862E-001	2.5724927E-002	4.1913959E-001	3.4939651E-006	5.4391730E-005	4.5081033E-006	5.8617788E-006	5.9942790E-006	4.1608073E-006	9.9638672E+000	1.0591835E+000	1.0020006E+001	6.0678940E+000	1.1348069E+004	1.0675266E+005	1.0735413E+005	-8.3932106E+001	0.0000000E+000	0.0000000E+000	0.0000000E+000	8.3932106E+001	0.0000000E+000	0.0000000E+000	0.0000000E+000	-8.3932106E+001	0.0000000E+000	0.0000000E+000	0.0000000E+000	-6.0678940E+000	0.0000000E+000	0.0000000E+000	0.0000000E+000	6.0678940E+000	9.4071207E+000	8.3932106E+001	-8.623452802702892E-005
1.1811532E+004	1.0147786E-001	1.1299491E-002	1.0210502E-001	-6.3536735E+000	2.364748733650777E+001	-1.1774816E-004	-3.9457935E-001	1.1924907E+003	1.4604226E+001	1.000000000000000E+000	37	5.1458059E-003	5.0397187E-002	0	-3.380794265437454E-003	3.1801063E-001	2.3097067E-001	6.3986959E+000	1.0846084E-005	4.6371260E-006	7.1574327E-006	4.0140108E-006	4.4911758E-006	4.1794415E-006	9.6091479E-002	5.0190985E-002	4.3547004E-001	4.9321447E-006	4.6766847E-005	5.4927464E-006	4.4162193E-006	6.3796124E-006	2.8595675E-006	9.7336807E+000	1.0838388E+000	9.7938375E+000	6.3536735E+000	1.4604232E+004	1.3115686E+005	1.3196744E+005	-8.3646324E+001	0.0000000E+000	0.0000000E+000	0.0000000E+000	8.3646324E+001	0.0000000E+000	0.0000000E+000	0.0000000E+000	-8.3646324E+001	0.0000000E+000	0.0000000E+000	0.0000000E+000	-6.3536735E+000	0.0000000E+000	0.0000000E+000	0.0000000E+000	6.3536735E+000	8.9807463E+000	8.3646324E+001	-1.800694116768200E-004
