EC-Lab ASCII FILE
Nb header lines : 76                          

Potentio Electrochemical Impedance Spectroscopy

Run on channel : 1 (SN 5680)
User : 
Electrode connection : standard
Potential control : Ewe
Ewe ctrl range : min = 0.00 V, max = 5.00 V
Ewe,I filtering : 50 kHz
Safety Limits :
	Do not start on E overload
Channel : Floating
Acquisition started on : 01/21/2022 14:13:40.528
Loaded Setting File :  C:\Data\baili\Compression Ratio Tests\final\SGL 2.5 Felt ve=2\EIS_fullcell_CR0_flowthrough_C01.mpr
Saved on :
	File : EIS_fullcell_CR30_flowthrough_ve=1_C01.mpr
	Directory : C:\Data\baili\Compression Ratio Tests\final\SGL 2.5 Felt ve=2\SGL 2.5 Felt ve=other\
	Host : 192.168.0.1
Device : SP-300 (SN 0955)
Address : 192.168.0.4
EC-Lab for windows v11.36 (software)
Internet server v11.36 (firmware)
Command interpretor v11.36 (firmware)
Electrode material : 
Initial state : 
Electrolyte : 
Comments : 
Current amplifier : B-10A5V
Cable : standard
Electrode surface area : 0.001 cm2
Characteristic mass : 0.001 g
Equivalent Weight : 0.000 g/eq.
Density : 0.000 g/cm3
Volume (V) : 0.000 m3
Record Power
Cycle Definition : Charge/Discharge alternance
External device configuration :
   device type : Other
   device name : Other
   Analog OUT : 
      mode : E/V
      unit : speed/rpm
      max : 150.000 at 5.000 V
      min : 0.000 at 0.000 V
      current : 32.000
Mode                Single sine         
E (V)               0.0000              
vs.                 Eoc                 
tE (h:m:s)          0:00:0.0000         
record              0                   
dI                  0.000               
unit dI             mA                  
dt (s)              0.000               
fi                  200.000             
unit fi             kHz                 
ff                  30.000              
unit ff             mHz                 
Nd                  12                  
Points              per decade          
spacing             Logarithmic         
Va (mV)             10.0                
pw                  0.10                
Na                  3                   
corr                0                   
E range min (V)     0.000               
E range max (V)     5.000               
I Range             Auto                
Bandwidth           8                   
nc cycles           3                   
goto Ns'            0                   
nr cycles           0                   
inc. cycle          0                   

freq/Hz	Re(Z)/Ohm	-Im(Z)/Ohm	|Z|/Ohm	Phase(Z)/deg	time/s	<Ewe>/V	<I>/mA	Cs/uF	Cp/uF	cycle number	I Range	|Ewe|/V	|I|/A	Ns	(Q-Qo)/mA.h	Analog OUT/V	P/W	Re(Y)/Ohm-1	Im(Y)/Ohm-1	|Y|/Ohm-1	Phase(Y)/deg	Re(C)/nF	Im(C)/nF	|C|/nF	Phase(C)/deg	Re(M)	Im(M)	|M|	Phase(M)/deg	Re(Permittivity)	Im(Permittivity)	|Permittivity|	Phase(Permittivity)/deg	Re(Resistivity)/Ohm.cm	Im(Resistivity)/Ohm.cm	|Resistivity|/Ohm.cm	Phase(Resistivity)/deg	Re(Conductivity)/mS/cm	Im(Conductivity)/mS/cm	|Conductivity|/mS/cm	Phase(Conductivity)/deg	Tan(Delta)	Loss Angle(Delta)/deg	dq/mA.h	
1.9999814E+005	6.9746085E-002	-2.3187812E-002	7.3499598E-002	1.8389923E+001	1.782477097964147E+000	1.3926024E+000	-1.3543722E+001	-3.4318981E+001	-3.4157338E+000	1.000000000000000E+000	65	9.6798539E-003	1.3169941E-001	0	-2.543739274937090E-003	3.2000000E+001	-1.8861020E-002	1.2910704E+001	-4.2922974E+000	1.3605516E+001	-1.8389923E+001	-3.4157339E+003	1.0274107E+004	1.0827027E+004	-1.0838992E+002	0.0000000E+000	0.0000000E+000	0.0000000E+000	1.0838992E+002	0.0000000E+000	0.0000000E+000	0.0000000E+000	-1.0838992E+002	0.0000000E+000	0.0000000E+000	0.0000000E+000	1.8389923E+001	0.0000000E+000	0.0000000E+000	0.0000000E+000	-1.8389923E+001	-3.0078769E+000	-1.8389923E+001	-2.543739274937090E-003
1.6473055E+005	7.0915401E-002	-1.8006373E-002	7.3165730E-002	1.4247082E+001	2.355491951835575E+000	1.3926015E+000	4.1271625E+000	-5.3656181E+001	-3.2498014E+000	1.000000000000000E+000	65	1.0425411E-002	1.4249036E-001	0	-1.291085422534910E-003	3.2000000E+001	5.7474924E-003	1.3247232E+001	-3.3636501E+000	1.3667601E+001	-1.4247082E+001	-3.2498022E+003	1.2798855E+004	1.3204996E+004	-1.0424709E+002	0.0000000E+000	0.0000000E+000	0.0000000E+000	1.0424709E+002	0.0000000E+000	0.0000000E+000	0.0000000E+000	-1.0424709E+002	0.0000000E+000	0.0000000E+000	0.0000000E+000	1.4247082E+001	0.0000000E+000	0.0000000E+000	0.0000000E+000	-1.4247082E+001	-3.9383500E+000	-1.4247082E+001	1.252653852402181E-003
1.3568883E+005	7.1823463E-002	-1.3672441E-002	7.3113240E-002	1.0777971E+001	2.928483205760131E+000	1.3925983E+000	4.1802630E+000	-8.5788681E+001	-3.0000606E+000	1.000000000000000E+000	65	1.0532975E-002	1.4406386E-001	0	-9.783902735714283E-004	3.2000000E+001	5.8214269E-003	1.3436132E+001	-2.5577259E+000	1.3677413E+001	-1.0777971E+001	-3.0000603E+003	1.5759787E+004	1.6042794E+004	-1.0077797E+002	0.0000000E+000	0.0000000E+000	0.0000000E+000	1.0077797E+002	0.0000000E+000	0.0000000E+000	0.0000000E+000	-1.0077797E+002	0.0000000E+000	0.0000000E+000	0.0000000E+000	1.0777971E+001	0.0000000E+000	0.0000000E+000	0.0000000E+000	-1.0777971E+001	-5.2531557E+000	-1.0777971E+001	3.126951489634813E-004
1.1175957E+005	7.2704479E-002	-1.0012884E-002	7.3390730E-002	7.8414655E+000	3.501494219613960E+000	1.3925977E+000	4.1042452E+000	-1.4222510E+002	-2.6473551E+000	1.000000000000000E+000	65	1.0561296E-002	1.4390504E-001	0	-1.463718391004432E-003	3.2000000E+001	5.7155625E-003	1.3498290E+001	-1.8589889E+000	1.3625699E+001	-7.8414655E+000	-2.6473562E+003	1.9222689E+004	1.9404131E+004	-9.7841469E+001	0.0000000E+000	0.0000000E+000	0.0000000E+000	9.7841469E+001	0.0000000E+000	0.0000000E+000	0.0000000E+000	-9.7841469E+001	0.0000000E+000	0.0000000E+000	0.0000000E+000	7.8414655E+000	0.0000000E+000	0.0000000E+000	0.0000000E+000	-7.8414655E+000	-7.2610931E+000	-7.8414655E+000	-4.853281174330040E-004
9.2052031E+004	7.3368385E-002	-6.9189449E-003	7.3693909E-002	5.3872986E+000	4.073487393470714E+000	1.3925991E+000	4.0787196E+000	-2.4988882E+002	-2.2027409E+000	1.000000000000000E+000	65	1.0549937E-002	1.4315888E-001	0	-1.009319612045669E-003	3.2000000E+001	5.6800214E-003	1.3509704E+001	-1.2740214E+000	1.3569643E+001	-5.3872986E+000	-2.2027410E+003	2.3357830E+004	2.3461465E+004	-9.5387299E+001	0.0000000E+000	0.0000000E+000	0.0000000E+000	9.5387299E+001	0.0000000E+000	0.0000000E+000	0.0000000E+000	-9.5387299E+001	0.0000000E+000	0.0000000E+000	0.0000000E+000	5.3872986E+000	0.0000000E+000	0.0000000E+000	0.0000000E+000	-5.3872986E+000	-1.0603985E+001	-5.3872986E+000	4.543987789587633E-004
7.5823930E+004	7.4172124E-002	-4.1891783E-003	7.4290328E-002	3.2325828E+000	4.647475260688225E+000	1.3925891E+000	3.9926398E+000	-5.0105453E+002	-1.5932287E+000	1.000000000000000E+000	65	1.0549580E-002	1.4200476E-001	0	-8.756048640153474E-004	3.2000000E+001	5.5601066E-003	1.3439285E+001	-7.5903946E-001	1.3460703E+001	-3.2325828E+000	-1.5932285E+003	2.8209148E+004	2.8254105E+004	-9.3232582E+001	0.0000000E+000	0.0000000E+000	0.0000000E+000	9.3232582E+001	0.0000000E+000	0.0000000E+000	0.0000000E+000	-9.3232582E+001	0.0000000E+000	0.0000000E+000	0.0000000E+000	3.2325828E+000	0.0000000E+000	0.0000000E+000	0.0000000E+000	-3.2325828E+000	-1.7705650E+001	-3.2325828E+000	1.337147480303216E-004
6.2453605E+004	7.4855052E-002	-1.7647347E-003	7.4875854E-002	1.3505183E+000	5.220488007907989E+000	1.3925924E+000	4.0377288E+000	-1.4440532E+003	-8.0215538E-001	1.000000000000000E+000	65	1.0543001E-002	1.4080642E-001	0	6.479780473808448E-005	3.2000000E+001	5.6229103E-003	1.3351730E+001	-3.1477183E-001	1.3355440E+001	-1.3505183E+000	-8.0215479E+002	3.4025164E+004	3.4034617E+004	-9.1350517E+001	0.0000000E+000	0.0000000E+000	0.0000000E+000	9.1350517E+001	0.0000000E+000	0.0000000E+000	0.0000000E+000	-9.1350517E+001	0.0000000E+000	0.0000000E+000	0.0000000E+000	1.3505183E+000	0.0000000E+000	0.0000000E+000	0.0000000E+000	-1.3505183E+000	-4.2417168E+001	-1.3505183E+000	9.404026687534319E-004
5.1440023E+004	7.5687908E-002	3.2569756E-004	7.5688608E-002	-2.4655169E-001	5.793487208458828E+000	1.3926007E+000	4.1284666E+000	9.4995820E+003	1.7590268E-001	1.000000000000000E+000	65	1.0521010E-002	1.3900387E-001	0	-7.960298009365797E-004	3.2000000E+001	5.7493052E-003	1.3211905E+001	5.6853011E-002	1.3212028E+001	2.4655169E-001	1.7590256E+002	4.0877508E+004	4.0877887E+004	-8.9753448E+001	0.0000000E+000	0.0000000E+000	0.0000000E+000	8.9753448E+001	0.0000000E+000	0.0000000E+000	0.0000000E+000	-8.9753448E+001	0.0000000E+000	0.0000000E+000	0.0000000E+000	-2.4655169E-001	0.0000000E+000	0.0000000E+000	0.0000000E+000	2.4655169E-001	2.3238708E+002	2.4655169E-001	-8.608276056746642E-004
4.2374922E+004	7.6487370E-002	2.2370100E-003	7.6520078E-002	-1.6752400E+000	6.365491955628386E+000	1.3925989E+000	4.0859857E+000	1.6789713E+003	1.4349221E+000	1.000000000000000E+000	65	1.0485258E-002	1.3702624E-001	0	-4.632804478390349E-004	3.2000000E+001	5.6901388E-003	1.3062880E+001	3.8204730E-001	1.3068465E+001	1.6752400E+000	1.4349219E+003	4.9062555E+004	4.9083535E+004	-8.8324760E+001	0.0000000E+000	0.0000000E+000	0.0000000E+000	8.8324760E+001	0.0000000E+000	0.0000000E+000	0.0000000E+000	-8.8324760E+001	0.0000000E+000	0.0000000E+000	0.0000000E+000	-1.6752400E+000	0.0000000E+000	0.0000000E+000	0.0000000E+000	1.6752400E+000	3.4191788E+001	1.6752400E+000	3.327493530975448E-004
3.4896449E+004	7.7447340E-002	3.9739013E-003	7.7549227E-002	-2.9373281E+000	6.938475556176854E+000	1.3925875E+000	3.8016629E+000	1.1476826E+003	3.0137069E+000	1.000000000000000E+000	65	1.0463372E-002	1.3492554E-001	0	-5.764142241142691E-004	3.2000000E+001	5.2941483E-003	1.2878093E+001	6.6078794E-001	1.2895035E+001	2.9373281E+000	3.0137031E+003	5.8734121E+004	5.8811387E+004	-8.7062675E+001	0.0000000E+000	0.0000000E+000	0.0000000E+000	8.7062675E+001	0.0000000E+000	0.0000000E+000	0.0000000E+000	-8.7062675E+001	0.0000000E+000	0.0000000E+000	0.0000000E+000	-2.9373281E+000	0.0000000E+000	0.0000000E+000	0.0000000E+000	2.9373281E+000	1.9488995E+001	2.9373281E+000	-1.131337762752341E-004
2.8744803E+004	7.8576736E-002	5.5755717E-003	7.8774303E-002	-4.0587354E+000	7.512478090153309E+000	1.3925923E+000	3.8884876E+000	9.9305060E+002	4.9748621E+000	1.000000000000000E+000	65	1.0442708E-002	1.3256490E-001	0	-3.438477630933954E-004	3.2000000E+001	5.4150778E-003	1.2662658E+001	8.9850450E-001	1.2694495E+001	4.0587354E+000	4.9748662E+003	7.0110914E+004	7.0287195E+004	-8.5941261E+001	0.0000000E+000	0.0000000E+000	0.0000000E+000	8.5941261E+001	0.0000000E+000	0.0000000E+000	0.0000000E+000	-8.5941261E+001	0.0000000E+000	0.0000000E+000	0.0000000E+000	-4.0587354E+000	0.0000000E+000	0.0000000E+000	0.0000000E+000	4.0587354E+000	1.4093037E+001	4.0587354E+000	2.325664610208737E-004
2.3678742E+004	7.9781272E-002	7.0122746E-003	8.0088846E-002	-5.0230322E+000	8.086494730698178E+000	1.3925945E+000	4.0075450E+000	9.5852313E+002	7.3481216E+000	1.000000000000000E+000	65	1.0419462E-002	1.3009879E-001	0	-2.543099124452306E-004	3.2000000E+001	5.5808849E-003	1.2438182E+001	1.0932384E+000	1.2486134E+001	5.0230322E+000	7.3481226E+003	8.3602328E+004	8.3924633E+004	-8.4976967E+001	0.0000000E+000	0.0000000E+000	0.0000000E+000	8.4976967E+001	0.0000000E+000	0.0000000E+000	0.0000000E+000	-8.4976967E+001	0.0000000E+000	0.0000000E+000	0.0000000E+000	-5.0230322E+000	0.0000000E+000	0.0000000E+000	0.0000000E+000	5.0230322E+000	1.1377374E+001	5.0230322E+000	8.953785064816475E-005
1.9503414E+004	8.1093021E-002	8.3270529E-003	8.1519432E-002	-5.8628798E+000	8.659488757926738E+000	1.3925860E+000	4.0213327E+000	9.7998218E+002	1.0225358E+001	1.000000000000000E+000	65	1.0383338E-002	1.2737255E-001	0	6.362509528363330E-004	3.2000000E+001	5.6000515E-003	1.2202847E+001	1.2530519E+000	1.2267014E+001	5.8628798E+000	1.0225354E+004	9.9579672E+004	1.0010329E+005	-8.4137123E+001	0.0000000E+000	0.0000000E+000	0.0000000E+000	8.4137123E+001	0.0000000E+000	0.0000000E+000	0.0000000E+000	-8.4137123E+001	0.0000000E+000	0.0000000E+000	0.0000000E+000	-5.8628798E+000	0.0000000E+000	0.0000000E+000	0.0000000E+000	5.8628798E+000	9.7385015E+000	5.8628798E+000	8.905608652815637E-004
1.6061090E+004	8.2570992E-002	9.6570421E-003	8.3133794E-002	-6.6706896E+000	9.233481505216332E+000	1.3925864E+000	3.9112179E+000	1.0261267E+003	1.3846310E+001	1.000000000000000E+000	65	1.0347715E-002	1.2447062E-001	0	2.054253997886346E-003	3.2000000E+001	5.4467088E-003	1.1947371E+001	1.3972976E+000	1.2028803E+001	6.6706896E+000	1.3846314E+004	1.1839065E+005	1.1919759E+005	-8.3329308E+001	0.0000000E+000	0.0000000E+000	0.0000000E+000	8.3329308E+001	0.0000000E+000	0.0000000E+000	0.0000000E+000	-8.3329308E+001	0.0000000E+000	0.0000000E+000	0.0000000E+000	-6.6706896E+000	0.0000000E+000	0.0000000E+000	0.0000000E+000	6.6706896E+000	8.5503397E+000	6.6706896E+000	1.418003045050013E-003
1.3231144E+004	8.4064119E-002	1.0772574E-002	8.4751546E-002	-7.3024893E+000	9.807495505810948E+000	1.3925762E+000	3.9048834E+000	1.1166145E+003	1.8040434E+001	1.000000000000000E+000	65	1.0321591E-002	1.2178647E-001	0	3.236346402747350E-003	3.2000000E+001	5.4378477E-003	1.1703490E+001	1.4997685E+000	1.1799194E+001	7.3024893E+000	1.8040436E+004	1.4077909E+005	1.4193030E+005	-8.2697510E+001	0.0000000E+000	0.0000000E+000	0.0000000E+000	8.2697510E+001	0.0000000E+000	0.0000000E+000	0.0000000E+000	-8.2697510E+001	0.0000000E+000	0.0000000E+000	0.0000000E+000	-7.3024893E+000	0.0000000E+000	0.0000000E+000	0.0000000E+000	7.3024893E+000	7.8035316E+000	7.3024893E+000	1.182092404861003E-003
1.0902241E+004	8.5777402E-002	1.1925477E-002	8.6602420E-002	-7.9149933E+000	1.037949987963657E+001	1.3925903E+000	3.9510903E+000	1.2241329E+003	2.3212399E+001	1.000000000000000E+000	65	1.0263094E-002	1.1850816E-001	0	3.583725743025127E-003	3.2000000E+001	5.5022500E-003	1.1437018E+001	1.5900681E+000	1.1547022E+001	7.9149933E+000	2.3212400E+004	1.6696183E+005	1.6856769E+005	-8.2085007E+001	0.0000000E+000	0.0000000E+000	0.0000000E+000	8.2085007E+001	0.0000000E+000	0.0000000E+000	0.0000000E+000	-8.2085007E+001	0.0000000E+000	0.0000000E+000	0.0000000E+000	-7.9149933E+000	0.0000000E+000	0.0000000E+000	0.0000000E+000	7.9149933E+000	7.1927862E+000	7.9149933E+000	3.473793402777778E-004
8.9747607E+003	8.7639913E-002	1.2848235E-002	8.8576697E-002	-8.3402958E+000	1.097613926799386E+001	1.3924971E+000	3.3943684E+000	1.3802373E+003	2.9040342E+001	1.000000000000000E+000	65	1.0399295E-002	1.1740441E-001	0	3.720429651337365E-003	3.2000000E+001	4.7266479E-003	1.1170252E+001	1.6375875E+000	1.1289651E+001	8.3402958E+000	2.9040338E+004	1.9808894E+005	2.0020631E+005	-8.1659706E+001	0.0000000E+000	0.0000000E+000	0.0000000E+000	8.1659706E+001	0.0000000E+000	0.0000000E+000	0.0000000E+000	-8.1659706E+001	0.0000000E+000	0.0000000E+000	0.0000000E+000	-8.3402958E+000	0.0000000E+000	0.0000000E+000	0.0000000E+000	8.3402958E+000	6.8211637E+000	8.3402958E+000	1.367039083122381E-004
7.3948726E+003	8.9570299E-002	1.3585860E-002	9.0594776E-002	-8.6247797E+000	1.166461946073468E+001	1.3924973E+000	3.3483477E+000	1.5841719E+003	3.5626263E+001	1.000000000000000E+000	65	1.0269508E-002	1.1335651E-001	0	4.266924379954735E-003	3.2000000E+001	4.6625650E-003	1.0913341E+001	1.6553158E+000	1.1038164E+001	8.6247797E+000	3.5626258E+004	2.3488059E+005	2.3756709E+005	-8.1375221E+001	0.0000000E+000	0.0000000E+000	0.0000000E+000	8.1375221E+001	0.0000000E+000	0.0000000E+000	0.0000000E+000	-8.1375221E+001	0.0000000E+000	0.0000000E+000	0.0000000E+000	-8.6247797E+000	0.0000000E+000	0.0000000E+000	0.0000000E+000	8.6247797E+000	6.5929060E+000	8.6247797E+000	5.464947286173698E-004
6.0875864E+003	9.1467857E-002	1.4446765E-002	9.2601717E-002	-8.9753599E+000	1.246642173876171E+001	1.3924886E+000	3.2650628E+000	1.8096908E+003	4.4046108E+001	1.000000000000000E+000	65	1.0198113E-002	1.1012876E-001	0	6.003258110062943E-003	3.2000000E+001	4.5465627E-003	1.0666709E+001	1.6847386E+000	1.0798936E+001	8.9753599E+000	4.4046098E+004	2.7887234E+005	2.8232931E+005	-8.1024643E+001	0.0000000E+000	0.0000000E+000	0.0000000E+000	8.1024643E+001	0.0000000E+000	0.0000000E+000	0.0000000E+000	-8.1024643E+001	0.0000000E+000	0.0000000E+000	0.0000000E+000	-8.9753599E+000	0.0000000E+000	0.0000000E+000	0.0000000E+000	8.9753599E+000	6.3313727E+000	8.9753599E+000	1.736333730108208E-003
5.0166025E+003	9.3592659E-002	1.5052123E-002	9.4795316E-002	-9.1364098E+000	1.339166772942554E+001	1.3924814E+000	3.4021938E+000	2.1077188E+003	5.3141575E+001	1.000000000000000E+000	65	1.0136648E-002	1.0693195E-001	0	7.727522363148422E-003	3.2000000E+001	4.7374917E-003	1.0415210E+001	1.6750354E+000	1.0549045E+001	9.1364098E+000	5.3141598E+004	3.3042922E+005	3.3467522E+005	-8.0863586E+001	0.0000000E+000	0.0000000E+000	0.0000000E+000	8.0863586E+001	0.0000000E+000	0.0000000E+000	0.0000000E+000	-8.0863586E+001	0.0000000E+000	0.0000000E+000	0.0000000E+000	-9.1364098E+000	0.0000000E+000	0.0000000E+000	0.0000000E+000	9.1364098E+000	6.2179041E+000	9.1364098E+000	1.724264253085479E-003
4.1313247E+003	9.5676750E-002	1.5659185E-002	9.6949734E-002	-9.2950516E+000	1.408269917558209E+001	1.3924768E+000	3.3043764E+000	2.4601504E+003	6.4181038E+001	1.000000000000000E+000	65	1.0861844E-002	1.1203583E-001	0	8.220395956826707E-003	3.2000000E+001	4.6012676E-003	1.0179190E+001	1.6660035E+000	1.0314624E+001	9.2950516E+000	6.4181031E+004	3.9214256E+005	3.9736003E+005	-8.0704948E+001	0.0000000E+000	0.0000000E+000	0.0000000E+000	8.0704948E+001	0.0000000E+000	0.0000000E+000	0.0000000E+000	-8.0704948E+001	0.0000000E+000	0.0000000E+000	0.0000000E+000	-9.2950516E+000	0.0000000E+000	0.0000000E+000	0.0000000E+000	9.2950516E+000	6.1099443E+000	9.2950516E+000	4.928735936782841E-004
3.4039094E+003	9.7993724E-002	1.6164362E-002	9.9317960E-002	-9.3667650E+000	1.500682343280641E+001	1.3924851E+000	3.4124410E+000	2.8925676E+003	7.6620522E+001	1.000000000000000E+000	65	1.0173224E-002	1.0243086E-001	0	1.005139702921982E-002	3.2000000E+001	4.7517736E-003	9.9344234E+000	1.6387132E+000	1.0068672E+001	9.3667650E+000	7.6620547E+004	4.6449903E+005	4.7077603E+005	-8.0633232E+001	0.0000000E+000	0.0000000E+000	0.0000000E+000	8.0633232E+001	0.0000000E+000	0.0000000E+000	0.0000000E+000	-8.0633232E+001	0.0000000E+000	0.0000000E+000	0.0000000E+000	-9.3667650E+000	0.0000000E+000	0.0000000E+000	0.0000000E+000	9.3667650E+000	6.0623317E+000	9.3667650E+000	1.831001072393109E-003
2.8023123E+003	1.0030011E-001	1.6623611E-002	1.0166837E-001	-9.4105835E+000	1.569792989228154E+001	1.3924797E+000	3.4761624E+000	3.4164751E+003	9.1339218E+001	1.000000000000000E+000	65	1.0450953E-002	1.0279454E-001	0	1.045139309092777E-002	3.2000000E+001	4.8404853E-003	9.7035294E+000	1.6082505E+000	9.8359013E+000	9.4105835E+000	9.1339227E+004	5.5110375E+005	5.5862169E+005	-8.0589417E+001	0.0000000E+000	0.0000000E+000	0.0000000E+000	8.0589417E+001	0.0000000E+000	0.0000000E+000	0.0000000E+000	-8.0589417E+001	0.0000000E+000	0.0000000E+000	0.0000000E+000	-9.4105835E+000	0.0000000E+000	0.0000000E+000	0.0000000E+000	9.4105835E+000	6.0335937E+000	9.4105835E+000	3.999960617079509E-004
2.3092627E+003	1.0275632E-001	1.7001469E-002	1.0415331E-001	-9.3947191E+000	1.638979816515348E+001	1.3924863E+000	3.4172852E+000	4.0537815E+003	1.0801575E+002	1.000000000000000E+000	65	1.0617678E-002	1.0194279E-001	0	1.117059628052927E-002	3.2000000E+001	4.7585228E-003	9.4724522E+000	1.5672573E+000	9.6012316E+000	9.3947191E+000	1.0801578E+005	6.5284369E+005	6.6171919E+005	-8.0605278E+001	0.0000000E+000	0.0000000E+000	0.0000000E+000	8.0605278E+001	0.0000000E+000	0.0000000E+000	0.0000000E+000	-8.0605278E+001	0.0000000E+000	0.0000000E+000	0.0000000E+000	-9.3947191E+000	0.0000000E+000	0.0000000E+000	0.0000000E+000	9.3947191E+000	6.0439672E+000	9.3947191E+000	7.192031896015010E-004
