EC-Lab ASCII FILE
Nb header lines : 76                          

Potentio Electrochemical Impedance Spectroscopy

Run on channel : 1 (SN 5680)
User : 
Electrode connection : standard
Potential control : Ewe
Ewe ctrl range : min = 0.00 V, max = 5.00 V
Ewe,I filtering : 50 kHz
Safety Limits :
	Do not start on E overload
Channel : Floating
Acquisition started on : 01/21/2022 13:21:12.055
Loaded Setting File :  C:\Data\baili\Compression Ratio Tests\final\SGL 2.5 Felt ve=2\EIS_fullcell_CR10_flowthrough_C01.mpr
Saved on :
	File : EIS_fullcell_CR30_flowthrough_ve=0.5_C01.mpr
	Directory : C:\Data\baili\Compression Ratio Tests\final\SGL 2.5 Felt ve=2\SGL 2.5 Felt ve=other\
	Host : 192.168.0.1
Device : SP-300 (SN 0955)
Address : 192.168.0.4
EC-Lab for windows v11.36 (software)
Internet server v11.36 (firmware)
Command interpretor v11.36 (firmware)
Electrode material : 
Initial state : 
Electrolyte : 
Comments : 
Current amplifier : B-10A5V
Cable : standard
Electrode surface area : 0.001 cm2
Characteristic mass : 0.001 g
Equivalent Weight : 0.000 g/eq.
Density : 0.000 g/cm3
Volume (V) : 0.000 m3
Record Power
Cycle Definition : Charge/Discharge alternance
External device configuration :
   device type : Other
   device name : Other
   Analog OUT : 
      mode : E/V
      unit : speed/rpm
      max : 150.000 at 5.000 V
      min : 0.000 at 0.000 V
      current : 32.000
Mode                Single sine         
E (V)               0.0000              
vs.                 Eoc                 
tE (h:m:s)          0:00:0.0000         
record              0                   
dI                  0.000               
unit dI             mA                  
dt (s)              0.000               
fi                  200.000             
unit fi             kHz                 
ff                  30.000              
unit ff             mHz                 
Nd                  12                  
Points              per decade          
spacing             Logarithmic         
Va (mV)             10.0                
pw                  0.10                
Na                  3                   
corr                0                   
E range min (V)     0.000               
E range max (V)     5.000               
I Range             Auto                
Bandwidth           8                   
nc cycles           3                   
goto Ns'            0                   
nr cycles           0                   
inc. cycle          0                   

freq/Hz	Re(Z)/Ohm	-Im(Z)/Ohm	|Z|/Ohm	Phase(Z)/deg	time/s	<Ewe>/V	<I>/mA	Cs/uF	Cp/uF	cycle number	I Range	|Ewe|/V	|I|/A	Ns	(Q-Qo)/mA.h	Analog OUT/V	P/W	Re(Y)/Ohm-1	Im(Y)/Ohm-1	|Y|/Ohm-1	Phase(Y)/deg	Re(C)/nF	Im(C)/nF	|C|/nF	Phase(C)/deg	Re(M)	Im(M)	|M|	Phase(M)/deg	Re(Permittivity)	Im(Permittivity)	|Permittivity|	Phase(Permittivity)/deg	Re(Resistivity)/Ohm.cm	Im(Resistivity)/Ohm.cm	|Resistivity|/Ohm.cm	Phase(Resistivity)/deg	Re(Conductivity)/mS/cm	Im(Conductivity)/mS/cm	|Conductivity|/mS/cm	Phase(Conductivity)/deg	Tan(Delta)	Loss Angle(Delta)/deg	dq/mA.h	
1.9999814E+005	7.0658430E-002	-2.3267182E-002	7.4390694E-002	1.8226248E+001	1.784490271384129E+000	1.3902856E+000	-1.3550988E+001	-3.4201912E+001	-3.3458059E+000	1.000000000000000E+000	65	9.8186471E-003	1.3198757E-001	0	-2.841934360394875E-003	3.2000000E+001	-1.8839743E-002	1.2768114E+001	-4.2044249E+000	1.3442541E+001	-1.8226248E+001	-3.3458064E+003	1.0160637E+004	1.0697334E+004	-1.0822625E+002	0.0000000E+000	0.0000000E+000	0.0000000E+000	1.0822625E+002	0.0000000E+000	0.0000000E+000	0.0000000E+000	-1.0822625E+002	0.0000000E+000	0.0000000E+000	0.0000000E+000	1.8226248E+001	0.0000000E+000	0.0000000E+000	0.0000000E+000	-1.8226248E+001	-3.0368280E+000	-1.8226248E+001	-2.841934360394875E-003
1.6473055E+005	7.1845613E-002	-1.8030806E-002	7.4073628E-002	1.4088323E+001	2.358481738687260E+000	1.3902820E+000	4.0081043E+000	-5.3583473E+001	-3.1749279E+000	1.000000000000000E+000	65	1.0454942E-002	1.4114256E-001	0	-2.170122679370973E-003	3.2000000E+001	5.5723954E-003	1.3094021E+001	-3.2861538E+000	1.3500081E+001	-1.4088323E+001	-3.1749287E+003	1.2650830E+004	1.3043146E+004	-1.0408833E+002	0.0000000E+000	0.0000000E+000	0.0000000E+000	1.0408833E+002	0.0000000E+000	0.0000000E+000	0.0000000E+000	-1.0408833E+002	0.0000000E+000	0.0000000E+000	0.0000000E+000	1.4088323E+001	0.0000000E+000	0.0000000E+000	0.0000000E+000	-1.4088323E+001	-3.9846036E+000	-1.4088323E+001	6.718116810239027E-004
1.3568883E+005	7.2777994E-002	-1.3730573E-002	7.4061900E-002	1.0684057E+001	2.931492192525184E+000	1.3902880E+000	3.8713462E+000	-8.5425476E+001	-2.9361279E+000	1.000000000000000E+000	65	1.0557603E-002	1.4255106E-001	0	-1.495894669618871E-003	3.2000000E+001	5.3822864E-003	1.3268150E+001	-2.5032196E+000	1.3502219E+001	-1.0684057E+001	-2.9361287E+003	1.5562754E+004	1.5837303E+004	-1.0068406E+002	0.0000000E+000	0.0000000E+000	0.0000000E+000	1.0068406E+002	0.0000000E+000	0.0000000E+000	0.0000000E+000	-1.0068406E+002	0.0000000E+000	0.0000000E+000	0.0000000E+000	1.0684057E+001	0.0000000E+000	0.0000000E+000	0.0000000E+000	-1.0684057E+001	-5.3004341E+000	-1.0684057E+001	6.742280097521013E-004
1.1175957E+005	7.3652446E-002	-1.0038166E-002	7.4333355E-002	7.7610807E+000	3.505477713159053E+000	1.3902947E+000	3.9918947E+000	-1.4186688E+002	-2.5871544E+000	1.000000000000000E+000	65	1.0574850E-002	1.4226252E-001	0	-2.514165193546149E-004	3.2000000E+001	5.5499100E-003	1.3329680E+001	-1.8167156E+000	1.3452911E+001	-7.7610807E+000	-2.5871533E+003	1.8982574E+004	1.9158066E+004	-9.7761078E+001	0.0000000E+000	0.0000000E+000	0.0000000E+000	9.7761078E+001	0.0000000E+000	0.0000000E+000	0.0000000E+000	-9.7761078E+001	0.0000000E+000	0.0000000E+000	0.0000000E+000	7.7610807E+000	0.0000000E+000	0.0000000E+000	0.0000000E+000	-7.7610807E+000	-7.3372412E+000	-7.7610807E+000	1.244478150264257E-003
9.2052031E+004	7.4350961E-002	-6.9223051E-003	7.4672513E-002	5.3190813E+000	4.079493953759084E+000	1.3902817E+000	3.8508511E+000	-2.4976755E+002	-2.1464262E+000	1.000000000000000E+000	65	1.0570248E-002	1.4155473E-001	0	2.140435452842050E-005	3.2000000E+001	5.3537679E-003	1.3334142E+001	-1.2414500E+000	1.3391809E+001	-5.3190813E+000	-2.1464275E+003	2.3054295E+004	2.3153998E+004	-9.5319084E+001	0.0000000E+000	0.0000000E+000	0.0000000E+000	9.5319084E+001	0.0000000E+000	0.0000000E+000	0.0000000E+000	-9.5319084E+001	0.0000000E+000	0.0000000E+000	0.0000000E+000	5.3190813E+000	0.0000000E+000	0.0000000E+000	0.0000000E+000	-5.3190813E+000	-1.0740781E+001	-5.3190813E+000	2.728208738830354E-004
7.5823930E+004	7.5070970E-002	-4.2622779E-003	7.5191870E-002	3.2495735E+000	4.652491607615957E+000	1.3902768E+000	3.9110322E+000	-4.9246124E+002	-1.5823910E+000	1.000000000000000E+000	65	1.0546818E-002	1.4026541E-001	0	-1.668549635054337E-004	3.2000000E+001	5.4374174E-003	1.3277925E+001	-7.5387609E-001	1.3299310E+001	-3.2495735E+000	-1.5823909E+003	2.7870459E+004	2.7915344E+004	-9.3249573E+001	0.0000000E+000	0.0000000E+000	0.0000000E+000	9.3249573E+001	0.0000000E+000	0.0000000E+000	0.0000000E+000	-9.3249573E+001	0.0000000E+000	0.0000000E+000	0.0000000E+000	3.2495735E+000	0.0000000E+000	0.0000000E+000	0.0000000E+000	-3.2495735E+000	-1.7612875E+001	-3.2495735E+000	-1.882593180338542E-004
6.2453605E+004	7.5772263E-002	-1.8895312E-003	7.5795822E-002	1.4284874E+000	5.224495741451392E+000	1.3902807E+000	3.8079977E+000	-1.3486790E+003	-8.3815849E-001	1.000000000000000E+000	65	1.0545702E-002	1.3913302E-001	0	-1.030141064571424E-003	3.2000000E+001	5.2941856E-003	1.3189240E+001	-3.2889974E-001	1.3193339E+001	-1.4284874E+000	-8.3815979E+002	3.3611070E+004	3.3621520E+004	-9.1428490E+001	0.0000000E+000	0.0000000E+000	0.0000000E+000	9.1428490E+001	0.0000000E+000	0.0000000E+000	0.0000000E+000	-9.1428490E+001	0.0000000E+000	0.0000000E+000	0.0000000E+000	1.4284874E+000	0.0000000E+000	0.0000000E+000	0.0000000E+000	-1.4284874E+000	-4.0101093E+001	-1.4284874E+000	-8.632861010659899E-004
5.1440023E+004	7.6565377E-002	2.8057370E-004	7.6565892E-002	-2.0995934E-001	5.798478222073754E+000	1.3902836E+000	3.9132679E+000	1.1027372E+004	1.4807960E-001	1.000000000000000E+000	65	1.0525669E-002	1.3747203E-001	0	-1.395012295636659E-003	3.2000000E+001	5.4405523E-003	1.3060558E+001	4.7860391E-002	1.3060646E+001	2.0995934E-001	1.4808073E+002	4.0409246E+004	4.0409516E+004	-8.9790039E+001	0.0000000E+000	0.0000000E+000	0.0000000E+000	8.9790039E+001	0.0000000E+000	0.0000000E+000	0.0000000E+000	-8.9790039E+001	0.0000000E+000	0.0000000E+000	0.0000000E+000	-2.0995934E-001	0.0000000E+000	0.0000000E+000	0.0000000E+000	2.0995934E-001	2.7288864E+002	2.0995934E-001	-3.648712310652352E-004
4.2374922E+004	7.7461101E-002	2.2109158E-003	7.7492647E-002	-1.6349080E+000	6.371493529266445E+000	1.3902842E+000	3.8042712E+000	1.6987872E+003	1.3828096E+000	1.000000000000000E+000	65	1.0500837E-002	1.3550752E-001	0	-7.250330458713903E-004	3.2000000E+001	5.2890182E-003	1.2899198E+001	3.6817241E-001	1.2904450E+001	1.6349080E+000	1.3828121E+003	4.8447785E+004	4.8467516E+004	-8.8365089E+001	0.0000000E+000	0.0000000E+000	0.0000000E+000	8.8365089E+001	0.0000000E+000	0.0000000E+000	0.0000000E+000	-8.8365089E+001	0.0000000E+000	0.0000000E+000	0.0000000E+000	-1.6349080E+000	0.0000000E+000	0.0000000E+000	0.0000000E+000	1.6349080E+000	3.5035755E+001	1.6349080E+000	6.699792497652685E-004
3.4896449E+004	7.8385182E-002	3.9392966E-003	7.8484103E-002	-2.8770151E+000	6.944484356470639E+000	1.3902857E+000	3.9371166E+000	1.1577645E+003	2.9167161E+000	1.000000000000000E+000	65	1.0466032E-002	1.3335225E-001	0	-2.115842554577523E-004	3.2000000E+001	5.4737171E-003	1.2725374E+001	6.3952172E-001	1.2741434E+001	2.8770151E+000	2.9167153E+003	5.8037598E+004	5.8110844E+004	-8.7122986E+001	0.0000000E+000	0.0000000E+000	0.0000000E+000	8.7122986E+001	0.0000000E+000	0.0000000E+000	0.0000000E+000	-8.7122986E+001	0.0000000E+000	0.0000000E+000	0.0000000E+000	-2.8770151E+000	0.0000000E+000	0.0000000E+000	0.0000000E+000	2.8770151E+000	1.9898268E+001	2.8770151E+000	5.134487904136380E-004
2.8744803E+004	7.9495236E-002	5.5211824E-003	7.9686739E-002	-3.9729836E+000	7.517480010370491E+000	1.3902882E+000	3.8692963E+000	1.0028333E+003	4.8141632E+000	1.000000000000000E+000	65	1.0446248E-002	1.3109142E-001	0	2.667744793660111E-004	3.2000000E+001	5.3794370E-003	1.2518982E+001	8.6948085E-001	1.2549140E+001	3.9729836E+000	4.8141641E+003	6.9315414E+004	6.9482391E+004	-8.6027016E+001	0.0000000E+000	0.0000000E+000	0.0000000E+000	8.6027016E+001	0.0000000E+000	0.0000000E+000	0.0000000E+000	-8.6027016E+001	0.0000000E+000	0.0000000E+000	0.0000000E+000	-3.9729836E+000	0.0000000E+000	0.0000000E+000	0.0000000E+000	3.9729836E+000	1.4398227E+001	3.9729836E+000	4.783587348237634E-004
2.3678742E+004	8.0682412E-002	7.0521091E-003	8.0990024E-002	-4.9952869E+000	8.089495237538358E+000	1.3902940E+000	4.0013967E+000	9.5310889E+002	7.2263250E+000	1.000000000000000E+000	65	1.0417908E-002	1.2863199E-001	0	2.069514879297711E-003	3.2000000E+001	5.5631176E-003	1.2300303E+001	1.0751176E+000	1.2347199E+001	4.9952869E+000	7.2263223E+003	8.2675602E+004	8.2990813E+004	-8.5004715E+001	0.0000000E+000	0.0000000E+000	0.0000000E+000	8.5004715E+001	0.0000000E+000	0.0000000E+000	0.0000000E+000	-8.5004715E+001	0.0000000E+000	0.0000000E+000	0.0000000E+000	-4.9952869E+000	0.0000000E+000	0.0000000E+000	0.0000000E+000	4.9952869E+000	1.1440891E+001	4.9952869E+000	1.802740399931700E-003
1.9503414E+004	8.1970505E-002	8.3229113E-003	8.2391955E-002	-5.7976832E+000	8.662496171396924E+000	1.3902894E+000	4.0427594E+000	9.8046985E+002	1.0004955E+001	1.000000000000000E+000	65	1.0385337E-002	1.2604795E-001	0	2.231372987447514E-003	3.2000000E+001	5.6206058E-003	1.2075023E+001	1.2260429E+000	1.2137107E+001	5.7976832E+000	1.0004957E+004	9.8536586E+004	9.9043211E+004	-8.4202316E+001	0.0000000E+000	0.0000000E+000	0.0000000E+000	8.4202316E+001	0.0000000E+000	0.0000000E+000	0.0000000E+000	-8.4202316E+001	0.0000000E+000	0.0000000E+000	0.0000000E+000	-5.7976832E+000	0.0000000E+000	0.0000000E+000	0.0000000E+000	5.7976832E+000	9.8487778E+000	5.7976832E+000	1.618581081498029E-004
1.6061090E+004	8.3504751E-002	9.5832376E-003	8.4052853E-002	-6.5467815E+000	9.234498091944261E+000	1.3902882E+000	4.0315800E+000	1.0340293E+003	1.3441646E+001	1.000000000000000E+000	65	1.0360148E-002	1.2325754E-001	0	3.144307544081213E-003	3.2000000E+001	5.6050583E-003	1.1819695E+001	1.3564610E+000	1.1897276E+001	6.5467815E+000	1.3441650E+004	1.1712548E+005	1.1789427E+005	-8.3453217E+001	0.0000000E+000	0.0000000E+000	0.0000000E+000	8.3453217E+001	0.0000000E+000	0.0000000E+000	0.0000000E+000	-8.3453217E+001	0.0000000E+000	0.0000000E+000	0.0000000E+000	-6.5467815E+000	0.0000000E+000	0.0000000E+000	0.0000000E+000	6.5467815E+000	8.7136259E+000	6.5467815E+000	9.129345566336994E-004
1.3231144E+004	8.5058659E-002	1.0766604E-002	8.5737363E-002	-7.2140536E+000	9.808497239166172E+000	1.3902836E+000	4.0595284E+000	1.1172336E+003	1.7618189E+001	1.000000000000000E+000	65	1.0333659E-002	1.2052690E-001	0	4.389304270472792E-003	3.2000000E+001	5.6438958E-003	1.1571198E+001	1.4646658E+000	1.1663527E+001	7.2140536E+000	1.7618182E+004	1.3918777E+005	1.4029838E+005	-8.2785950E+001	0.0000000E+000	0.0000000E+000	0.0000000E+000	8.2785950E+001	0.0000000E+000	0.0000000E+000	0.0000000E+000	-8.2785950E+001	0.0000000E+000	0.0000000E+000	0.0000000E+000	-7.2140536E+000	0.0000000E+000	0.0000000E+000	0.0000000E+000	7.2140536E+000	7.9002309E+000	7.2140536E+000	1.244996726391579E-003
1.0902241E+004	8.6646475E-002	1.1805549E-002	8.7447025E-002	-7.7587523E+000	1.038248779976857E+001	1.3902807E+000	4.1390862E+000	1.2365684E+003	2.2537226E+001	1.000000000000000E+000	65	1.0264678E-002	1.1738167E-001	0	5.205551096422805E-003	3.2000000E+001	5.7544918E-003	1.1330806E+001	1.5438180E+000	1.1435494E+001	7.7587523E+000	2.2537221E+004	1.6541130E+005	1.6693958E+005	-8.2241249E+001	0.0000000E+000	0.0000000E+000	0.0000000E+000	8.2241249E+001	0.0000000E+000	0.0000000E+000	0.0000000E+000	-8.2241249E+001	0.0000000E+000	0.0000000E+000	0.0000000E+000	-7.7587523E+000	0.0000000E+000	0.0000000E+000	0.0000000E+000	7.7587523E+000	7.3394699E+000	7.7587523E+000	8.162468259500129E-004
8.9747607E+003	8.8493586E-002	1.2732320E-002	8.9404844E-002	-8.1874409E+000	1.097914892146946E+001	1.3901879E+000	3.3807671E+000	1.3928030E+003	2.8247675E+001	1.000000000000000E+000	65	1.0390643E-002	1.1622014E-001	0	6.906039241226183E-003	3.2000000E+001	4.6999012E-003	1.1071073E+001	1.5928888E+000	1.1185077E+001	8.1874409E+000	2.8247666E+004	1.9633011E+005	1.9835181E+005	-8.1812561E+001	0.0000000E+000	0.0000000E+000	0.0000000E+000	8.1812561E+001	0.0000000E+000	0.0000000E+000	0.0000000E+000	-8.1812561E+001	0.0000000E+000	0.0000000E+000	0.0000000E+000	-8.1874409E+000	0.0000000E+000	0.0000000E+000	0.0000000E+000	8.1874409E+000	6.9503107E+000	8.1874409E+000	1.700488144803378E-003
7.3948726E+003	9.0397395E-002	1.3573452E-002	9.1410764E-002	-8.5393457E+000	1.166759724743315E+001	1.3901955E+000	3.4053617E+000	1.5856200E+003	3.4961098E+001	1.000000000000000E+000	65	1.0268626E-002	1.1233497E-001	0	7.434687610244172E-003	3.2000000E+001	4.7341185E-003	1.0818356E+001	1.6244098E+000	1.0939631E+001	8.5393457E+000	3.4961094E+004	2.3283631E+005	2.3544644E+005	-8.1460655E+001	0.0000000E+000	0.0000000E+000	0.0000000E+000	8.1460655E+001	0.0000000E+000	0.0000000E+000	0.0000000E+000	-8.1460655E+001	0.0000000E+000	0.0000000E+000	0.0000000E+000	-8.5393457E+000	0.0000000E+000	0.0000000E+000	0.0000000E+000	8.5393457E+000	6.6598678E+000	8.5393457E+000	5.286483690179885E-004
6.0875864E+003	9.2335328E-002	1.4248222E-002	9.3428180E-002	-8.7720966E+000	1.246842123221722E+001	1.3901783E+000	3.6328571E+000	1.8349082E+003	4.2675625E+001	1.000000000000000E+000	65	1.0173564E-002	1.0889181E-001	0	8.648564404304242E-003	3.2000000E+001	5.0503192E-003	1.0578209E+001	1.6323185E+000	1.0703409E+001	8.7720966E+000	4.2675613E+004	2.7655856E+005	2.7983181E+005	-8.1227905E+001	0.0000000E+000	0.0000000E+000	0.0000000E+000	8.1227905E+001	0.0000000E+000	0.0000000E+000	0.0000000E+000	-8.1227905E+001	0.0000000E+000	0.0000000E+000	0.0000000E+000	-8.7720966E+000	0.0000000E+000	0.0000000E+000	0.0000000E+000	8.7720966E+000	6.4804807E+000	8.7720966E+000	1.213876794060070E-003
5.0166025E+003	9.4429508E-002	1.4935783E-002	9.5603399E-002	-8.9879360E+000	1.339369026285567E+001	1.3901860E+000	3.5715580E+000	2.1241367E+003	5.1843197E+001	1.000000000000000E+000	65	1.0152215E-002	1.0619094E-001	0	9.315203216173996E-003	3.2000000E+001	4.9651298E-003	1.0331445E+001	1.6341102E+000	1.0459879E+001	8.9879360E+000	5.1843207E+004	3.2777172E+005	3.3184638E+005	-8.1012062E+001	0.0000000E+000	0.0000000E+000	0.0000000E+000	8.1012062E+001	0.0000000E+000	0.0000000E+000	0.0000000E+000	-8.1012062E+001	0.0000000E+000	0.0000000E+000	0.0000000E+000	-8.9879360E+000	0.0000000E+000	0.0000000E+000	0.0000000E+000	8.9879360E+000	6.3223672E+000	8.9879360E+000	6.666388118697544E-004
4.1313247E+003	9.6534476E-002	1.5599824E-002	9.7786807E-002	-9.1795549E+000	1.408469957567286E+001	1.3901953E+000	3.7703609E+000	2.4695117E+003	6.2847786E+001	1.000000000000000E+000	65	1.0838450E-002	1.1083755E-001	0	1.029726657931424E-002	3.2000000E+001	5.2415379E-003	1.0095363E+001	1.6313953E+000	1.0226329E+001	9.1795549E+000	6.2847809E+004	3.8891322E+005	3.9395856E+005	-8.0820442E+001	0.0000000E+000	0.0000000E+000	0.0000000E+000	8.0820442E+001	0.0000000E+000	0.0000000E+000	0.0000000E+000	-8.0820442E+001	0.0000000E+000	0.0000000E+000	0.0000000E+000	-9.1795549E+000	0.0000000E+000	0.0000000E+000	0.0000000E+000	9.1795549E+000	6.1881771E+000	9.1795549E+000	9.820633631402419E-004
3.4039094E+003	9.8690279E-002	1.6106967E-002	9.9996030E-002	-9.2693596E+000	1.500882953956898E+001	1.3901762E+000	3.4491460E+000	2.9028750E+003	7.5316544E+001	1.000000000000000E+000	65	1.0135233E-002	1.0135636E-001	0	1.105097009702358E-002	3.2000000E+001	4.7949208E-003	9.8698111E+000	1.6108245E+000	1.0000397E+001	9.2693596E+000	7.5316570E+004	4.6147800E+005	4.6758372E+005	-8.0730637E+001	0.0000000E+000	0.0000000E+000	0.0000000E+000	8.0730637E+001	0.0000000E+000	0.0000000E+000	0.0000000E+000	-8.0730637E+001	0.0000000E+000	0.0000000E+000	0.0000000E+000	-9.2693596E+000	0.0000000E+000	0.0000000E+000	0.0000000E+000	9.2693596E+000	6.1271796E+000	9.2693596E+000	7.537035177093421E-004
2.8023123E+003	1.0115040E-001	1.6528090E-002	1.0249186E-001	-9.2801819E+000	1.569996911904309E+001	1.3901871E+000	3.5249782E+000	3.4362195E+003	8.9360893E+001	1.000000000000000E+000	65	1.0404088E-002	1.0151135E-001	0	1.214821509341585E-002	3.2000000E+001	4.9003791E-003	9.6291695E+000	1.5734173E+000	9.7568722E+000	9.2801819E+000	8.9360898E+004	5.4688050E+005	5.5413325E+005	-8.0719818E+001	0.0000000E+000	0.0000000E+000	0.0000000E+000	8.0719818E+001	0.0000000E+000	0.0000000E+000	0.0000000E+000	-8.0719818E+001	0.0000000E+000	0.0000000E+000	0.0000000E+000	-9.2801819E+000	0.0000000E+000	0.0000000E+000	0.0000000E+000	9.2801819E+000	6.1199083E+000	9.2801819E+000	1.097244996392271E-003
2.3092627E+003	1.0348071E-001	1.6780343E-002	1.0483243E-001	-9.2108574E+000	1.639180781858158E+001	1.3901883E+000	3.4757895E+000	4.1072012E+003	1.0523407E+002	1.000000000000000E+000	65	1.0549136E-002	1.0062855E-001	0	1.269369513033703E-002	3.2000000E+001	4.8320019E-003	9.4160366E+000	1.5268962E+000	9.5390329E+000	9.2108574E+000	1.0523411E+005	6.4895550E+005	6.5743250E+005	-8.0789139E+001	0.0000000E+000	0.0000000E+000	0.0000000E+000	8.0789139E+001	0.0000000E+000	0.0000000E+000	0.0000000E+000	-8.0789139E+001	0.0000000E+000	0.0000000E+000	0.0000000E+000	-9.2108574E+000	0.0000000E+000	0.0000000E+000	0.0000000E+000	9.2108574E+000	6.1667819E+000	9.2108574E+000	5.454800369211772E-004
