EC-Lab ASCII FILE
Nb header lines : 66                          

Potentio Electrochemical Impedance Spectroscopy

Run on channel : 15 (SN 19485)
User : 
Electrode connection : standard
Potential control : Ewe
Ewe ctrl range : min = -1.00 V, max = 1.00 V
Ewe,I filtering : <None>
Safety Limits :
	Do not start on E overload
Channel : Floating
Acquisition started on : 04/17/2024 11:38:39.798
Loaded Setting File :  NONE
Saved on :
	File : 240417-EIS-0p5M_FeCl2FeCl3-1M_HCl-100mLmin_Dampened-25mHz_10ppd_C15.mpr
	Directory : C:\Data\mathias\IRFB\
	Host : 192.168.0.1
Device : VMP-300 (SN 0826)
Address : USB
EC-Lab for windows v11.52 (software)
Internet server v11.52 (firmware)
Command interpretor v11.52 (firmware)
Electrode material : 
Initial state : 
Electrolyte : 
Comments : 
Cable : special
Electrode surface area : 0.001 cm²
Characteristic mass : 0.001 g
Equivalent Weight : 0.000 g/eq.
Density : 0.000 g/cm3
Volume (V) : 0.001 cm³
Record EIS quality indicators
Cycle Definition : Charge/Discharge alternance
Mode                Single sine         
E (V)               0.0000              
vs.                 Eoc                 
tE (h:m:s)          0:00:0.0000         
record              0                   
dI                  0.000               
unit dI             mA                  
dt (s)              0.000               
fi                  920.000             
unit fi             kHz                 
ff                  25.000              
unit ff             mHz                 
Nd                  10                  
Points              per decade          
spacing             Logarithmic         
Va (mV)             5.0                 
pw                  0.10                
Na                  3                   
corr                0                   
E range min (V)     -1.000              
E range max (V)     1.000               
I Range             Auto                
Bandwidth           8                   
nc cycles           0                   
goto Ns'            0                   
nr cycles           0                   
inc. cycle          1                   

freq/Hz	Re(Z)/Ohm	-Im(Z)/Ohm	|Z|/Ohm	Phase(Z)/deg	time/s	<Ewe>/V	<I>/mA	Cs/µF	Cp/µF	cycle number	I Range	|Ewe|/V	|I|/A	Ns	(Q-Qo)/mA.h	THD Ewe/%	NSD Ewe/%	NSR Ewe/%	|Ewe h2|/V	|Ewe h3|/V	|Ewe h4|/V	|Ewe h5|/V	|Ewe h6|/V	|Ewe h7|/V	THD I/%	NSD I/%	NSR I/%	|I h2|/A	|I h3|/A	|I h4|/A	|I h5|/A	|I h6|/A	|I h7|/A	Re(Y)/Ohm-1	Im(Y)/Ohm-1	|Y|/Ohm-1	Phase(Y)/deg	Re(C)/nF	Im(C)/nF	|C|/nF	Phase(C)/deg	Re(M)	Im(M)	|M|	Phase(M)/deg	Re(Permittivity)	Im(Permittivity)	|Permittivity|	Phase(Permittivity)/deg	Re(Resistivity)/Ohm.cm	Im(Resistivity)/Ohm.cm	|Resistivity|/Ohm.cm	Phase(Resistivity)/deg	Re(Conductivity)/mS/cm	Im(Conductivity)/mS/cm	|Conductivity|/mS/cm	Phase(Conductivity)/deg	Tan(Delta)	Loss Angle(Delta)/deg	dq/mA.h	
9.2000075E+005	-9.5295481E-002	-2.2272189E-001	2.4225248E-001	1.1316451E+002	1.976476360490778E+000	-1.3579249E-004	-1.2437946E+000	-7.7672821E-001	-6.5653574E-001	1.000000000000000E+000	37	7.1415928E-004	2.9479957E-003	0	-6.408670005773407E-004	-1	-1	-1	0	0	0	0	0	0	-1	-1	-1	0	0	0	0	0	0	-1.6238122E+000	-3.7951276E+000	4.1279244E+000	-1.1316451E+002	-6.5653564E+002	-2.8091043E+002	7.1410767E+002	1.5683548E+002	0.0000000E+000	0.0000000E+000	0.0000000E+000	-1.5683548E+002	0.0000000E+000	0.0000000E+000	0.0000000E+000	1.5683548E+002	0.0000000E+000	0.0000000E+000	0.0000000E+000	1.1316451E+002	0.0000000E+000	0.0000000E+000	0.0000000E+000	-1.1316451E+002	4.2786759E-001	2.3164513E+001	-6.408670005773407E-004
7.3153575E+005	-2.5707869E-002	-1.2325853E-001	1.2591092E-001	1.0178121E+002	3.122481588303344E+000	-1.2796339E-004	-1.1938605E+000	-1.7650930E+000	-1.6915108E+000	1.000000000000000E+000	37	6.0175185E-004	4.7791870E-003	0	-1.017108091239494E-003	-1	-1	-1	0	0	0	0	0	0	-1	-1	-1	0	0	0	0	0	0	-1.6215833E+000	-7.7748175E+000	7.9421229E+000	-1.0178121E+002	-1.6915107E+003	-3.5279642E+002	1.7279103E+003	1.6821878E+002	0.0000000E+000	0.0000000E+000	0.0000000E+000	-1.6821878E+002	0.0000000E+000	0.0000000E+000	0.0000000E+000	1.6821878E+002	0.0000000E+000	0.0000000E+000	0.0000000E+000	1.0178121E+002	0.0000000E+000	0.0000000E+000	0.0000000E+000	-1.0178121E+002	2.0856868E-001	1.1781212E+001	-3.762410906621534E-004
5.8167869E+005	2.4353025E-002	-7.3669821E-002	7.7590674E-002	7.1707672E+001	4.269499722780893E+000	-1.3249309E-004	-1.1842010E+000	-3.7140467E+000	-3.3481703E+000	1.000000000000000E+000	37	5.7849271E-004	7.4556987E-003	0	-1.391820506263162E-003	-1	-1	-1	0	0	0	0	0	0	-1	-1	-1	0	0	0	0	0	0	4.0451422E+000	-1.2236876E+001	1.2888146E+001	-7.1707672E+001	-3.3481707E+003	1.1068042E+003	3.5263667E+003	-1.6170767E+002	0.0000000E+000	0.0000000E+000	0.0000000E+000	1.6170767E+002	0.0000000E+000	0.0000000E+000	0.0000000E+000	-1.6170767E+002	0.0000000E+000	0.0000000E+000	0.0000000E+000	7.1707672E+001	0.0000000E+000	0.0000000E+000	0.0000000E+000	-7.1707672E+001	3.3056989E-001	1.8292328E+001	-3.747124150236679E-004
4.6252413E+005	5.0217718E-002	-5.1304482E-002	7.1791150E-002	4.5613312E+001	5.416501163883368E+000	-1.2634165E-004	-1.1578102E+000	-6.7070332E+000	-3.4253049E+000	1.000000000000000E+000	37	7.6303974E-004	1.0628604E-002	0	-1.746701336086107E-003	-1	-1	-1	0	0	0	0	0	0	-1	-1	-1	0	0	0	0	0	0	9.7435036E+000	-9.9543638E+000	1.3929294E+001	-4.5613312E+001	-3.4253049E+003	3.3527478E+003	4.7930815E+003	-1.3561331E+002	0.0000000E+000	0.0000000E+000	0.0000000E+000	1.3561331E+002	0.0000000E+000	0.0000000E+000	0.0000000E+000	-1.3561331E+002	0.0000000E+000	0.0000000E+000	0.0000000E+000	4.5613312E+001	0.0000000E+000	0.0000000E+000	0.0000000E+000	-4.5613312E+001	9.7881734E-001	4.4386688E+001	-3.548808298229449E-004
3.6778131E+005	6.4758182E-002	-3.8547061E-002	7.5362444E-002	3.0763063E+001	6.563485058402875E+000	-1.3137463E-004	-1.1833075E+000	-1.1226365E+001	-2.9370530E+000	1.000000000000000E+000	37	1.1616658E-003	1.5414386E-002	0	-2.141814530135133E-003	-1	-1	-1	0	0	0	0	0	0	-1	-1	-1	0	0	0	0	0	0	1.1402096E+001	-6.7870545E+000	1.3269209E+001	-3.0763063E+001	-2.9370532E+003	4.9341821E+003	5.7421631E+003	-1.2076306E+002	0.0000000E+000	0.0000000E+000	0.0000000E+000	1.2076306E+002	0.0000000E+000	0.0000000E+000	0.0000000E+000	-1.2076306E+002	0.0000000E+000	0.0000000E+000	0.0000000E+000	3.0763063E+001	0.0000000E+000	0.0000000E+000	0.0000000E+000	-3.0763063E+001	1.6799772E+000	5.9236938E+001	-3.951131940490257E-004
2.9243988E+005	7.2754800E-002	-2.8966833E-002	7.8309245E-002	2.1709642E+001	7.710479432862485E+000	-1.3245578E-004	-1.1484298E+000	-1.8788086E+001	-2.5707419E+000	1.000000000000000E+000	37	1.7610318E-003	2.2488171E-002	0	-2.512154484882071E-003	-1	-1	-1	0	0	0	0	0	0	-1	-1	-1	0	0	0	0	0	0	1.1864120E+001	-4.7236199E+000	1.2769884E+001	-2.1709642E+001	-2.5707419E+003	6.4568267E+003	6.9497715E+003	-1.1170964E+002	0.0000000E+000	0.0000000E+000	0.0000000E+000	1.1170964E+002	0.0000000E+000	0.0000000E+000	0.0000000E+000	-1.1170964E+002	0.0000000E+000	0.0000000E+000	0.0000000E+000	2.1709642E+001	0.0000000E+000	0.0000000E+000	0.0000000E+000	-2.1709642E+001	2.5116587E+000	6.8290359E+001	-3.703399547469385E-004
2.3252858E+005	7.7184223E-002	-2.2228399E-002	8.0321267E-002	1.6065950E+001	8.857485407352215E+000	-1.1983599E-004	-1.1692928E+000	-3.0791838E+001	-2.3582556E+000	1.000000000000000E+000	37	2.6059833E-003	3.2444499E-002	0	-2.865558493872690E-003	-1	-1	-1	0	0	0	0	0	0	-1	-1	-1	0	0	0	0	0	0	1.1963753E+001	-3.4454589E+000	1.2450003E+001	-1.6065950E+001	-2.3582554E+003	8.1886299E+003	8.5214453E+003	-1.0606595E+002	0.0000000E+000	0.0000000E+000	0.0000000E+000	1.0606595E+002	0.0000000E+000	0.0000000E+000	0.0000000E+000	-1.0606595E+002	0.0000000E+000	0.0000000E+000	0.0000000E+000	1.6065950E+001	0.0000000E+000	0.0000000E+000	0.0000000E+000	-1.6065950E+001	3.4723248E+000	7.3934052E+001	-3.534040089906193E-004
1.8490202E+005	7.9610862E-002	-1.6676120E-002	8.1338689E-002	1.1830715E+001	1.000448927513207E+001	-1.2919361E-004	-1.1899880E+000	-5.1615894E+001	-2.1695976E+000	1.000000000000000E+000	37	3.7488854E-003	4.6089817E-002	0	-3.291434882122195E-003	-1	-1	-1	0	0	0	0	0	0	-1	-1	-1	0	0	0	0	0	0	1.2033113E+001	-2.5205812E+000	1.2294272E+001	-1.1830715E+001	-2.1695984E+003	1.0357537E+004	1.0582331E+004	-1.0183072E+002	0.0000000E+000	0.0000000E+000	0.0000000E+000	1.0183072E+002	0.0000000E+000	0.0000000E+000	0.0000000E+000	-1.0183072E+002	0.0000000E+000	0.0000000E+000	0.0000000E+000	1.1830715E+001	0.0000000E+000	0.0000000E+000	0.0000000E+000	-1.1830715E+001	4.7739439E+000	7.8169281E+001	-4.258763882495050E-004
1.4701789E+005	8.1427619E-002	-1.1975511E-002	8.2303524E-002	8.3664789E+000	1.101747937660548E+001	-1.1938854E-004	-1.1769971E+000	-9.0397392E+001	-1.9138467E+000	1.000000000000000E+000	37	5.2784714E-003	6.4134210E-002	0	-3.627587640275558E-003	-1	-1	-1	0	0	0	0	0	0	-1	-1	-1	0	0	0	0	0	0	1.2020842E+001	-1.7678980E+000	1.2150148E+001	-8.3664789E+000	-1.9138464E+003	1.3013222E+004	1.3153203E+004	-9.8366478E+001	0.0000000E+000	0.0000000E+000	0.0000000E+000	9.8366478E+001	0.0000000E+000	0.0000000E+000	0.0000000E+000	-9.8366478E+001	0.0000000E+000	0.0000000E+000	0.0000000E+000	8.3664789E+000	0.0000000E+000	0.0000000E+000	0.0000000E+000	-8.3664789E+000	6.7995110E+000	8.1633522E+001	-3.361527581533623E-004
1.1690915E+005	8.2576118E-002	-7.9200491E-003	8.2955062E-002	5.4786000E+000	1.216447919109487E+001	-1.2391823E-004	-1.1510158E+000	-1.7188728E+002	-1.5668006E+000	1.000000000000000E+000	37	5.2503198E-003	6.3291132E-002	0	-4.104466859628757E-003	-1	-1	-1	0	0	0	0	0	0	-1	-1	-1	0	0	0	0	0	0	1.1999652E+001	-1.1509118E+000	1.2054719E+001	-5.4786000E+000	-1.5668002E+003	1.6335794E+004	1.6410760E+004	-9.5478600E+001	0.0000000E+000	0.0000000E+000	0.0000000E+000	9.5478600E+001	0.0000000E+000	0.0000000E+000	0.0000000E+000	-9.5478600E+001	0.0000000E+000	0.0000000E+000	0.0000000E+000	5.4786000E+000	0.0000000E+000	0.0000000E+000	0.0000000E+000	-5.4786000E+000	1.0426213E+001	8.4521400E+001	-4.768792193531996E-004
9.2961328E+004	8.3750725E-002	-4.9070888E-003	8.3894357E-002	3.3532176E+000	1.331248823230271E+001	-1.2498075E-004	-1.1841810E+000	-3.4889432E+002	-1.1936479E+000	1.000000000000000E+000	37	5.2357004E-003	6.2408257E-002	0	-4.451601231768313E-003	3.3215347E-001	2.0694637E-001	6.1642499E+000	9.0196227E-006	5.5884830E-006	7.8797411E-006	5.9697886E-006	4.5351089E-006	6.5105346E-006	9.7557999E-002	1.2268757E-002	3.3843923E-001	1.0466772E-005	5.9131020E-005	4.4981202E-006	5.8276055E-006	3.4569628E-006	4.0218729E-006	1.1899345E+001	-6.9720167E-001	1.1919753E+001	-3.3532176E+000	-1.1936481E+003	2.0372338E+004	2.0407277E+004	-9.3353218E+001	0.0000000E+000	0.0000000E+000	0.0000000E+000	9.3353218E+001	0.0000000E+000	0.0000000E+000	0.0000000E+000	-9.3353218E+001	0.0000000E+000	0.0000000E+000	0.0000000E+000	3.3532176E+000	0.0000000E+000	0.0000000E+000	0.0000000E+000	-3.3532176E+000	1.7067293E+001	8.6646782E+001	-3.471343721395560E-004
7.3912563E+004	8.4628135E-002	-2.2416417E-003	8.4657818E-002	1.5173038E+000	1.446049420678173E+001	-1.3027471E-004	-1.1489500E+000	-9.6058472E+002	-6.7349434E-001	1.000000000000000E+000	37	5.2218456E-003	6.1681788E-002	0	-4.824172556753374E-003	3.6289465E-001	1.5304779E-001	6.2176704E+000	6.9772759E-006	9.9238459E-006	8.1294047E-006	5.9606518E-006	5.8154710E-006	7.0521728E-006	1.0814227E-001	2.6827868E-002	3.4982178E-001	1.1183495E-005	6.4882654E-005	4.0701616E-006	6.5384870E-006	3.4819225E-006	3.4905706E-006	1.1808116E+001	-3.1277502E-001	1.1812258E+001	-1.5173038E+000	-6.7349420E+002	2.5426262E+004	2.5435180E+004	-9.1517303E+001	0.0000000E+000	0.0000000E+000	0.0000000E+000	9.1517303E+001	0.0000000E+000	0.0000000E+000	0.0000000E+000	-9.1517303E+001	0.0000000E+000	0.0000000E+000	0.0000000E+000	1.5173038E+000	0.0000000E+000	0.0000000E+000	0.0000000E+000	-1.5173038E+000	3.7752747E+001	8.8482697E+001	-3.725713249850609E-004
5.8770039E+004	8.5629418E-002	3.3033994E-004	8.5630059E-002	-2.2103374E-001	1.560849738135585E+001	-1.2255745E-004	-1.1315485E+000	8.1979082E+003	1.2200364E-001	1.000000000000000E+000	37	5.2256635E-003	6.1026040E-002	0	-5.278131062677751E-003	2.9555908E-001	1.7643110E-001	6.3626785E+000	4.7941394E-006	7.3551601E-006	6.8480349E-006	6.3174866E-006	3.7780430E-006	5.7849406E-006	1.1263262E-001	5.2311327E-002	3.5393220E-001	4.6366640E-006	6.7831505E-005	5.0602439E-006	5.9680442E-006	3.4251809E-006	4.2567190E-006	1.1678056E+001	4.5051433E-002	1.1678143E+001	2.2103374E-001	1.2200224E+002	3.1625305E+004	3.1625539E+004	-8.9778969E+001	0.0000000E+000	0.0000000E+000	0.0000000E+000	8.9778969E+001	0.0000000E+000	0.0000000E+000	0.0000000E+000	-8.9778969E+001	0.0000000E+000	0.0000000E+000	0.0000000E+000	-2.2103374E-001	0.0000000E+000	0.0000000E+000	0.0000000E+000	2.2103374E-001	2.5921606E+002	8.9778969E+001	-4.539585059243770E-004
4.6735824E+004	8.6778767E-002	2.6145014E-003	8.6818144E-002	-1.7257055E+000	1.675749468922731E+001	-1.2727355E-004	-1.1265049E+000	1.3025109E+003	1.1812400E+000	1.000000000000000E+000	37	5.1972517E-003	5.9863657E-002	0	-5.488031135912571E-003	2.7675605E-001	1.5945436E-001	6.1780705E+000	3.5954433E-006	9.0239046E-006	3.3452188E-006	3.5945795E-006	6.0466559E-006	5.4270181E-006	1.2736619E-001	1.0301130E-002	3.6056769E-001	3.1397431E-006	7.5663505E-005	2.4352657E-006	4.6676191E-006	5.0724548E-006	3.8177195E-006	1.1513105E+001	3.4687093E-001	1.1518330E+001	1.7257055E+000	1.1812417E+003	3.9206922E+004	3.9224711E+004	-8.8274292E+001	0.0000000E+000	0.0000000E+000	0.0000000E+000	8.8274292E+001	0.0000000E+000	0.0000000E+000	0.0000000E+000	-8.8274292E+001	0.0000000E+000	0.0000000E+000	0.0000000E+000	-1.7257055E+000	0.0000000E+000	0.0000000E+000	0.0000000E+000	1.7257055E+000	3.3191326E+001	8.8274292E+001	-2.099000732348200E-004
3.7160402E+004	8.8041879E-002	4.5761964E-003	8.8160731E-002	-2.9754136E+000	1.790549229041790E+001	-1.1653651E-004	-1.0784320E+000	9.3591217E+002	2.5217035E+000	1.000000000000000E+000	37	5.2062087E-003	5.9053604E-002	0	-5.972207886740151E-003	2.4575463E-001	1.3907170E-001	6.2572532E+000	3.8053174E-006	6.6910397E-006	4.4934905E-006	4.8489255E-006	4.0297277E-006	5.1699863E-006	1.2671593E-001	4.2245105E-002	3.6777839E-001	8.6371729E-006	7.3773888E-005	2.6863406E-006	6.8960380E-006	3.3470471E-006	2.7210492E-006	1.1327627E+001	5.8878171E-001	1.1342918E+001	2.9754136E+000	2.5217009E+003	4.8515293E+004	4.8580785E+004	-8.7024590E+001	0.0000000E+000	0.0000000E+000	0.0000000E+000	8.7024590E+001	0.0000000E+000	0.0000000E+000	0.0000000E+000	-8.7024590E+001	0.0000000E+000	0.0000000E+000	0.0000000E+000	-2.9754136E+000	0.0000000E+000	0.0000000E+000	0.0000000E+000	2.9754136E+000	1.9239096E+001	8.7024590E+001	-4.841767508275800E-004
2.9552035E+004	8.9339092E-002	6.4779464E-003	8.9573644E-002	-4.1472387E+000	1.905448114502360E+001	-1.3141180E-004	-1.0620168E+000	8.3137201E+002	4.3482013E+000	1.000000000000000E+000	37	5.1946160E-003	5.7992686E-002	0	-6.224609424966491E-003	3.0959877E-001	1.7555293E-001	6.2300587E+000	6.9858852E-006	5.5519808E-006	5.4809639E-006	6.9762405E-006	4.8159809E-006	7.2850162E-006	1.3364582E-001	1.8402789E-002	3.7039810E-001	1.2214856E-005	7.5257514E-005	3.2685111E-006	9.1245738E-006	4.4045100E-006	7.5546136E-006	1.1134766E+001	8.0737793E-001	1.1163999E+001	4.1472387E+000	4.3482021E+003	5.9967207E+004	6.0124645E+004	-8.5852760E+001	0.0000000E+000	0.0000000E+000	0.0000000E+000	8.5852760E+001	0.0000000E+000	0.0000000E+000	0.0000000E+000	-8.5852760E+001	0.0000000E+000	0.0000000E+000	0.0000000E+000	-4.1472387E+000	0.0000000E+000	0.0000000E+000	0.0000000E+000	4.1472387E+000	1.3791267E+001	8.5852760E+001	-2.524015382263396E-004
2.3493170E+004	9.0899110E-002	8.0920421E-003	9.1258585E-002	-5.0871882E+000	2.020248925287160E+001	-1.3204558E-004	-1.0772222E+000	8.3718298E+002	6.5824747E+000	1.000000000000000E+000	37	5.1801610E-003	5.6763545E-002	0	-6.656753243936432E-003	4.1235602E-001	7.0424154E-002	6.2576733E+000	9.5121177E-006	8.3333180E-006	1.1495346E-005	6.8322765E-006	5.5806363E-006	4.4676694E-006	1.2628381E-001	1.1975437E-002	3.7703997E-001	7.0886640E-006	7.0422117E-005	2.3680273E-006	8.4943322E-006	4.2441206E-006	4.6994360E-006	1.0914709E+001	9.7165185E-001	1.0957873E+001	5.0871882E+000	6.5824761E+003	7.3941922E+004	7.4234336E+004	-8.4912811E+001	0.0000000E+000	0.0000000E+000	0.0000000E+000	8.4912811E+001	0.0000000E+000	0.0000000E+000	0.0000000E+000	-8.4912811E+001	0.0000000E+000	0.0000000E+000	0.0000000E+000	-5.0871882E+000	0.0000000E+000	0.0000000E+000	0.0000000E+000	5.0871882E+000	1.1233149E+001	8.4912811E+001	-4.321438189699416E-004
1.8677629E+004	9.2594676E-002	9.5799379E-003	9.3088932E-002	-5.9068623E+000	2.135049504073686E+001	-1.2412328E-004	-1.0811120E+000	8.8947900E+002	9.4203062E+000	1.000000000000000E+000	37	5.1750750E-003	5.5592805E-002	0	-6.974850432823101E-003	3.1979850E-001	2.4961455E-001	6.2253718E+000	5.8626679E-006	7.1564900E-006	4.5044699E-006	6.4851752E-006	9.3483795E-006	3.9901861E-006	1.2568337E-001	3.3662930E-002	3.8847217E-001	4.6771029E-006	6.8531714E-005	5.1233342E-006	7.4148616E-006	5.9788185E-006	3.7550828E-006	1.0685379E+001	1.1055199E+000	1.0742415E+001	5.9068623E+000	9.4203018E+003	9.1051742E+004	9.1537766E+004	-8.4093140E+001	0.0000000E+000	0.0000000E+000	0.0000000E+000	8.4093140E+001	0.0000000E+000	0.0000000E+000	0.0000000E+000	-8.4093140E+001	0.0000000E+000	0.0000000E+000	0.0000000E+000	-5.9068623E+000	0.0000000E+000	0.0000000E+000	0.0000000E+000	5.9068623E+000	9.6654778E+000	8.4093140E+001	-3.180971888866692E-004
1.4854886E+004	9.4677880E-002	1.0832979E-002	9.5295615E-002	-6.5273581E+000	2.249848290861701E+001	-1.2158814E-004	-1.0887240E+000	9.8901501E+002	1.2780648E+001	1.000000000000000E+000	37	5.1859994E-003	5.4420128E-002	0	-7.290546144980523E-003	3.4048471E-001	1.9645172E-001	6.3219309E+000	5.1423081E-006	8.5044076E-006	1.0165111E-005	6.1614423E-006	5.1025468E-006	3.5044757E-006	1.1788779E-001	2.5298670E-002	3.9191073E-001	6.5453155E-006	6.2766565E-005	5.3935546E-006	7.0148071E-006	3.6974470E-006	4.4838998E-006	1.0425639E+001	1.1928945E+000	1.0493662E+001	6.5273581E+000	1.2780649E+004	1.1170009E+005	1.1242888E+005	-8.3472641E+001	0.0000000E+000	0.0000000E+000	0.0000000E+000	8.3472641E+001	0.0000000E+000	0.0000000E+000	0.0000000E+000	-8.3472641E+001	0.0000000E+000	0.0000000E+000	0.0000000E+000	-6.5273581E+000	0.0000000E+000	0.0000000E+000	0.0000000E+000	6.5273581E+000	8.7397823E+000	8.3472641E+001	-3.156957121574220E-004
1.1811532E+004	9.6736789E-002	1.1960126E-002	9.7473331E-002	-7.0480404E+000	2.364648074979777E+001	-1.1605185E-004	-1.0557077E+000	1.1266218E+003	1.6962038E+001	1.000000000000000E+000	37	5.1657706E-003	5.2996758E-002	0	-7.762888262267018E-003	3.4884506E-001	1.5456286E-001	6.1317930E+000	4.3819327E-006	1.0442095E-005	5.5428882E-006	8.8005045E-006	4.8301604E-006	5.5289584E-006	1.0339010E-001	4.5772076E-002	4.0810955E-001	7.3778606E-006	5.3336833E-005	2.8959475E-006	4.3703380E-006	6.0683265E-006	4.3559785E-006	1.0181694E+001	1.2588214E+000	1.0259216E+001	7.0480404E+000	1.6962041E+004	1.3719363E+005	1.3823820E+005	-8.2951958E+001	0.0000000E+000	0.0000000E+000	0.0000000E+000	8.2951958E+001	0.0000000E+000	0.0000000E+000	0.0000000E+000	-8.2951958E+001	0.0000000E+000	0.0000000E+000	0.0000000E+000	-7.0480404E+000	0.0000000E+000	0.0000000E+000	0.0000000E+000	7.0480404E+000	8.0882750E+000	8.2951958E+001	-4.723421172864945E-004
