EC-Lab ASCII FILE
Nb header lines : 66                          

Potentio Electrochemical Impedance Spectroscopy

Run on channel : 15 (SN 19485)
User : 
Electrode connection : standard
Potential control : Ewe
Ewe ctrl range : min = -1.00 V, max = 1.00 V
Ewe,I filtering : <None>
Safety Limits :
	Do not start on E overload
Channel : Floating
Acquisition started on : 04/16/2024 14:05:59.642
Loaded Setting File :  NONE
Saved on :
	File : 240416-EIS-0p5M_FeCl2FeCl3-1M_HCl-05mLmin_Dampened-25mHz_10ppd_C15.mpr
	Directory : C:\Data\mathias\IRFB\
	Host : 192.168.0.1
Device : VMP-300 (SN 0826)
Address : USB
EC-Lab for windows v11.52 (software)
Internet server v11.52 (firmware)
Command interpretor v11.52 (firmware)
Electrode material : 
Initial state : 
Electrolyte : 
Comments : 
Cable : special
Electrode surface area : 0.001 cm²
Characteristic mass : 0.001 g
Equivalent Weight : 0.000 g/eq.
Density : 0.000 g/cm3
Volume (V) : 0.001 cm³
Record EIS quality indicators
Cycle Definition : Charge/Discharge alternance
Mode                Single sine         
E (V)               0.0000              
vs.                 Eoc                 
tE (h:m:s)          0:00:0.0000         
record              0                   
dI                  0.000               
unit dI             mA                  
dt (s)              0.000               
fi                  920.000             
unit fi             kHz                 
ff                  25.000              
unit ff             mHz                 
Nd                  10                  
Points              per decade          
spacing             Logarithmic         
Va (mV)             5.0                 
pw                  0.10                
Na                  3                   
corr                0                   
E range min (V)     -1.000              
E range max (V)     1.000               
I Range             Auto                
Bandwidth           8                   
nc cycles           0                   
goto Ns'            0                   
nr cycles           0                   
inc. cycle          1                   

freq/Hz	Re(Z)/Ohm	-Im(Z)/Ohm	|Z|/Ohm	Phase(Z)/deg	time/s	<Ewe>/V	<I>/mA	Cs/µF	Cp/µF	cycle number	I Range	|Ewe|/V	|I|/A	Ns	(Q-Qo)/mA.h	THD Ewe/%	NSD Ewe/%	NSR Ewe/%	|Ewe h2|/V	|Ewe h3|/V	|Ewe h4|/V	|Ewe h5|/V	|Ewe h6|/V	|Ewe h7|/V	THD I/%	NSD I/%	NSR I/%	|I h2|/A	|I h3|/A	|I h4|/A	|I h5|/A	|I h6|/A	|I h7|/A	Re(Y)/Ohm-1	Im(Y)/Ohm-1	|Y|/Ohm-1	Phase(Y)/deg	Re(C)/nF	Im(C)/nF	|C|/nF	Phase(C)/deg	Re(M)	Im(M)	|M|	Phase(M)/deg	Re(Permittivity)	Im(Permittivity)	|Permittivity|	Phase(Permittivity)/deg	Re(Resistivity)/Ohm.cm	Im(Resistivity)/Ohm.cm	|Resistivity|/Ohm.cm	Phase(Resistivity)/deg	Re(Conductivity)/mS/cm	Im(Conductivity)/mS/cm	|Conductivity|/mS/cm	Phase(Conductivity)/deg	Tan(Delta)	Loss Angle(Delta)/deg	dq/mA.h	
9.2000075E+005	-9.7623095E-002	-2.2025351E-001	2.4091882E-001	1.1390439E+002	1.977475907217013E+000	-7.9926278E-005	-4.4918618E-001	-7.8543299E-001	-6.5646774E-001	1.000000000000000E+000	37	7.0959836E-004	2.9453838E-003	0	-2.645265314677834E-004	-1	-1	-1	0	0	0	0	0	0	-1	-1	-1	0	0	0	0	0	0	-1.6819426E+000	-3.7947345E+000	4.1507759E+000	-1.1390439E+002	-6.5646765E+002	-2.9096658E+002	7.1806079E+002	1.5609561E+002	0.0000000E+000	0.0000000E+000	0.0000000E+000	-1.5609561E+002	0.0000000E+000	0.0000000E+000	0.0000000E+000	1.5609561E+002	0.0000000E+000	0.0000000E+000	0.0000000E+000	1.1390439E+002	0.0000000E+000	0.0000000E+000	0.0000000E+000	-1.1390439E+002	4.4323060E-001	2.3904388E+001	-2.645265314677834E-004
7.3153575E+005	-2.5532782E-002	-1.2067447E-001	1.2334606E-001	1.0194667E+002	3.126489775168011E+000	-9.2471484E-005	-5.0215381E-001	-1.8028899E+000	-1.7256370E+000	1.000000000000000E+000	37	5.9066928E-004	4.7887163E-003	0	-4.187870608291123E-004	-1	-1	-1	0	0	0	0	0	0	-1	-1	-1	0	0	0	0	0	0	-1.6782146E+000	-7.9316735E+000	8.1072712E+000	-1.0194667E+002	-1.7256368E+003	-3.6511703E+002	1.7638405E+003	1.6805333E+002	0.0000000E+000	0.0000000E+000	0.0000000E+000	-1.6805333E+002	0.0000000E+000	0.0000000E+000	0.0000000E+000	1.6805333E+002	0.0000000E+000	0.0000000E+000	0.0000000E+000	1.0194667E+002	0.0000000E+000	0.0000000E+000	0.0000000E+000	-1.0194667E+002	2.1158396E-001	1.1946671E+001	-1.542605293613289E-004
5.8167869E+005	2.4708470E-002	-7.2660923E-002	7.6747105E-002	7.1219315E+001	4.273483802942792E+000	-8.7289365E-005	-3.9121190E-001	-3.7656164E+000	-3.3753119E+000	1.000000000000000E+000	37	5.7216850E-004	7.4552451E-003	0	-5.688888243704827E-004	-1	-1	-1	0	0	0	0	0	0	-1	-1	-1	0	0	0	0	0	0	4.1949015E+000	-1.2336072E+001	1.3029807E+001	-7.1219315E+001	-3.3753118E+003	1.1477803E+003	3.5651267E+003	-1.6121931E+002	0.0000000E+000	0.0000000E+000	0.0000000E+000	1.6121931E+002	0.0000000E+000	0.0000000E+000	0.0000000E+000	-1.6121931E+002	0.0000000E+000	0.0000000E+000	0.0000000E+000	7.1219315E+001	0.0000000E+000	0.0000000E+000	0.0000000E+000	-7.1219315E+001	3.4005171E-001	1.8780685E+001	-1.501017635413704E-004
4.6252413E+005	5.1143114E-002	-4.9891174E-002	7.1447514E-002	4.4290070E+001	5.420493030775106E+000	-8.6618296E-005	-4.3779585E-001	-6.8970284E+000	-3.3630648E+000	1.000000000000000E+000	37	7.5802318E-004	1.0609510E-002	0	-7.147373581001949E-004	-1	-1	-1	0	0	0	0	0	0	-1	-1	-1	0	0	0	0	0	0	1.0018736E+001	-9.7734852E+000	1.3996288E+001	-4.4290070E+001	-3.3630647E+003	3.4474556E+003	4.8161348E+003	-1.3429007E+002	0.0000000E+000	0.0000000E+000	0.0000000E+000	1.3429007E+002	0.0000000E+000	0.0000000E+000	0.0000000E+000	-1.3429007E+002	0.0000000E+000	0.0000000E+000	0.0000000E+000	4.4290070E+001	0.0000000E+000	0.0000000E+000	0.0000000E+000	-4.4290070E+001	1.0250934E+000	4.5709930E+001	-1.458485337297122E-004
3.6778131E+005	6.5269157E-002	-3.7340432E-002	7.5195551E-002	2.9773840E+001	6.568477511958918E+000	-9.5267569E-005	-4.4064322E-001	-1.1589137E+001	-2.8577583E+000	1.000000000000000E+000	37	1.1576618E-003	1.5395350E-002	0	-8.512538778297603E-004	-1	-1	-1	0	0	0	0	0	0	-1	-1	-1	0	0	0	0	0	0	1.1543134E+001	-6.6038179E+000	1.3298659E+001	-2.9773840E+001	-2.8577588E+003	4.9952148E+003	5.7549072E+003	-1.1977384E+002	0.0000000E+000	0.0000000E+000	0.0000000E+000	1.1977384E+002	0.0000000E+000	0.0000000E+000	0.0000000E+000	-1.1977384E+002	0.0000000E+000	0.0000000E+000	0.0000000E+000	2.9773840E+001	0.0000000E+000	0.0000000E+000	0.0000000E+000	-2.9773840E+001	1.7479486E+000	6.0226158E+001	-1.365165197295654E-004
2.9243988E+005	7.3375441E-002	-2.8054666E-002	7.8555837E-002	2.0924059E+001	7.715483273117570E+000	-7.8714605E-005	-3.5936755E-001	-1.9398960E+001	-2.4741826E+000	1.000000000000000E+000	37	1.7651943E-003	2.2470569E-002	0	-9.688193175881688E-004	-1	-1	-1	0	0	0	0	0	0	-1	-1	-1	0	0	0	0	0	0	1.1890326E+001	-4.5461960E+000	1.2729798E+001	-2.0924059E+001	-2.4741824E+003	6.4710889E+003	6.9279556E+003	-1.1092406E+002	0.0000000E+000	0.0000000E+000	0.0000000E+000	1.1092406E+002	0.0000000E+000	0.0000000E+000	0.0000000E+000	-1.1092406E+002	0.0000000E+000	0.0000000E+000	0.0000000E+000	2.0924059E+001	0.0000000E+000	0.0000000E+000	0.0000000E+000	-2.0924059E+001	2.6154451E+000	6.9075943E+001	-1.175654397584084E-004
2.3252858E+005	7.7913716E-002	-2.1521326E-002	8.0831394E-002	1.5441217E+001	8.864484047662700E+000	-9.5192969E-005	-4.2363197E-001	-3.1803492E+001	-2.2545128E+000	1.000000000000000E+000	37	2.6207129E-003	3.2421969E-002	0	-1.116053771987700E-003	-1	-1	-1	0	0	0	0	0	0	-1	-1	-1	0	0	0	0	0	0	1.1924873E+001	-3.2938886E+000	1.2371431E+001	-1.5441217E+001	-2.2545125E+003	8.1620181E+003	8.4676660E+003	-1.0544122E+002	0.0000000E+000	0.0000000E+000	0.0000000E+000	1.0544122E+002	0.0000000E+000	0.0000000E+000	0.0000000E+000	-1.0544122E+002	0.0000000E+000	0.0000000E+000	0.0000000E+000	1.5441217E+001	0.0000000E+000	0.0000000E+000	0.0000000E+000	-1.5441217E+001	3.6203027E+000	7.4558784E+001	-1.472344543995310E-004
1.8490202E+005	8.0594964E-002	-1.5876068E-002	8.2143761E-002	1.1143781E+001	1.001147900879732E+001	-9.4559160E-005	-3.9495167E-001	-5.4217007E+001	-2.0252202E+000	1.000000000000000E+000	37	3.7840148E-003	4.6065759E-002	0	-1.320809719919602E-003	-1	-1	-1	0	0	0	0	0	0	-1	-1	-1	0	0	0	0	0	0	1.1944246E+001	-2.3528476E+000	1.2173779E+001	-1.1143781E+001	-2.0252208E+003	1.0281045E+004	1.0478616E+004	-1.0114378E+002	0.0000000E+000	0.0000000E+000	0.0000000E+000	1.0114378E+002	0.0000000E+000	0.0000000E+000	0.0000000E+000	-1.0114378E+002	0.0000000E+000	0.0000000E+000	0.0000000E+000	1.1143781E+001	0.0000000E+000	0.0000000E+000	0.0000000E+000	-1.1143781E+001	5.0765066E+000	7.8856216E+001	-2.047559479319025E-004
1.4701789E+005	8.2405850E-002	-1.1273011E-002	8.3173342E-002	7.7896352E+000	1.102448847025516E+001	-8.8575442E-005	-3.9353678E-001	-9.6030693E+001	-1.7640934E+000	1.000000000000000E+000	37	5.3319936E-003	6.4107001E-002	0	-1.460688442321494E-003	-1	-1	-1	0	0	0	0	0	0	-1	-1	-1	0	0	0	0	0	0	1.1912138E+001	-1.6295646E+000	1.2023083E+001	-7.7896352E+000	-1.7640933E+003	1.2895545E+004	1.3015648E+004	-9.7789635E+001	0.0000000E+000	0.0000000E+000	0.0000000E+000	9.7789635E+001	0.0000000E+000	0.0000000E+000	0.0000000E+000	-9.7789635E+001	0.0000000E+000	0.0000000E+000	0.0000000E+000	7.7896352E+000	0.0000000E+000	0.0000000E+000	0.0000000E+000	-7.7896352E+000	7.3100128E+000	8.2210365E+001	-1.398787224018920E-004
1.1690915E+005	8.3708651E-002	-7.2422745E-003	8.4021360E-002	4.9447823E+000	1.217249351149076E+001	-8.6543609E-005	-3.7773603E-001	-1.8797351E+002	-1.3965845E+000	1.000000000000000E+000	37	5.2638086E-003	6.2648460E-002	0	-1.670599937852472E-003	-1	-1	-1	0	0	0	0	0	0	-1	-1	-1	0	0	0	0	0	0	1.1857440E+001	-1.0258777E+000	1.1901735E+001	-4.9447823E+000	-1.3965834E+003	1.6142193E+004	1.6202495E+004	-9.4944778E+001	0.0000000E+000	0.0000000E+000	0.0000000E+000	9.4944778E+001	0.0000000E+000	0.0000000E+000	0.0000000E+000	-9.4944778E+001	0.0000000E+000	0.0000000E+000	0.0000000E+000	4.9447823E+000	0.0000000E+000	0.0000000E+000	0.0000000E+000	-4.9447823E+000	1.1558337E+001	8.5055222E+001	-2.099114955309779E-004
9.2961328E+004	8.5027188E-002	-4.1956059E-003	8.5130639E-002	2.8249280E+000	1.332048967268202E+001	-1.0005812E-004	-4.3384901E-001	-4.0805914E+002	-9.9115300E-001	1.000000000000000E+000	37	5.2391090E-003	6.1541989E-002	0	-1.747095336710827E-003	2.9211807E-001	1.6292416E-001	6.1676736E+000	8.1189028E-006	5.7755592E-006	3.7487237E-006	2.0063417E-006	8.6543951E-006	3.5718710E-006	9.7865865E-002	1.4421533E-002	3.5321018E-001	1.0281041E-005	5.8803456E-005	5.1959892E-006	3.2910359E-006	2.1706494E-006	2.3662694E-006	1.1732377E+001	-5.7892579E-001	1.1746652E+001	-2.8249280E+000	-9.9115314E+002	2.0086480E+004	2.0110920E+004	-9.2824928E+001	0.0000000E+000	0.0000000E+000	0.0000000E+000	9.2824928E+001	0.0000000E+000	0.0000000E+000	0.0000000E+000	-9.2824928E+001	0.0000000E+000	0.0000000E+000	0.0000000E+000	2.8249280E+000	0.0000000E+000	0.0000000E+000	0.0000000E+000	-2.8249280E+000	2.0265772E+001	8.7175072E+001	-7.649539885835497E-005
7.3912563E+004	8.6033151E-002	-1.4634688E-003	8.6045600E-002	9.7453707E-001	1.446848311382928E+001	-1.0691790E-004	-4.5145532E-001	-1.4713583E+003	-4.2562586E-001	1.000000000000000E+000	37	5.2219499E-003	6.0688168E-002	0	-1.986015942963047E-003	2.8046030E-001	1.8718673E-001	6.1583152E+000	4.2226411E-006	7.3121664E-006	6.0775060E-006	5.3502395E-006	6.2361346E-006	4.0930363E-006	1.0484780E-001	2.1994025E-002	3.5698882E-001	1.1716948E-005	6.1542603E-005	3.5393007E-006	7.1523368E-006	4.5585030E-006	3.0864612E-006	1.1620064E+001	-1.9766334E-001	1.1621745E+001	-9.7453707E-001	-4.2562744E+002	2.5021330E+004	2.5024949E+004	-9.0974541E+001	0.0000000E+000	0.0000000E+000	0.0000000E+000	9.0974541E+001	0.0000000E+000	0.0000000E+000	0.0000000E+000	-9.0974541E+001	0.0000000E+000	0.0000000E+000	0.0000000E+000	9.7453707E-001	0.0000000E+000	0.0000000E+000	0.0000000E+000	-9.7453707E-001	5.8787144E+001	8.9025459E+001	-2.389206062522202E-004
5.8770039E+004	8.7023281E-002	8.5751247E-004	8.7027505E-002	-5.6456447E-001	1.561747807511711E+001	-9.5416588E-005	-4.1812253E-001	3.1580842E+003	3.0661368E-001	1.000000000000000E+000	37	5.2181338E-003	5.9959594E-002	0	-2.007997055714329E-003	3.2033861E-001	2.1862003E-001	6.1985674E+000	4.2328634E-006	9.0832218E-006	3.3287588E-006	4.7716949E-006	7.8408229E-006	6.5755607E-006	1.0433928E-001	5.1392816E-002	3.6427155E-001	8.7883291E-006	6.1117724E-005	6.0494949E-006	3.1447616E-006	5.0073204E-006	3.2555572E-006	1.1490062E+001	1.1322109E-001	1.1490620E+001	5.6456447E-001	3.0661536E+002	3.1116201E+004	3.1117711E+004	-8.9435432E+001	0.0000000E+000	0.0000000E+000	0.0000000E+000	8.9435432E+001	0.0000000E+000	0.0000000E+000	0.0000000E+000	-8.9435432E+001	0.0000000E+000	0.0000000E+000	0.0000000E+000	-5.6456447E-001	0.0000000E+000	0.0000000E+000	0.0000000E+000	5.6456447E-001	1.0148340E+002	8.9435432E+001	-2.198111275128175E-005
4.6735824E+004	8.8330083E-002	3.1154277E-003	8.8385008E-002	-2.0200014E+000	1.676548994294717E+001	-1.0266781E-004	-4.5404229E-001	1.0930815E+003	1.3580967E+000	1.000000000000000E+000	37	5.2075167E-003	5.8918551E-002	0	-2.290499615716851E-003	3.7886572E-001	2.4794321E-001	6.1780524E+000	7.9490783E-006	1.0916272E-005	8.7528506E-006	4.4013095E-006	6.4073679E-006	6.4443707E-006	1.2459046E-001	1.6308285E-002	3.6652139E-001	3.3215363E-006	7.2861403E-005	3.1510101E-006	5.4288371E-006	2.6546541E-006	3.4193154E-006	1.1307105E+001	3.9880487E-001	1.1314136E+001	2.0200014E+000	1.3580986E+003	3.8505402E+004	3.8529344E+004	-8.7979996E+001	0.0000000E+000	0.0000000E+000	0.0000000E+000	8.7979996E+001	0.0000000E+000	0.0000000E+000	0.0000000E+000	-8.7979996E+001	0.0000000E+000	0.0000000E+000	0.0000000E+000	-2.0200014E+000	0.0000000E+000	0.0000000E+000	0.0000000E+000	2.0200014E+000	2.8352474E+001	8.7979996E+001	-2.825025600025222E-004
3.7160402E+004	8.9561395E-002	5.0856438E-003	8.9705668E-002	-3.2499869E+000	1.791349954417092E+001	-9.2732327E-005	-4.3502158E-001	8.4215839E+002	2.7067361E+000	1.000000000000000E+000	37	5.2007055E-003	5.7975214E-002	0	-2.425681325452195E-003	3.6687595E-001	1.7092061E-001	6.2257071E+000	5.1954926E-006	1.1429173E-005	7.4266204E-006	7.0705405E-006	5.0890617E-006	5.2344690E-006	1.3033751E-001	4.6809345E-002	3.7633243E-001	9.2305800E-006	7.4181982E-005	4.1556732E-006	7.8422418E-006	3.7341449E-006	3.0316658E-006	1.1129639E+001	6.3198411E-001	1.1147568E+001	3.2499869E+000	2.7067341E+003	4.7667324E+004	4.7744113E+004	-8.6750015E+001	0.0000000E+000	0.0000000E+000	0.0000000E+000	8.6750015E+001	0.0000000E+000	0.0000000E+000	0.0000000E+000	-8.6750015E+001	0.0000000E+000	0.0000000E+000	0.0000000E+000	-3.2499869E+000	0.0000000E+000	0.0000000E+000	0.0000000E+000	3.2499869E+000	1.7610630E+001	8.6750015E+001	-1.351817097353441E-004
2.9552035E+004	9.1118172E-002	6.7191990E-003	9.1365576E-002	-4.2174482E+000	1.906148922533612E+001	-9.8921038E-005	-4.1691279E-001	8.0152161E+002	4.3349595E+000	1.000000000000000E+000	37	5.1889620E-003	5.6793403E-002	0	-2.611325753835909E-003	3.7729791E-001	1.7350015E-001	6.1865010E+000	9.9299405E-006	7.8765488E-006	5.3770059E-006	6.6922948E-006	2.9869079E-006	9.1668126E-006	1.2918253E-001	1.8392768E-002	3.8398382E-001	1.3669938E-005	7.1036164E-005	4.5877637E-006	9.8892597E-006	3.0377096E-006	4.0847381E-006	1.0915404E+001	8.0491924E-001	1.0945042E+001	4.2174482E+000	4.3349561E+003	5.8785813E+004	5.8945430E+004	-8.5782555E+001	0.0000000E+000	0.0000000E+000	0.0000000E+000	8.5782555E+001	0.0000000E+000	0.0000000E+000	0.0000000E+000	-8.5782555E+001	0.0000000E+000	0.0000000E+000	0.0000000E+000	-4.2174482E+000	0.0000000E+000	0.0000000E+000	0.0000000E+000	4.2174482E+000	1.3560868E+001	8.5782555E+001	-1.856444283837139E-004
2.3493170E+004	9.2809252E-002	8.1215957E-003	9.3163930E-002	-5.0011263E+000	2.020949647985981E+001	-9.2359507E-005	-4.0340102E-001	8.3413654E+002	6.3390517E+000	1.000000000000000E+000	37	5.1831054E-003	5.5634249E-002	0	-2.724884639877412E-003	2.8003484E-001	1.1153118E-001	6.1297317E+000	6.4888959E-006	8.3093264E-006	4.7122007E-006	5.8088976E-006	3.7013770E-006	2.8099059E-006	1.2282613E-001	9.1783749E-003	3.8763571E-001	3.0319270E-006	6.7160072E-005	3.9025172E-006	9.7425591E-006	3.3752874E-006	3.5415212E-006	1.0692904E+001	9.3571967E-001	1.0733768E+001	5.0011263E+000	6.3390557E+003	7.2439297E+004	7.2716125E+004	-8.4998871E+001	0.0000000E+000	0.0000000E+000	0.0000000E+000	8.4998871E+001	0.0000000E+000	0.0000000E+000	0.0000000E+000	-8.4998871E+001	0.0000000E+000	0.0000000E+000	0.0000000E+000	-5.0011263E+000	0.0000000E+000	0.0000000E+000	0.0000000E+000	5.0011263E+000	1.1427465E+001	8.4998871E+001	-1.135588860415029E-004
1.8677629E+004	9.4869383E-002	9.3421442E-003	9.5328249E-002	-5.6239986E+000	2.135749989442411E+001	-1.0320840E-004	-4.1283694E-001	9.1211969E+002	8.7599525E+000	1.000000000000000E+000	37	5.1856330E-003	5.4397654E-002	0	-2.941541773307241E-003	3.7366819E-001	1.9466062E-001	6.3174458E+000	6.4364522E-006	8.9007917E-006	7.5648318E-006	5.1786515E-006	4.1108842E-006	1.1272569E-005	1.1721387E-001	3.1382378E-002	4.0060782E-001	4.5428460E-006	6.2585117E-005	2.2218408E-006	8.6686932E-006	3.9579527E-006	4.5945212E-006	1.0439576E+001	1.0280242E+000	1.0490070E+001	5.6239986E+000	8.7599551E+003	8.8957227E+004	8.9387500E+004	-8.4375999E+001	0.0000000E+000	0.0000000E+000	0.0000000E+000	8.4375999E+001	0.0000000E+000	0.0000000E+000	0.0000000E+000	-8.4375999E+001	0.0000000E+000	0.0000000E+000	0.0000000E+000	-5.6239986E+000	0.0000000E+000	0.0000000E+000	0.0000000E+000	5.6239986E+000	1.0154990E+001	8.4375999E+001	-2.166571334298283E-004
1.4854886E+004	9.6850306E-002	1.0369798E-002	9.7403876E-002	-6.1113973E+000	2.250547754889703E+001	-9.2434078E-005	-3.8947988E-001	1.0331908E+003	1.1710317E+001	1.000000000000000E+000	37	5.1730145E-003	5.3108919E-002	0	-3.110026096640776E-003	2.9394501E-001	1.5774667E-001	6.1823087E+000	7.1344894E-006	6.3391399E-006	5.4758743E-006	4.8246884E-006	5.3043545E-006	5.6847789E-006	1.0654651E-001	2.2346590E-002	4.0685207E-001	4.9337468E-006	5.5360582E-005	3.1429799E-006	6.1011374E-006	5.8449041E-006	2.9604687E-006	1.0208185E+001	1.0929941E+000	1.0266532E+001	6.1113973E+000	1.1710315E+004	1.0937029E+005	1.0999541E+005	-8.3888603E+001	0.0000000E+000	0.0000000E+000	0.0000000E+000	8.3888603E+001	0.0000000E+000	0.0000000E+000	0.0000000E+000	-8.3888603E+001	0.0000000E+000	0.0000000E+000	0.0000000E+000	-6.1113973E+000	0.0000000E+000	0.0000000E+000	0.0000000E+000	6.1113973E+000	9.3396521E+000	8.3888603E+001	-1.684843233335353E-004
1.1811532E+004	9.8919675E-002	1.1002980E-002	9.9529736E-002	-6.3470030E+000	2.365350128346472E+001	-1.0652645E-004	-3.9271820E-001	1.2246262E+003	1.4966440E+001	1.000000000000000E+000	37	5.1536364E-003	5.1779866E-002	0	-3.318473803278473E-003	3.1747615E-001	1.3561730E-001	6.1707110E+000	3.5539799E-006	6.9927478E-006	6.2826271E-006	9.7680841E-006	2.2566837E-006	6.1966771E-006	9.3323551E-002	5.3315960E-002	4.2456737E-001	5.7400516E-006	4.6760630E-005	4.5529250E-006	5.7830275E-006	4.1042640E-006	5.1858879E-006	9.9856653E+000	1.1107202E+000	1.0047249E+001	6.3470030E+000	1.4966435E+004	1.3455223E+005	1.3538205E+005	-8.3653000E+001	0.0000000E+000	0.0000000E+000	0.0000000E+000	8.3653000E+001	0.0000000E+000	0.0000000E+000	0.0000000E+000	-8.3653000E+001	0.0000000E+000	0.0000000E+000	0.0000000E+000	-6.3470030E+000	0.0000000E+000	0.0000000E+000	0.0000000E+000	6.3470030E+000	8.9902620E+000	8.3653000E+001	-2.084477066376968E-004
