EC-Lab ASCII FILE
Nb header lines : 66                          

Potentio Electrochemical Impedance Spectroscopy

Run on channel : 15 (SN 19485)
User : 
Electrode connection : standard
Potential control : Ewe
Ewe ctrl range : min = -1.00 V, max = 1.00 V
Ewe,I filtering : <None>
Safety Limits :
	Do not start on E overload
Channel : Floating
Acquisition started on : 04/16/2024 15:05:11.128
Loaded Setting File :  NONE
Saved on :
	File : 240416-EIS-0p5M_FeCl2FeCl3-1M_HCl-50mLmin_Dampened-25mHz_10ppd_C15.mpr
	Directory : C:\Data\mathias\IRFB\
	Host : 192.168.0.1
Device : VMP-300 (SN 0826)
Address : USB
EC-Lab for windows v11.52 (software)
Internet server v11.52 (firmware)
Command interpretor v11.52 (firmware)
Electrode material : 
Initial state : 
Electrolyte : 
Comments : 
Cable : special
Electrode surface area : 0.001 cm²
Characteristic mass : 0.001 g
Equivalent Weight : 0.000 g/eq.
Density : 0.000 g/cm3
Volume (V) : 0.001 cm³
Record EIS quality indicators
Cycle Definition : Charge/Discharge alternance
Mode                Single sine         
E (V)               0.0000              
vs.                 Eoc                 
tE (h:m:s)          0:00:0.0000         
record              0                   
dI                  0.000               
unit dI             mA                  
dt (s)              0.000               
fi                  920.000             
unit fi             kHz                 
ff                  25.000              
unit ff             mHz                 
Nd                  10                  
Points              per decade          
spacing             Logarithmic         
Va (mV)             5.0                 
pw                  0.10                
Na                  3                   
corr                0                   
E range min (V)     -1.000              
E range max (V)     1.000               
I Range             Auto                
Bandwidth           8                   
nc cycles           2                   
goto Ns'            0                   
nr cycles           0                   
inc. cycle          1                   

freq/Hz	Re(Z)/Ohm	-Im(Z)/Ohm	|Z|/Ohm	Phase(Z)/deg	time/s	<Ewe>/V	<I>/mA	Cs/µF	Cp/µF	cycle number	I Range	|Ewe|/V	|I|/A	Ns	(Q-Qo)/mA.h	THD Ewe/%	NSD Ewe/%	NSR Ewe/%	|Ewe h2|/V	|Ewe h3|/V	|Ewe h4|/V	|Ewe h5|/V	|Ewe h6|/V	|Ewe h7|/V	THD I/%	NSD I/%	NSR I/%	|I h2|/A	|I h3|/A	|I h4|/A	|I h5|/A	|I h6|/A	|I h7|/A	Re(Y)/Ohm-1	Im(Y)/Ohm-1	|Y|/Ohm-1	Phase(Y)/deg	Re(C)/nF	Im(C)/nF	|C|/nF	Phase(C)/deg	Re(M)	Im(M)	|M|	Phase(M)/deg	Re(Permittivity)	Im(Permittivity)	|Permittivity|	Phase(Permittivity)/deg	Re(Resistivity)/Ohm.cm	Im(Resistivity)/Ohm.cm	|Resistivity|/Ohm.cm	Phase(Resistivity)/deg	Re(Conductivity)/mS/cm	Im(Conductivity)/mS/cm	|Conductivity|/mS/cm	Phase(Conductivity)/deg	Tan(Delta)	Loss Angle(Delta)/deg	dq/mA.h	
9.2000075E+005	-9.5413730E-002	-2.2004582E-001	2.3984149E-001	1.1344196E+002	1.976476200536126E+000	-1.2956650E-004	-1.1662786E+000	-7.8617430E-001	-6.6175383E-001	1.000000000000000E+000	37	7.0700137E-004	2.9477859E-003	0	-6.094503303919401E-004	-1	-1	-1	0	0	0	0	0	0	-1	-1	-1	0	0	0	0	0	0	-1.6586785E+000	-3.8252909E+000	4.1694202E+000	-1.1344196E+002	-6.6175385E+002	-2.8694196E+002	7.2128625E+002	1.5655804E+002	0.0000000E+000	0.0000000E+000	0.0000000E+000	-1.5655804E+002	0.0000000E+000	0.0000000E+000	0.0000000E+000	1.5655804E+002	0.0000000E+000	0.0000000E+000	0.0000000E+000	1.1344196E+002	0.0000000E+000	0.0000000E+000	0.0000000E+000	-1.1344196E+002	4.3360847E-001	2.3441963E+001	-6.094503303919401E-004
7.3153575E+005	-2.5510289E-002	-1.1982229E-001	1.2250778E-001	1.0201888E+002	3.123487294971710E+000	-1.3472997E-004	-1.2140722E+000	-1.8157121E+000	-1.7369802E+000	1.000000000000000E+000	37	5.8680138E-004	4.7899112E-003	0	-9.848303205957378E-004	-1	-1	-1	0	0	0	0	0	0	-1	-1	-1	0	0	0	0	0	0	-1.6997617E+000	-7.9838109E+000	8.1627464E+000	-1.0201888E+002	-1.7369800E+003	-3.6980508E+002	1.7759097E+003	1.6798111E+002	0.0000000E+000	0.0000000E+000	0.0000000E+000	-1.6798111E+002	0.0000000E+000	0.0000000E+000	0.0000000E+000	1.6798111E+002	0.0000000E+000	0.0000000E+000	0.0000000E+000	1.0201888E+002	0.0000000E+000	0.0000000E+000	0.0000000E+000	-1.0201888E+002	2.1290103E-001	1.2018883E+001	-3.753799902037977E-004
5.8167869E+005	2.3661140E-002	-7.2519086E-002	7.6281503E-002	7.1929810E+001	4.270486576162511E+000	-1.2731097E-004	-1.1545347E+000	-3.7729814E+000	-3.4099720E+000	1.000000000000000E+000	37	5.6943769E-004	7.4649514E-003	0	-1.357822278571703E-003	-1	-1	-1	0	0	0	0	0	0	-1	-1	-1	0	0	0	0	0	0	4.0662789E+000	-1.2462749E+001	1.3109338E+001	-7.1929810E+001	-3.4099722E+003	1.1125874E+003	3.5868875E+003	-1.6192981E+002	0.0000000E+000	0.0000000E+000	0.0000000E+000	1.6192981E+002	0.0000000E+000	0.0000000E+000	0.0000000E+000	-1.6192981E+002	0.0000000E+000	0.0000000E+000	0.0000000E+000	7.1929810E+001	0.0000000E+000	0.0000000E+000	0.0000000E+000	-7.1929810E+001	3.2627466E-001	1.8070190E+001	-3.729919579759653E-004
4.6252413E+005	5.0306082E-002	-5.0136216E-002	7.1023531E-002	4.4903103E+001	5.417489617277170E+000	-1.2678902E-004	-1.0899349E+000	-6.8633194E+000	-3.4200525E+000	1.000000000000000E+000	37	7.5413752E-004	1.0618136E-002	0	-1.710305768947634E-003	-1	-1	-1	0	0	0	0	0	0	-1	-1	-1	0	0	0	0	0	0	9.9727736E+000	-9.9390993E+000	1.4079841E+001	-4.4903103E+001	-3.4200527E+003	3.4316399E+003	4.8448853E+003	-1.3490311E+002	0.0000000E+000	0.0000000E+000	0.0000000E+000	1.3490311E+002	0.0000000E+000	0.0000000E+000	0.0000000E+000	-1.3490311E+002	0.0000000E+000	0.0000000E+000	0.0000000E+000	4.4903103E+001	0.0000000E+000	0.0000000E+000	0.0000000E+000	-4.4903103E+001	1.0033880E+000	4.5096897E+001	-3.524834903759313E-004
3.6778131E+005	6.5148301E-002	-3.7149701E-002	7.4996009E-002	2.9693209E+001	6.564493591751670E+000	-1.3085268E-004	-1.1317543E+000	-1.1648637E+001	-2.8583109E+000	1.000000000000000E+000	37	1.1540891E-003	1.5388674E-002	0	-2.058449758244989E-003	-1	-1	-1	0	0	0	0	0	0	-1	-1	-1	0	0	0	0	0	0	1.1583153E+001	-6.6050940E+000	1.3334043E+001	-2.9693209E+001	-2.8583108E+003	5.0125332E+003	5.7702192E+003	-1.1969321E+002	0.0000000E+000	0.0000000E+000	0.0000000E+000	1.1969321E+002	0.0000000E+000	0.0000000E+000	0.0000000E+000	-1.1969321E+002	0.0000000E+000	0.0000000E+000	0.0000000E+000	2.9693209E+001	0.0000000E+000	0.0000000E+000	0.0000000E+000	-2.9693209E+001	1.7536696E+000	6.0306793E+001	-3.481439892973545E-004
2.9243988E+005	7.2957121E-002	-2.8224034E-002	7.8226194E-002	2.1149353E+001	7.711499566241400E+000	-1.2056300E-004	-1.0975280E+000	-1.9282549E+001	-2.5101418E+000	1.000000000000000E+000	37	1.7571496E-003	2.2462420E-002	0	-2.389834920136465E-003	-1	-1	-1	0	0	0	0	0	0	-1	-1	-1	0	0	0	0	0	0	1.1922388E+001	-4.6122694E+000	1.2783442E+001	-2.1149353E+001	-2.5101416E+003	6.4885376E+003	6.9571494E+003	-1.1114935E+002	0.0000000E+000	0.0000000E+000	0.0000000E+000	1.1114935E+002	0.0000000E+000	0.0000000E+000	0.0000000E+000	-1.1114935E+002	0.0000000E+000	0.0000000E+000	0.0000000E+000	2.1149353E+001	0.0000000E+000	0.0000000E+000	0.0000000E+000	-2.1149353E+001	2.5849288E+000	6.8850647E+001	-3.313851618914759E-004
2.3252858E+005	7.7431470E-002	-2.1827623E-002	8.0449224E-002	1.5742934E+001	8.858479140704731E+000	-1.3301497E-004	-1.1440187E+000	-3.1357204E+001	-2.3083758E+000	1.000000000000000E+000	37	2.6082518E-003	3.2421093E-002	0	-2.737003786138362E-003	-1	-1	-1	0	0	0	0	0	0	-1	-1	-1	0	0	0	0	0	0	1.1963927E+001	-3.3725839E+000	1.2430201E+001	-1.5742934E+001	-2.3083760E+003	8.1887485E+003	8.5078906E+003	-1.0574294E+002	0.0000000E+000	0.0000000E+000	0.0000000E+000	1.0574294E+002	0.0000000E+000	0.0000000E+000	0.0000000E+000	-1.0574294E+002	0.0000000E+000	0.0000000E+000	0.0000000E+000	1.5742934E+001	0.0000000E+000	0.0000000E+000	0.0000000E+000	-1.5742934E+001	3.5474074E+000	7.4257065E+001	-3.471688660018975E-004
1.8490202E+005	8.0162652E-002	-1.6069692E-002	8.1757478E-002	1.1335470E+001	1.000548084851471E+001	-1.1849383E-004	-1.1055861E+000	-5.3563744E+001	-2.0693362E+000	1.000000000000000E+000	37	3.7648438E-003	4.6048924E-002	0	-3.150827207643125E-003	-1	-1	-1	0	0	0	0	0	0	-1	-1	-1	0	0	0	0	0	0	1.1992702E+001	-2.4041002E+000	1.2231297E+001	-1.1335470E+001	-2.0693367E+003	1.0322754E+004	1.0528124E+004	-1.0133547E+002	0.0000000E+000	0.0000000E+000	0.0000000E+000	1.0133547E+002	0.0000000E+000	0.0000000E+000	0.0000000E+000	-1.0133547E+002	0.0000000E+000	0.0000000E+000	0.0000000E+000	1.1335470E+001	0.0000000E+000	0.0000000E+000	0.0000000E+000	-1.1335470E+001	4.9884377E+000	7.8664528E+001	-4.138234215047623E-004
1.4701789E+005	8.1922844E-002	-1.1384382E-002	8.2710072E-002	7.9114237E+000	1.101747958993656E+001	-1.1964951E-004	-1.0659063E+000	-9.5091240E+001	-1.8015347E+000	1.000000000000000E+000	37	5.3008697E-003	6.4089775E-002	0	-3.498616549947610E-003	-1	-1	-1	0	0	0	0	0	0	-1	-1	-1	0	0	0	0	0	0	1.1975349E+001	-1.6641507E+000	1.2090425E+001	-7.9114237E+000	-1.8015344E+003	1.2963974E+004	1.3088550E+004	-9.7911423E+001	0.0000000E+000	0.0000000E+000	0.0000000E+000	9.7911423E+001	0.0000000E+000	0.0000000E+000	0.0000000E+000	-9.7911423E+001	0.0000000E+000	0.0000000E+000	0.0000000E+000	7.9114237E+000	0.0000000E+000	0.0000000E+000	0.0000000E+000	-7.9114237E+000	7.1960731E+000	8.2088577E+001	-3.477893423044849E-004
1.1690915E+005	8.3015271E-002	-7.5077363E-003	8.3354071E-002	5.1676583E+000	1.216449713773909E+001	-1.2417921E-004	-1.1224289E+000	-1.8132707E+002	-1.4710486E+000	1.000000000000000E+000	37	5.2532931E-003	6.3023835E-002	0	-3.794433457672596E-003	-1	-1	-1	0	0	0	0	0	0	-1	-1	-1	0	0	0	0	0	0	1.1948252E+001	-1.0805762E+000	1.1997015E+001	-5.1676583E+000	-1.4710480E+003	1.6265822E+004	1.6332206E+004	-9.5167656E+001	0.0000000E+000	0.0000000E+000	0.0000000E+000	9.5167656E+001	0.0000000E+000	0.0000000E+000	0.0000000E+000	-9.5167656E+001	0.0000000E+000	0.0000000E+000	0.0000000E+000	5.1676583E+000	0.0000000E+000	0.0000000E+000	0.0000000E+000	-5.1676583E+000	1.1057297E+001	8.4832344E+001	-2.958169077249863E-004
9.2961328E+004	8.4407561E-002	-4.3487931E-003	8.4519513E-002	2.9493492E+000	1.331348889900255E+001	-1.2727355E-004	-1.0718620E+000	-3.9368518E+002	-1.0422516E+000	1.000000000000000E+000	37	5.2419347E-003	6.2020410E-002	0	-4.132279192839645E-003	2.9501325E-001	1.6093692E-001	6.0679898E+000	3.9289280E-006	4.9752707E-006	4.6549294E-006	6.5033541E-006	5.6055887E-006	9.1044585E-006	9.3469806E-002	1.8397257E-002	3.5011867E-001	1.2479938E-005	5.5579218E-005	5.8324513E-006	5.2864525E-006	2.5713073E-006	5.1892034E-006	1.1815916E+001	-6.0877216E-001	1.1831588E+001	-2.9493492E+000	-1.0422513E+003	2.0229502E+004	2.0256334E+004	-9.2949348E+001	0.0000000E+000	0.0000000E+000	0.0000000E+000	9.2949348E+001	0.0000000E+000	0.0000000E+000	0.0000000E+000	-9.2949348E+001	0.0000000E+000	0.0000000E+000	0.0000000E+000	2.9493492E+000	0.0000000E+000	0.0000000E+000	0.0000000E+000	-2.9493492E+000	1.9409422E+001	8.7050652E+001	-3.378457351670494E-004
7.3912563E+004	8.5433111E-002	-1.5869734E-003	8.5447848E-002	1.0641825E+000	1.446149495351710E+001	-1.1959358E-004	-1.0464206E+000	-1.3568512E+003	-4.6802524E-001	1.000000000000000E+000	37	5.2294075E-003	6.1199989E-002	0	-4.608624177734471E-003	3.1868443E-001	1.6520157E-001	6.0792155E+000	8.4132807E-006	8.2577735E-006	6.1459255E-006	4.1702438E-006	5.6626868E-006	4.8231104E-006	1.0430812E-001	2.8400756E-002	3.6226317E-001	7.6720262E-006	6.2639250E-005	5.8262199E-006	3.8221224E-006	5.0081553E-006	2.0992616E-006	1.1701026E+001	-2.1735388E-001	1.1703045E+001	-1.0641825E+000	-4.6802682E+002	2.5195668E+004	2.5200014E+004	-9.1064186E+001	0.0000000E+000	0.0000000E+000	0.0000000E+000	9.1064186E+001	0.0000000E+000	0.0000000E+000	0.0000000E+000	-9.1064186E+001	0.0000000E+000	0.0000000E+000	0.0000000E+000	1.0641825E+000	0.0000000E+000	0.0000000E+000	0.0000000E+000	-1.0641825E+000	5.3833988E+001	8.8935814E+001	-4.763449848948255E-004
5.8770039E+004	8.6465515E-002	7.3265249E-004	8.6468622E-002	-4.8547548E-001	1.560948119472596E+001	-1.2334037E-004	-1.0641384E+000	3.6962910E+003	2.6536590E-001	1.000000000000000E+000	37	5.2216761E-003	6.0388103E-002	0	-4.914908205785685E-003	4.2382598E-001	2.2241706E-001	6.2528749E+000	3.5003941E-006	9.1369639E-006	8.5198826E-006	7.1635222E-006	7.9600513E-006	1.1997993E-005	1.0561189E-001	5.1256843E-002	3.6724845E-001	5.9297799E-006	6.2788444E-005	4.3511814E-006	2.5321392E-006	3.9146748E-006	6.4286473E-006	1.1564474E+001	9.7989812E-002	1.1564889E+001	4.8547548E-001	2.6536487E+002	3.1317711E+004	3.1318836E+004	-8.9514526E+001	0.0000000E+000	0.0000000E+000	0.0000000E+000	8.9514526E+001	0.0000000E+000	0.0000000E+000	0.0000000E+000	-8.9514526E+001	0.0000000E+000	0.0000000E+000	0.0000000E+000	-4.8547548E-001	0.0000000E+000	0.0000000E+000	0.0000000E+000	4.8547548E-001	1.1801709E+002	8.9514526E+001	-3.062840280512145E-004
4.6735824E+004	8.7515064E-002	2.9302903E-003	8.7564111E-002	-1.9177333E+000	1.675848303598468E+001	-1.1698389E-004	-1.0170519E+000	1.1621429E+003	1.3014534E+000	1.000000000000000E+000	37	5.1844218E-003	5.9207153E-002	0	-5.227787839412896E-003	3.1462047E-001	1.9949888E-001	6.1776476E+000	6.2255313E-006	8.1950402E-006	5.1116817E-006	7.1683239E-006	6.4717547E-006	4.7791546E-006	1.2389475E-001	1.8517664E-002	3.6303827E-001	2.0595292E-006	7.2595300E-005	3.6011245E-006	7.4937211E-006	2.9345586E-006	3.9640368E-006	1.1413808E+001	3.8217154E-001	1.1420204E+001	1.9177333E+000	1.3014525E+003	3.8868770E+004	3.8890551E+004	-8.8082268E+001	0.0000000E+000	0.0000000E+000	0.0000000E+000	8.8082268E+001	0.0000000E+000	0.0000000E+000	0.0000000E+000	-8.8082268E+001	0.0000000E+000	0.0000000E+000	0.0000000E+000	-1.9177333E+000	0.0000000E+000	0.0000000E+000	0.0000000E+000	1.9177333E+000	2.9865664E+001	8.8082268E+001	-3.128796336272109E-004
3.7160402E+004	8.8958487E-002	4.8150639E-003	8.9088701E-002	-3.0982306E+000	1.790648773047724E+001	-1.2019010E-004	-1.0693310E+000	8.8948309E+002	2.5983434E+000	1.000000000000000E+000	37	5.1943748E-003	5.8305651E-002	0	-5.624886853163855E-003	3.4888795E-001	1.4320992E-001	6.2017450E+000	4.7313092E-006	9.4111110E-006	9.1814491E-006	5.5989622E-006	7.3494284E-006	2.9828291E-006	1.2576590E-001	4.4904530E-002	3.8049176E-001	4.3731352E-006	7.2660783E-005	2.6913649E-006	5.5588807E-006	2.2133465E-006	5.0606072E-006	1.1208361E+001	6.0667598E-001	1.1224768E+001	3.0982306E+000	2.5983413E+003	4.8004484E+004	4.8074754E+004	-8.6901772E+001	0.0000000E+000	0.0000000E+000	0.0000000E+000	8.6901772E+001	0.0000000E+000	0.0000000E+000	0.0000000E+000	-8.6901772E+001	0.0000000E+000	0.0000000E+000	0.0000000E+000	-3.0982306E+000	0.0000000E+000	0.0000000E+000	0.0000000E+000	3.0982306E+000	1.8475039E+001	8.6901772E+001	-3.970990137509584E-004
2.9552035E+004	9.0496331E-002	6.6327932E-003	9.0739079E-002	-4.1919131E+000	1.905449594501988E+001	-1.2112212E-004	-1.0613840E+000	8.1196307E+002	4.3385086E+000	1.000000000000000E+000	37	5.1922794E-003	5.7222087E-002	0	-6.071485716147141E-003	3.8758269E-001	1.4552636E-001	6.2595706E+000	5.7445391E-006	1.0453707E-005	7.0918159E-006	7.5834582E-006	8.4601234E-006	6.0678553E-006	1.3162015E-001	2.3133148E-002	3.8284150E-001	1.2521507E-005	7.2613759E-005	4.8717693E-006	1.1440955E-005	5.6382282E-006	4.6128780E-006	1.0991128E+001	8.0557829E-001	1.1020610E+001	4.1919131E+000	4.3385054E+003	5.9193633E+004	5.9352410E+004	-8.5808090E+001	0.0000000E+000	0.0000000E+000	0.0000000E+000	8.5808090E+001	0.0000000E+000	0.0000000E+000	0.0000000E+000	-8.5808090E+001	0.0000000E+000	0.0000000E+000	0.0000000E+000	-4.1919131E+000	0.0000000E+000	0.0000000E+000	0.0000000E+000	4.1919131E+000	1.3643774E+001	8.5808090E+001	-4.465988629832867E-004
2.3493170E+004	9.2187539E-002	8.0764201E-003	9.2540644E-002	-5.0068188E+000	2.020249730619253E+001	-1.1500797E-004	-1.0233054E+000	8.3880231E+002	6.3889928E+000	1.000000000000000E+000	37	5.1920591E-003	5.6105714E-002	0	-6.536009429829816E-003	3.5472861E-001	1.3542445E-001	6.2990336E+000	8.2821916E-006	5.7622260E-006	7.2382950E-006	5.8024689E-006	5.1034458E-006	9.9900190E-006	1.2459277E-001	1.2364177E-002	3.8080403E-001	8.3957802E-006	6.8103574E-005	4.0171312E-006	1.0911768E-005	4.1599824E-006	3.7667144E-006	1.0764831E+001	9.4309157E-001	1.0806063E+001	5.0068188E+000	6.3889946E+003	7.2926555E+004	7.3205883E+004	-8.4993179E+001	0.0000000E+000	0.0000000E+000	0.0000000E+000	8.4993179E+001	0.0000000E+000	0.0000000E+000	0.0000000E+000	-8.4993179E+001	0.0000000E+000	0.0000000E+000	0.0000000E+000	-5.0068188E+000	0.0000000E+000	0.0000000E+000	0.0000000E+000	5.0068188E+000	1.1414406E+001	8.4993179E+001	-4.645237136826751E-004
1.8677629E+004	9.3993254E-002	9.3235457E-003	9.4454542E-002	-5.6648536E+000	2.135047805405338E+001	-1.1478428E-004	-1.0239010E+000	9.1393921E+002	8.9049978E+000	1.000000000000000E+000	37	5.1782038E-003	5.4822180E-002	0	-6.754869857339810E-003	3.2217708E-001	1.7232323E-001	6.1839938E+000	6.0306606E-006	3.4736856E-006	5.9064873E-006	5.4377156E-006	8.0605887E-006	6.6049338E-006	1.2277626E-001	3.4633983E-002	3.9967266E-001	6.4266756E-006	6.6082110E-005	3.9844103E-006	6.1046908E-006	5.6474823E-006	3.7681077E-006	1.0535399E+001	1.0450461E+000	1.0587104E+001	5.6648536E+000	8.9050020E+003	8.9773758E+004	9.0214336E+004	-8.4335144E+001	0.0000000E+000	0.0000000E+000	0.0000000E+000	8.4335144E+001	0.0000000E+000	0.0000000E+000	0.0000000E+000	-8.4335144E+001	0.0000000E+000	0.0000000E+000	0.0000000E+000	-5.6648536E+000	0.0000000E+000	0.0000000E+000	0.0000000E+000	5.6648536E+000	1.0081278E+001	8.4335144E+001	-2.188604275099931E-004
1.4854886E+004	9.6019953E-002	1.0287861E-002	9.6569516E-002	-6.1155090E+000	2.249948933531414E+001	-1.2619240E-004	-1.0329088E+000	1.0414196E+003	1.1819410E+001	1.000000000000000E+000	37	5.1692026E-003	5.3528305E-002	0	-7.071317324493494E-003	3.3572063E-001	1.5847705E-001	6.2939930E+000	6.6718508E-006	7.4768450E-006	6.5344084E-006	7.3621436E-006	5.0492358E-006	6.6075081E-006	1.0708008E-001	2.9474637E-002	4.1258541E-001	5.2946980E-006	5.6342789E-005	2.7790231E-006	6.7218389E-006	4.0321561E-006	1.6722503E-006	1.0296305E+001	1.1031765E+000	1.0355235E+001	6.1155090E+000	1.1819410E+004	1.1031440E+005	1.1094577E+005	-8.3884491E+001	0.0000000E+000	0.0000000E+000	0.0000000E+000	8.3884491E+001	0.0000000E+000	0.0000000E+000	0.0000000E+000	-8.3884491E+001	0.0000000E+000	0.0000000E+000	0.0000000E+000	-6.1155090E+000	0.0000000E+000	0.0000000E+000	0.0000000E+000	6.1155090E+000	9.3333254E+000	8.3884491E+001	-3.164474671536847E-004
1.1811532E+004	9.8167300E-002	1.1163605E-002	9.8800026E-002	-6.4878163E+000	2.364750104318955E+001	-1.2520445E-004	-1.0214256E+000	1.2070059E+003	1.5410057E+001	1.000000000000000E+000	37	5.1480047E-003	5.2105296E-002	0	-7.303794533637249E-003	3.2181835E-001	1.8898247E-001	6.2145629E+000	6.8827417E-006	5.5706773E-006	5.5408432E-006	5.6741160E-006	9.4201814E-006	4.5978636E-006	9.9890947E-002	4.7470145E-002	4.1630325E-001	6.1759852E-006	5.0550854E-005	4.9209093E-006	4.8261618E-006	5.9369891E-006	4.0678842E-006	1.0056637E+001	1.1436428E+000	1.0121455E+001	6.4878163E+000	1.5410058E+004	1.3550853E+005	1.3638194E+005	-8.3512184E+001	0.0000000E+000	0.0000000E+000	0.0000000E+000	8.3512184E+001	0.0000000E+000	0.0000000E+000	0.0000000E+000	-8.3512184E+001	0.0000000E+000	0.0000000E+000	0.0000000E+000	-6.4878163E+000	0.0000000E+000	0.0000000E+000	0.0000000E+000	6.4878163E+000	8.7935123E+000	8.3512184E+001	-2.324772091437544E-004
