EC-Lab ASCII FILE
Nb header lines : 66                          

Potentio Electrochemical Impedance Spectroscopy

Run on channel : 15 (SN 19485)
User : 
Electrode connection : standard
Potential control : Ewe
Ewe ctrl range : min = -1.00 V, max = 1.00 V
Ewe,I filtering : <None>
Safety Limits :
	Do not start on E overload
Channel : Floating
Acquisition started on : 04/16/2024 14:28:58.615
Loaded Setting File :  NONE
Saved on :
	File : 240416-EIS-0p5M_FeCl2FeCl3-1M_HCl-10mLmin_Dampened-25mHz_10ppd_C15.mpr
	Directory : C:\Data\mathias\IRFB\
	Host : 192.168.0.1
Device : VMP-300 (SN 0826)
Address : USB
EC-Lab for windows v11.52 (software)
Internet server v11.52 (firmware)
Command interpretor v11.52 (firmware)
Electrode material : 
Initial state : 
Electrolyte : 
Comments : 
Cable : special
Electrode surface area : 0.001 cm²
Characteristic mass : 0.001 g
Equivalent Weight : 0.000 g/eq.
Density : 0.000 g/cm3
Volume (V) : 0.001 cm³
Record EIS quality indicators
Cycle Definition : Charge/Discharge alternance
Mode                Single sine         
E (V)               0.0000              
vs.                 Eoc                 
tE (h:m:s)          0:00:0.0000         
record              0                   
dI                  0.000               
unit dI             mA                  
dt (s)              0.000               
fi                  920.000             
unit fi             kHz                 
ff                  25.000              
unit ff             mHz                 
Nd                  10                  
Points              per decade          
spacing             Logarithmic         
Va (mV)             5.0                 
pw                  0.10                
Na                  3                   
corr                0                   
E range min (V)     -1.000              
E range max (V)     1.000               
I Range             Auto                
Bandwidth           8                   
nc cycles           0                   
goto Ns'            0                   
nr cycles           0                   
inc. cycle          1                   

freq/Hz	Re(Z)/Ohm	-Im(Z)/Ohm	|Z|/Ohm	Phase(Z)/deg	time/s	<Ewe>/V	<I>/mA	Cs/µF	Cp/µF	cycle number	I Range	|Ewe|/V	|I|/A	Ns	(Q-Qo)/mA.h	THD Ewe/%	NSD Ewe/%	NSR Ewe/%	|Ewe h2|/V	|Ewe h3|/V	|Ewe h4|/V	|Ewe h5|/V	|Ewe h6|/V	|Ewe h7|/V	THD I/%	NSD I/%	NSR I/%	|I h2|/A	|I h3|/A	|I h4|/A	|I h5|/A	|I h6|/A	|I h7|/A	Re(Y)/Ohm-1	Im(Y)/Ohm-1	|Y|/Ohm-1	Phase(Y)/deg	Re(C)/nF	Im(C)/nF	|C|/nF	Phase(C)/deg	Re(M)	Im(M)	|M|	Phase(M)/deg	Re(Permittivity)	Im(Permittivity)	|Permittivity|	Phase(Permittivity)/deg	Re(Resistivity)/Ohm.cm	Im(Resistivity)/Ohm.cm	|Resistivity|/Ohm.cm	Phase(Resistivity)/deg	Re(Conductivity)/mS/cm	Im(Conductivity)/mS/cm	|Conductivity|/mS/cm	Phase(Conductivity)/deg	Tan(Delta)	Loss Angle(Delta)/deg	dq/mA.h	
9.2000075E+005	-9.6431464E-002	-2.2255263E-001	2.4254629E-001	1.1342696E+002	1.976478493859759E+000	-5.1517840E-005	-5.0502002E-001	-7.7731889E-001	-6.5444839E-001	1.000000000000000E+000	37	7.1444781E-004	2.9456143E-003	0	-2.842595177039087E-004	-1	-1	-1	0	0	0	0	0	0	-1	-1	-1	0	0	0	0	0	0	-1.6391907E+000	-3.7830620E+000	4.1229243E+000	-1.1342696E+002	-6.5444843E+002	-2.8357077E+002	7.1324268E+002	1.5657304E+002	0.0000000E+000	0.0000000E+000	0.0000000E+000	-1.5657304E+002	0.0000000E+000	0.0000000E+000	0.0000000E+000	1.5657304E+002	0.0000000E+000	0.0000000E+000	0.0000000E+000	1.1342696E+002	0.0000000E+000	0.0000000E+000	0.0000000E+000	-1.1342696E+002	4.3329737E-001	2.3426956E+001	-2.842595177039087E-004
7.3153575E+005	-2.4439136E-002	-1.2073509E-001	1.2318374E-001	1.0144317E+002	3.123491934995400E+000	-5.7631994E-005	-5.4858887E-001	-1.8019847E+000	-1.7310568E+000	1.000000000000000E+000	37	5.8976811E-004	4.7877105E-003	0	-4.387821926772077E-004	-1	-1	-1	0	0	0	0	0	0	-1	-1	-1	0	0	0	0	0	0	-1.6105685E+000	-7.9565854E+000	8.1179543E+000	-1.0144317E+002	-1.7310568E+003	-3.5039999E+002	1.7661647E+003	1.6855682E+002	0.0000000E+000	0.0000000E+000	0.0000000E+000	-1.6855682E+002	0.0000000E+000	0.0000000E+000	0.0000000E+000	1.6855682E+002	0.0000000E+000	0.0000000E+000	0.0000000E+000	1.0144317E+002	0.0000000E+000	0.0000000E+000	0.0000000E+000	-1.0144317E+002	2.0241949E-001	1.1443169E+001	-1.545226749732990E-004
5.8167869E+005	2.4446895E-002	-7.2963744E-002	7.6950364E-002	7.1476295E+001	4.270495482807746E+000	-5.3437834E-005	-4.6571285E-001	-3.7499881E+000	-3.3714967E+000	1.000000000000000E+000	37	5.7398935E-004	7.4592154E-003	0	-5.899617935128829E-004	-1	-1	-1	0	0	0	0	0	0	-1	-1	-1	0	0	0	0	0	0	4.1285958E+000	-1.2322128E+001	1.2995390E+001	-7.1476295E+001	-3.3714961E+003	1.1296385E+003	3.5557095E+003	-1.6147629E+002	0.0000000E+000	0.0000000E+000	0.0000000E+000	1.6147629E+002	0.0000000E+000	0.0000000E+000	0.0000000E+000	-1.6147629E+002	0.0000000E+000	0.0000000E+000	0.0000000E+000	7.1476295E+001	0.0000000E+000	0.0000000E+000	0.0000000E+000	-7.1476295E+001	3.3505538E-001	1.8523705E+001	-1.511796008356751E-004
4.6252413E+005	5.1391177E-002	-4.9874917E-002	7.1613967E-002	4.4142174E+001	5.419479190692073E+000	-6.1975275E-005	-5.4933321E-001	-6.8992767E+000	-3.3463585E+000	1.000000000000000E+000	37	7.6009129E-004	1.0613729E-002	0	-7.699105485667897E-004	-1	-1	-1	0	0	0	0	0	0	-1	-1	-1	0	0	0	0	0	0	1.0020585E+001	-9.7249355E+000	1.3963757E+001	-4.4142174E+001	-3.3463589E+003	3.4480913E+003	4.8049404E+003	-1.3414218E+002	0.0000000E+000	0.0000000E+000	0.0000000E+000	1.3414218E+002	0.0000000E+000	0.0000000E+000	0.0000000E+000	-1.3414218E+002	0.0000000E+000	0.0000000E+000	0.0000000E+000	4.4142174E+001	0.0000000E+000	0.0000000E+000	0.0000000E+000	-4.4142174E+001	1.0304012E+000	4.5857826E+001	-1.799487550539069E-004
3.6778131E+005	6.5242164E-002	-3.7603781E-002	7.5303279E-002	2.9957960E+001	6.568492285296088E+000	-4.0072428E-005	-4.1064182E-001	-1.1507976E+001	-2.8696847E+000	1.000000000000000E+000	37	1.1599548E-003	1.5403776E-002	0	-9.057280958535978E-004	-1	-1	-1	0	0	0	0	0	0	-1	-1	-1	0	0	0	0	0	0	1.1505369E+001	-6.6313772E+000	1.3279634E+001	-2.9957960E+001	-2.8696848E+003	4.9788726E+003	5.7466743E+003	-1.1995796E+002	0.0000000E+000	0.0000000E+000	0.0000000E+000	1.1995796E+002	0.0000000E+000	0.0000000E+000	0.0000000E+000	-1.1995796E+002	0.0000000E+000	0.0000000E+000	0.0000000E+000	2.9957960E+001	0.0000000E+000	0.0000000E+000	0.0000000E+000	-2.9957960E+001	1.7349895E+000	6.0042038E+001	-1.358175472868081E-004
2.9243988E+005	7.3376097E-002	-2.8389117E-002	7.8676514E-002	2.1151388E+001	7.717476953199366E+000	-5.0436651E-005	-4.4248551E-001	-1.9170422E+001	-2.4960036E+000	1.000000000000000E+000	37	1.7686988E-003	2.2480646E-002	0	-1.033445559112200E-003	-1	-1	-1	0	0	0	0	0	0	-1	-1	-1	0	0	0	0	0	0	1.1853986E+001	-4.5862918E+000	1.2710274E+001	-2.1151388E+001	-2.4960037E+003	6.4513101E+003	6.9173286E+003	-1.1115139E+002	0.0000000E+000	0.0000000E+000	0.0000000E+000	1.1115139E+002	0.0000000E+000	0.0000000E+000	0.0000000E+000	-1.1115139E+002	0.0000000E+000	0.0000000E+000	0.0000000E+000	2.1151388E+001	0.0000000E+000	0.0000000E+000	0.0000000E+000	-2.1151388E+001	2.5846558E+000	6.8848610E+001	-1.277174632586021E-004
2.3252858E+005	7.7796839E-002	-2.1775668E-002	8.0786929E-002	1.5637161E+001	8.864498607668793E+000	-4.1805975E-005	-3.9694339E-001	-3.1432020E+001	-2.2836688E+000	1.000000000000000E+000	37	2.6207531E-003	3.2440312E-002	0	-1.186864469264324E-003	-1	-1	-1	0	0	0	0	0	0	-1	-1	-1	0	0	0	0	0	0	1.1920096E+001	-3.3364861E+000	1.2378241E+001	-1.5637161E+001	-2.2836689E+003	8.1587490E+003	8.4723271E+003	-1.0563716E+002	0.0000000E+000	0.0000000E+000	0.0000000E+000	1.0563716E+002	0.0000000E+000	0.0000000E+000	0.0000000E+000	-1.0563716E+002	0.0000000E+000	0.0000000E+000	0.0000000E+000	1.5637161E+001	0.0000000E+000	0.0000000E+000	0.0000000E+000	-1.5637161E+001	3.5726500E+000	7.4362839E+001	-1.534189101521236E-004
1.8490202E+005	8.0382168E-002	-1.6131856E-002	8.1984937E-002	1.1347912E+001	1.001349378222949E+001	-5.0641647E-005	-4.6115196E-001	-5.3357338E+001	-2.0658305E+000	1.000000000000000E+000	37	3.7783673E-003	4.6086118E-002	0	-1.372078695354466E-003	-1	-1	-1	0	0	0	0	0	0	-1	-1	-1	0	0	0	0	0	0	1.1958910E+001	-2.4000273E+000	1.2197363E+001	-1.1347912E+001	-2.0658311E+003	1.0293666E+004	1.0498915E+004	-1.0134792E+002	0.0000000E+000	0.0000000E+000	0.0000000E+000	1.0134792E+002	0.0000000E+000	0.0000000E+000	0.0000000E+000	-1.0134792E+002	0.0000000E+000	0.0000000E+000	0.0000000E+000	1.1347912E+001	0.0000000E+000	0.0000000E+000	0.0000000E+000	-1.1347912E+001	4.9828224E+000	7.8652084E+001	-1.852142260901422E-004
1.4701789E+005	8.2255825E-002	-1.1467153E-002	8.3051287E-002	7.9363632E+000	1.102649980373099E+001	-5.3568187E-005	-4.6682790E-001	-9.4404861E+001	-1.7997527E+000	1.000000000000000E+000	37	5.3262278E-003	6.4131789E-002	0	-1.496597098969337E-003	-1	-1	-1	0	0	0	0	0	0	-1	-1	-1	0	0	0	0	0	0	1.1925426E+001	-1.6625047E+000	1.2040752E+001	-7.9363632E+000	-1.7997527E+003	1.2909930E+004	1.3034776E+004	-9.7936363E+001	0.0000000E+000	0.0000000E+000	0.0000000E+000	9.7936363E+001	0.0000000E+000	0.0000000E+000	0.0000000E+000	-9.7936363E+001	0.0000000E+000	0.0000000E+000	0.0000000E+000	7.9363632E+000	0.0000000E+000	0.0000000E+000	0.0000000E+000	-7.9363632E+000	7.1731687E+000	8.2063637E+001	-1.245184036148712E-004
1.1690915E+005	8.3496369E-002	-7.6167439E-003	8.3843060E-002	5.2122355E+000	1.217548708492541E+001	-5.4332457E-005	-4.1709882E-001	-1.7873199E+002	-1.4750501E+000	1.000000000000000E+000	37	5.2674655E-003	6.2825300E-002	0	-1.558124017179051E-003	-1	-1	-1	0	0	0	0	0	0	-1	-1	-1	0	0	0	0	0	0	1.1877728E+001	-1.0835154E+000	1.1927046E+001	-5.2122355E+000	-1.4750497E+003	1.6169813E+004	1.6236952E+004	-9.5212234E+001	0.0000000E+000	0.0000000E+000	0.0000000E+000	9.5212234E+001	0.0000000E+000	0.0000000E+000	0.0000000E+000	-9.5212234E+001	0.0000000E+000	0.0000000E+000	0.0000000E+000	5.2122355E+000	0.0000000E+000	0.0000000E+000	0.0000000E+000	-5.2122355E+000	1.0962214E+001	8.4787766E+001	-6.152691820971411E-005
9.2961328E+004	8.4771164E-002	-4.3817135E-003	8.4884331E-002	2.9589124E+000	1.332347836616100E+001	-5.7986035E-005	-5.0539070E-001	-3.9072739E+002	-1.0411342E+000	1.000000000000000E+000	37	5.2441242E-003	6.1779652E-002	0	-1.798297052266283E-003	3.4365126E-001	1.5160167E-001	6.1483583E+000	1.0011537E-005	5.4643228E-006	7.5180201E-006	7.7700179E-006	6.2540330E-006	3.1194788E-006	9.5491484E-002	1.8437788E-002	3.5618961E-001	1.2041485E-005	5.7076762E-005	4.0479044E-006	3.0020083E-006	3.6587492E-006	3.0008368E-006	1.1765031E+001	-6.0811943E-001	1.1780737E+001	-2.9589124E+000	-1.0411354E+003	2.0142387E+004	2.0169275E+004	-9.2958916E+001	0.0000000E+000	0.0000000E+000	0.0000000E+000	9.2958916E+001	0.0000000E+000	0.0000000E+000	0.0000000E+000	-9.2958916E+001	0.0000000E+000	0.0000000E+000	0.0000000E+000	2.9589124E+000	0.0000000E+000	0.0000000E+000	0.0000000E+000	-2.9589124E+000	1.9346579E+001	8.7041084E+001	-2.401730350872322E-004
7.3912563E+004	8.5704006E-002	-1.6524233E-003	8.5719936E-002	1.1045592E+000	1.447149415398599E+001	-6.2385247E-005	-4.9053895E-001	-1.3031085E+003	-4.8423874E-001	1.000000000000000E+000	37	5.2239480E-003	6.0942043E-002	0	-1.853879283187911E-003	2.7855617E-001	1.4028293E-001	6.0323019E+000	5.9378494E-006	7.1380814E-006	3.9506940E-006	5.6775039E-006	6.3522252E-006	3.3810913E-006	1.0339718E-001	2.3276277E-002	3.6324716E-001	9.9802182E-006	6.1744562E-005	3.8677595E-006	3.5504936E-006	2.6697865E-006	3.3480464E-006	1.1663730E+001	-2.2488351E-001	1.1665897E+001	-1.1045592E+000	-4.8423944E+002	2.5115355E+004	2.5120023E+004	-9.1104561E+001	0.0000000E+000	0.0000000E+000	0.0000000E+000	9.1104561E+001	0.0000000E+000	0.0000000E+000	0.0000000E+000	-9.1104561E+001	0.0000000E+000	0.0000000E+000	0.0000000E+000	1.1045592E+000	0.0000000E+000	0.0000000E+000	0.0000000E+000	-1.1045592E+000	5.1865650E+001	8.8895439E+001	-5.558223092162772E-005
5.8770039E+004	8.6766504E-002	6.0434709E-004	8.6768605E-002	-3.9907083E-001	1.561949898183229E+001	-4.7957335E-005	-4.3142965E-001	4.4810288E+003	2.1738289E-001	1.000000000000000E+000	37	5.2256025E-003	6.0224578E-002	0	-1.918301810264380E-003	3.3560565E-001	1.4980118E-001	6.1633801E+000	5.3598978E-006	8.9919868E-006	4.0280183E-006	4.5435395E-006	7.7206805E-006	8.3255572E-006	1.0670020E-001	5.2093972E-002	3.6399072E-001	6.2282575E-006	6.3294603E-005	4.8242418E-006	3.3270098E-006	3.6837771E-006	4.8079446E-006	1.1524627E+001	8.0271475E-002	1.1524906E+001	3.9907083E-001	2.1738286E+002	3.1209801E+004	3.1210559E+004	-8.9600929E+001	0.0000000E+000	0.0000000E+000	0.0000000E+000	8.9600929E+001	0.0000000E+000	0.0000000E+000	0.0000000E+000	-8.9600929E+001	0.0000000E+000	0.0000000E+000	0.0000000E+000	-3.9907083E-001	0.0000000E+000	0.0000000E+000	0.0000000E+000	3.9907083E-001	1.4357065E+002	8.9600929E+001	-6.442252707646945E-005
4.6735824E+004	8.7870091E-002	2.8090428E-003	8.7914981E-002	-1.8310156E+000	1.676747695638915E+001	-6.0334769E-005	-4.9254906E-001	1.2123049E+003	1.2376641E+000	1.000000000000000E+000	37	5.1898416E-003	5.9032504E-002	0	-2.107173177504951E-003	3.0176079E-001	2.3280439E-001	6.2589750E+000	5.7043071E-006	3.1807467E-006	6.9681719E-006	7.9638439E-006	6.0327588E-006	4.1494814E-006	1.2278461E-001	2.1403832E-002	3.7455305E-001	3.3432814E-006	7.1811024E-005	2.5943875E-006	6.2634349E-006	3.2301339E-006	4.2072434E-006	1.1368817E+001	3.6343989E-001	1.1374625E+001	1.8310156E+000	1.2376648E+003	3.8715559E+004	3.8735336E+004	-8.8168983E+001	0.0000000E+000	0.0000000E+000	0.0000000E+000	8.8168983E+001	0.0000000E+000	0.0000000E+000	0.0000000E+000	-8.8168983E+001	0.0000000E+000	0.0000000E+000	0.0000000E+000	-1.8310156E+000	0.0000000E+000	0.0000000E+000	0.0000000E+000	1.8310156E+000	3.1281151E+001	8.8168983E+001	-1.888713672405704E-004
3.7160402E+004	8.9250207E-002	4.6825777E-003	8.9372963E-002	-3.0033114E+000	1.791548570423038E+001	-4.4154633E-005	-3.9502594E-001	9.1464960E+002	2.5108018E+000	1.000000000000000E+000	37	5.2013202E-003	5.8197916E-002	0	-2.209292708597663E-003	3.1025812E-001	1.3751274E-001	6.1807885E+000	6.5875442E-006	4.1668409E-006	7.9792117E-006	6.5694444E-006	5.9796162E-006	5.2126379E-006	1.2528171E-001	4.3749593E-002	3.7057313E-001	2.5617371E-006	7.2257986E-005	2.6511282E-006	7.9502370E-006	2.5809550E-006	2.0463233E-006	1.1173697E+001	5.8623624E-001	1.1189066E+001	3.0033114E+000	2.5108013E+003	4.7856027E+004	4.7921848E+004	-8.6996689E+001	0.0000000E+000	0.0000000E+000	0.0000000E+000	8.6996689E+001	0.0000000E+000	0.0000000E+000	0.0000000E+000	-8.6996689E+001	0.0000000E+000	0.0000000E+000	0.0000000E+000	-3.0033114E+000	0.0000000E+000	0.0000000E+000	0.0000000E+000	3.0033114E+000	1.9060059E+001	8.6996689E+001	-1.021195310927127E-004
2.9552035E+004	9.0684757E-002	6.4257132E-003	9.0912126E-002	-4.0530729E+000	1.906349122544634E+001	-4.1097555E-005	-4.1592640E-001	8.3813007E+002	4.1870723E+000	1.000000000000000E+000	37	5.1931874E-003	5.7123154E-002	0	-2.348731380997433E-003	3.6641514E-001	1.4331064E-001	6.3303351E+000	8.1991038E-006	1.0949236E-005	5.1564712E-006	6.1995484E-006	6.5771092E-006	6.0942752E-006	1.2783426E-001	1.9946285E-002	3.8460901E-001	8.8619727E-006	7.1635091E-005	1.5186030E-006	9.7610473E-006	3.5031819E-006	2.2166703E-006	1.0972123E+001	7.7745938E-001	1.0999633E+001	4.0530729E+000	4.1870693E+003	5.9091281E+004	5.9239438E+004	-8.5946930E+001	0.0000000E+000	0.0000000E+000	0.0000000E+000	8.5946930E+001	0.0000000E+000	0.0000000E+000	0.0000000E+000	-8.5946930E+001	0.0000000E+000	0.0000000E+000	0.0000000E+000	-4.0530729E+000	0.0000000E+000	0.0000000E+000	0.0000000E+000	4.0530729E+000	1.4112792E+001	8.5946930E+001	-1.394386723997691E-004
2.3493170E+004	9.2472441E-002	7.8849876E-003	9.2808001E-002	-4.8737369E+000	2.021248911999282E+001	-5.9085844E-005	-4.5755991E-001	8.5916681E+002	6.2016706E+000	1.000000000000000E+000	37	5.1912824E-003	5.5935722E-002	0	-2.539938650437941E-003	4.4396600E-001	2.0364958E-001	6.2193265E+000	8.1925109E-006	8.3804862E-006	6.9810976E-006	9.3854178E-006	1.0652059E-005	6.4319643E-006	1.2676588E-001	1.2482028E-002	3.9058414E-001	3.3738113E-006	6.9605558E-005	3.6496813E-006	1.0705859E-005	4.5225534E-006	3.4579159E-006	1.0735974E+001	9.1544056E-001	1.0774933E+001	4.8737369E+000	6.2016665E+003	7.2731078E+004	7.2995000E+004	-8.5126266E+001	0.0000000E+000	0.0000000E+000	0.0000000E+000	8.5126266E+001	0.0000000E+000	0.0000000E+000	0.0000000E+000	-8.5126266E+001	0.0000000E+000	0.0000000E+000	0.0000000E+000	-4.8737369E+000	0.0000000E+000	0.0000000E+000	0.0000000E+000	4.8737369E+000	1.1727658E+001	8.5126266E+001	-1.912072694405086E-004
1.8677629E+004	9.4147064E-002	9.0656979E-003	9.4582535E-002	-5.5002217E+000	2.136049466786790E+001	-4.9318111E-005	-5.0548393E-001	9.3993359E+002	8.6353064E+000	1.000000000000000E+000	37	5.1758653E-003	5.4723267E-002	0	-2.721794067262775E-003	3.5725531E-001	2.3537867E-001	6.2827125E+000	7.2270122E-006	9.9554918E-006	6.3481716E-006	6.1739206E-006	4.2538504E-006	8.5255770E-006	1.1777119E-001	3.2094438E-002	3.9985248E-001	7.6809756E-006	6.3103813E-005	4.4643139E-006	8.0453947E-006	2.7561637E-006	3.2094595E-006	1.0524097E+001	1.0133965E+000	1.0572777E+001	5.5002217E+000	8.6353057E+003	8.9677453E+004	9.0092250E+004	-8.4499779E+001	0.0000000E+000	0.0000000E+000	0.0000000E+000	8.4499779E+001	0.0000000E+000	0.0000000E+000	0.0000000E+000	-8.4499779E+001	0.0000000E+000	0.0000000E+000	0.0000000E+000	-5.5002217E+000	0.0000000E+000	0.0000000E+000	0.0000000E+000	5.5002217E+000	1.0384977E+001	8.4499779E+001	-1.818554168248341E-004
1.4854886E+004	9.6127838E-002	1.0044666E-002	9.6651211E-002	-5.9653473E+000	2.250948920243536E+001	-5.3046253E-005	-4.5141822E-001	1.0666337E+003	1.1520510E+001	1.000000000000000E+000	37	5.1662684E-003	5.3452700E-002	0	-2.996924023435761E-003	3.3646205E-001	1.7307042E-001	6.2612681E+000	6.7517044E-006	6.4780020E-006	5.8298665E-006	4.0013479E-006	5.5718374E-006	8.9626938E-006	1.0861912E-001	2.1338467E-002	4.1528547E-001	7.0444385E-006	5.6343157E-005	2.7915839E-006	9.2128830E-006	5.2060459E-006	2.7109952E-006	1.0290456E+001	1.0752784E+000	1.0346482E+001	5.9653473E+000	1.1520511E+004	1.1025173E+005	1.1085200E+005	-8.4034653E+001	0.0000000E+000	0.0000000E+000	0.0000000E+000	8.4034653E+001	0.0000000E+000	0.0000000E+000	0.0000000E+000	-8.4034653E+001	0.0000000E+000	0.0000000E+000	0.0000000E+000	-5.9653473E+000	0.0000000E+000	0.0000000E+000	0.0000000E+000	5.9653473E+000	9.5700378E+000	8.4034653E+001	-2.751299561729861E-004
1.1811532E+004	9.8292135E-002	1.0782747E-002	9.8881803E-002	-6.2603722E+000	2.365749061698443E+001	-4.6652487E-005	-4.7222561E-001	1.2496388E+003	1.4859716E+001	1.000000000000000E+000	37	5.1615094E-003	5.2198779E-002	0	-3.178873879664060E-003	2.6702052E-001	1.7516132E-001	6.3693309E+000	6.0324678E-006	7.0882929E-006	5.4698298E-006	2.4733895E-006	4.5799998E-006	3.4664345E-006	9.5451899E-002	5.0657451E-002	4.1709715E-001	5.1636785E-006	4.8318379E-005	6.2278027E-006	5.5056807E-006	5.8032369E-006	1.7583284E-006	1.0052775E+001	1.1027997E+000	1.0113084E+001	6.2603722E+000	1.4859727E+004	1.3545652E+005	1.3626914E+005	-8.3739624E+001	0.0000000E+000	0.0000000E+000	0.0000000E+000	8.3739624E+001	0.0000000E+000	0.0000000E+000	0.0000000E+000	-8.3739624E+001	0.0000000E+000	0.0000000E+000	0.0000000E+000	-6.2603722E+000	0.0000000E+000	0.0000000E+000	0.0000000E+000	6.2603722E+000	9.1156864E+000	8.3739624E+001	-1.819498562282986E-004
