EC-Lab ASCII FILE
Nb header lines : 66                          

Potentio Electrochemical Impedance Spectroscopy

Run on channel : 15 (SN 19485)
User : 
Electrode connection : standard
Potential control : Ewe
Ewe ctrl range : min = -1.00 V, max = 1.00 V
Ewe,I filtering : <None>
Safety Limits :
	Do not start on E overload
Channel : Floating
Acquisition started on : 04/17/2024 10:15:20.290
Loaded Setting File :  NONE
Saved on :
	File : 240417-EIS-0p5M_FeCl2FeCl3-1M_HCl-10mLmin_Dampened-10mHz_10ppd_C15.mpr
	Directory : C:\Data\mathias\IRFB\
	Host : 192.168.0.1
Device : VMP-300 (SN 0826)
Address : USB
EC-Lab for windows v11.52 (software)
Internet server v11.52 (firmware)
Command interpretor v11.52 (firmware)
Electrode material : 
Initial state : 
Electrolyte : 
Comments : 
Cable : special
Electrode surface area : 0.001 cm²
Characteristic mass : 0.001 g
Equivalent Weight : 0.000 g/eq.
Density : 0.000 g/cm3
Volume (V) : 0.001 cm³
Record EIS quality indicators
Cycle Definition : Charge/Discharge alternance
Mode                Single sine         
E (V)               0.0000              
vs.                 Eoc                 
tE (h:m:s)          0:00:0.0000         
record              0                   
dI                  0.000               
unit dI             mA                  
dt (s)              0.000               
fi                  920.000             
unit fi             kHz                 
ff                  10.000              
unit ff             mHz                 
Nd                  10                  
Points              per decade          
spacing             Logarithmic         
Va (mV)             5.0                 
pw                  0.10                
Na                  3                   
corr                0                   
E range min (V)     -1.000              
E range max (V)     1.000               
I Range             Auto                
Bandwidth           8                   
nc cycles           0                   
goto Ns'            0                   
nr cycles           0                   
inc. cycle          1                   

freq/Hz	Re(Z)/Ohm	-Im(Z)/Ohm	|Z|/Ohm	Phase(Z)/deg	time/s	<Ewe>/V	<I>/mA	Cs/µF	Cp/µF	cycle number	I Range	|Ewe|/V	|I|/A	Ns	(Q-Qo)/mA.h	THD Ewe/%	NSD Ewe/%	NSR Ewe/%	|Ewe h2|/V	|Ewe h3|/V	|Ewe h4|/V	|Ewe h5|/V	|Ewe h6|/V	|Ewe h7|/V	THD I/%	NSD I/%	NSR I/%	|I h2|/A	|I h3|/A	|I h4|/A	|I h5|/A	|I h6|/A	|I h7|/A	Re(Y)/Ohm-1	Im(Y)/Ohm-1	|Y|/Ohm-1	Phase(Y)/deg	Re(C)/nF	Im(C)/nF	|C|/nF	Phase(C)/deg	Re(M)	Im(M)	|M|	Phase(M)/deg	Re(Permittivity)	Im(Permittivity)	|Permittivity|	Phase(Permittivity)/deg	Re(Resistivity)/Ohm.cm	Im(Resistivity)/Ohm.cm	|Resistivity|/Ohm.cm	Phase(Resistivity)/deg	Re(Conductivity)/mS/cm	Im(Conductivity)/mS/cm	|Conductivity|/mS/cm	Phase(Conductivity)/deg	Tan(Delta)	Loss Angle(Delta)/deg	dq/mA.h	
9.2000075E+005	-9.4947174E-002	-2.2311822E-001	2.4248032E-001	1.1305201E+002	1.976478920521913E+000	-1.3398434E-004	-1.0437419E+000	-7.7534842E-001	-6.5646863E-001	1.000000000000000E+000	37	7.1389647E-004	2.9441419E-003	0	-5.636033380539674E-004	-1	-1	-1	0	0	0	0	0	0	-1	-1	-1	0	0	0	0	0	0	-1.6148384E+000	-3.7947400E+000	4.1240458E+000	-1.1305201E+002	-6.5646875E+002	-2.7935788E+002	7.1343677E+002	1.5694800E+002	0.0000000E+000	0.0000000E+000	0.0000000E+000	-1.5694800E+002	0.0000000E+000	0.0000000E+000	0.0000000E+000	1.5694800E+002	0.0000000E+000	0.0000000E+000	0.0000000E+000	1.1305201E+002	0.0000000E+000	0.0000000E+000	0.0000000E+000	-1.1305201E+002	4.2554650E-001	2.3052010E+001	-5.636033380539674E-004
7.3154506E+005	-2.5414055E-002	-1.2170550E-001	1.2433062E-001	1.0179479E+002	3.123479801666690E+000	-1.4432994E-004	-1.1062385E+000	-1.7875940E+000	-1.7129041E+000	1.000000000000000E+000	37	5.9489347E-004	4.7847703E-003	0	-8.919352711046296E-004	-1	-1	-1	0	0	0	0	0	0	-1	-1	-1	0	0	0	0	0	0	-1.6440606E+000	-7.8732491E+000	8.0430708E+000	-1.0179479E+002	-1.7129041E+003	-3.5768204E+002	1.7498505E+003	1.6820520E+002	0.0000000E+000	0.0000000E+000	0.0000000E+000	-1.6820520E+002	0.0000000E+000	0.0000000E+000	0.0000000E+000	1.6820520E+002	0.0000000E+000	0.0000000E+000	0.0000000E+000	1.0179479E+002	0.0000000E+000	0.0000000E+000	0.0000000E+000	-1.0179479E+002	2.0881599E-001	1.1794792E+001	-3.283319330506622E-004
5.8168794E+005	2.2763435E-002	-7.3895723E-002	7.7322386E-002	7.2878654E+001	4.272497456258861E+000	-1.4837497E-004	-1.1362771E+000	-3.7026341E+000	-3.3817296E+000	1.000000000000000E+000	37	5.7686336E-004	7.4604959E-003	0	-1.247719157321430E-003	-1	-1	-1	0	0	0	0	0	0	-1	-1	-1	0	0	0	0	0	0	3.8073888E+000	-1.2359725E+001	1.2932865E+001	-7.2878654E+001	-3.3817297E+003	1.0417346E+003	3.5385459E+003	-1.6287866E+002	0.0000000E+000	0.0000000E+000	0.0000000E+000	1.6287866E+002	0.0000000E+000	0.0000000E+000	0.0000000E+000	-1.6287866E+002	0.0000000E+000	0.0000000E+000	0.0000000E+000	7.2878654E+001	0.0000000E+000	0.0000000E+000	0.0000000E+000	-7.2878654E+001	3.0804807E-001	1.7121346E+001	-3.557838862168008E-004
4.6253341E+005	5.0049119E-002	-5.0815139E-002	7.1323857E-002	4.5435127E+001	5.419481857359642E+000	-1.3411483E-004	-1.0585190E+000	-6.7714853E+000	-3.4371662E+000	1.000000000000000E+000	37	7.5755571E-004	1.0621351E-002	0	-1.582907908482063E-003	-1	-1	-1	0	0	0	0	0	0	-1	-1	-1	0	0	0	0	0	0	9.8384533E+000	-9.9890337E+000	1.4020555E+001	-4.5435127E+001	-3.4371653E+003	3.3853523E+003	4.8243877E+003	-1.3543512E+002	0.0000000E+000	0.0000000E+000	0.0000000E+000	1.3543512E+002	0.0000000E+000	0.0000000E+000	0.0000000E+000	-1.3543512E+002	0.0000000E+000	0.0000000E+000	0.0000000E+000	4.5435127E+001	0.0000000E+000	0.0000000E+000	0.0000000E+000	-4.5435127E+001	9.8492533E-001	4.4564873E+001	-3.351887511606328E-004
3.6779059E+005	6.4031005E-002	-3.7983529E-002	7.4449435E-002	3.0676640E+001	6.567493458598619E+000	-1.4498235E-004	-1.0165319E+000	-1.1392635E+001	-2.9654596E+000	1.000000000000000E+000	37	1.1470490E-003	1.5407088E-002	0	-1.919704977896478E-003	-1	-1	-1	0	0	0	0	0	0	-1	-1	-1	0	0	0	0	0	0	1.1552275E+001	-6.8528700E+000	1.3431935E+001	-3.0676640E+001	-2.9654592E+003	4.9990454E+003	5.8124351E+003	-1.2067664E+002	0.0000000E+000	0.0000000E+000	0.0000000E+000	1.2067664E+002	0.0000000E+000	0.0000000E+000	0.0000000E+000	-1.2067664E+002	0.0000000E+000	0.0000000E+000	0.0000000E+000	3.0676640E+001	0.0000000E+000	0.0000000E+000	0.0000000E+000	-3.0676640E+001	1.6857572E+000	5.9323360E+001	-3.367970694144152E-004
2.9244916E+005	7.2479784E-002	-2.8845640E-002	7.8008913E-002	2.1701658E+001	7.714483139716322E+000	-1.3829031E-004	-1.0173320E+000	-1.8866425E+001	-2.5796542E+000	1.000000000000000E+000	37	1.7526504E-003	2.2467310E-002	0	-2.277664065669084E-003	-1	-1	-1	0	0	0	0	0	0	-1	-1	-1	0	0	0	0	0	0	1.1910458E+001	-4.7401462E+000	1.2819048E+001	-2.1701658E+001	-2.5796543E+003	6.4818384E+003	6.9763062E+003	-1.1170166E+002	0.0000000E+000	0.0000000E+000	0.0000000E+000	1.1170166E+002	0.0000000E+000	0.0000000E+000	0.0000000E+000	-1.1170166E+002	0.0000000E+000	0.0000000E+000	0.0000000E+000	2.1701658E+001	0.0000000E+000	0.0000000E+000	0.0000000E+000	-2.1701658E+001	2.5126772E+000	6.8298340E+001	-3.579590877726055E-004
2.3254714E+005	7.6825082E-002	-2.2243345E-002	7.9980373E-002	1.6147438E+001	8.861491727555403E+000	-1.4472134E-004	-1.0362408E+000	-3.0768692E+001	-2.3798106E+000	1.000000000000000E+000	37	2.5924984E-003	3.2414183E-002	0	-2.633672002780148E-003	-1	-1	-1	0	0	0	0	0	0	-1	-1	-1	0	0	0	0	0	0	1.2009811E+001	-3.4772284E+000	1.2503067E+001	-1.6147438E+001	-2.3798103E+003	8.2194980E+003	8.5570820E+003	-1.0614744E+002	0.0000000E+000	0.0000000E+000	0.0000000E+000	1.0614744E+002	0.0000000E+000	0.0000000E+000	0.0000000E+000	-1.0614744E+002	0.0000000E+000	0.0000000E+000	0.0000000E+000	1.6147438E+001	0.0000000E+000	0.0000000E+000	0.0000000E+000	-1.6147438E+001	3.4538457E+000	7.3852562E+001	-3.560079371110639E-004
1.8491130E+005	7.9394013E-002	-1.6573777E-002	8.1105486E-002	1.1791359E+001	1.000849399532308E+001	-1.4567199E-004	-1.0970247E+000	-5.1932011E+001	-2.1685913E+000	1.000000000000000E+000	37	3.7347253E-003	4.6047751E-002	0	-3.035816756088701E-003	-1	-1	-1	0	0	0	0	0	0	-1	-1	-1	0	0	0	0	0	0	1.2069446E+001	-2.5195389E+000	1.2329622E+001	-1.1791359E+001	-2.1685916E+003	1.0388289E+004	1.0612226E+004	-1.0179136E+002	0.0000000E+000	0.0000000E+000	0.0000000E+000	1.0179136E+002	0.0000000E+000	0.0000000E+000	0.0000000E+000	-1.0179136E+002	0.0000000E+000	0.0000000E+000	0.0000000E+000	1.1791359E+001	0.0000000E+000	0.0000000E+000	0.0000000E+000	-1.1791359E+001	4.7903390E+000	7.8208641E+001	-4.021447533085528E-004
1.4702717E+005	8.1071451E-002	-1.1989919E-002	8.1953272E-002	8.4126759E+000	1.102147777678329E+001	-1.4007972E-004	-1.0503845E+000	-9.0283066E+001	-1.9324408E+000	1.000000000000000E+000	37	5.2519361E-003	6.4084522E-002	0	-3.337604204954373E-003	-1	-1	-1	0	0	0	0	0	0	-1	-1	-1	0	0	0	0	0	0	1.2070781E+001	-1.7851866E+000	1.2202075E+001	-8.4126759E+000	-1.9324401E+003	1.3066458E+004	1.3208582E+004	-9.8412674E+001	0.0000000E+000	0.0000000E+000	0.0000000E+000	9.8412674E+001	0.0000000E+000	0.0000000E+000	0.0000000E+000	-9.8412674E+001	0.0000000E+000	0.0000000E+000	0.0000000E+000	8.4126759E+000	0.0000000E+000	0.0000000E+000	0.0000000E+000	-8.4126759E+000	6.7616348E+000	8.1587326E+001	-3.017874488656720E-004
1.1690915E+005	8.2239993E-002	-7.9179630E-003	8.2620278E-002	5.4994154E+000	1.216848271127674E+001	-1.4733097E-004	-1.0792135E+000	-1.7193259E+002	-1.5791079E+000	1.000000000000000E+000	37	5.2524242E-003	6.3573062E-002	0	-3.536579908822974E-003	-1	-1	-1	0	0	0	0	0	0	-1	-1	-1	0	0	0	0	0	0	1.2047855E+001	-1.1599525E+000	1.2103566E+001	-5.4994154E+000	-1.5791072E+003	1.6401418E+004	1.6477260E+004	-9.5499413E+001	0.0000000E+000	0.0000000E+000	0.0000000E+000	9.5499413E+001	0.0000000E+000	0.0000000E+000	0.0000000E+000	-9.5499413E+001	0.0000000E+000	0.0000000E+000	0.0000000E+000	5.4994154E+000	0.0000000E+000	0.0000000E+000	0.0000000E+000	-5.4994154E+000	1.0386509E+001	8.4500587E+001	-1.989757038686011E-004
9.2961328E+004	8.3382078E-002	-4.8238845E-003	8.3521500E-002	3.3110292E+000	1.331647561912541E+001	-1.4302495E-004	-1.0528227E+000	-3.5491217E+002	-1.1839085E+000	1.000000000000000E+000	37	5.2427077E-003	6.2770754E-002	0	-3.821429071105809E-003	3.2508951E-001	1.4929591E-001	6.3059750E+000	7.8243556E-006	6.8464492E-006	7.5714779E-006	6.6200605E-006	3.2421756E-006	7.0508736E-006	9.2158780E-002	2.0594712E-002	3.4335163E-001	9.6919521E-006	5.6323832E-005	4.0581663E-006	1.8767254E-006	3.9328479E-006	5.2470209E-006	1.1952979E+001	-6.9151300E-001	1.1972965E+001	-3.3110292E+000	-1.1839080E+003	2.0464162E+004	2.0498379E+004	-9.3311028E+001	0.0000000E+000	0.0000000E+000	0.0000000E+000	9.3311028E+001	0.0000000E+000	0.0000000E+000	0.0000000E+000	-9.3311028E+001	0.0000000E+000	0.0000000E+000	0.0000000E+000	3.3110292E+000	0.0000000E+000	0.0000000E+000	0.0000000E+000	-3.3110292E+000	1.7285255E+001	8.6688972E+001	-2.848491622828358E-004
7.3921836E+004	8.4279276E-002	-2.1187821E-003	8.4305905E-002	1.4401134E+000	1.446447986035491E+001	-1.4953056E-004	-1.0332437E+000	-1.0161577E+003	-6.4182657E-001	1.000000000000000E+000	37	5.2202996E-003	6.1920922E-002	0	-4.268526867064026E-003	3.8001889E-001	1.5183794E-001	6.2438164E+000	9.4929483E-006	1.0390676E-005	4.2005586E-006	9.3774779E-006	4.5667366E-006	6.3214270E-006	1.0160765E-001	2.0392420E-002	3.4543905E-001	7.9874471E-006	6.1960913E-005	2.1875580E-006	3.8684952E-006	4.3482714E-006	3.1878235E-006	1.1857819E+001	-2.9810575E-001	1.1861566E+001	-1.4401134E+000	-6.4182813E+002	2.5530080E+004	2.5538146E+004	-9.1440117E+001	0.0000000E+000	0.0000000E+000	0.0000000E+000	9.1440117E+001	0.0000000E+000	0.0000000E+000	0.0000000E+000	-9.1440117E+001	0.0000000E+000	0.0000000E+000	0.0000000E+000	1.4401134E+000	0.0000000E+000	0.0000000E+000	0.0000000E+000	-1.4401134E+000	3.9777225E+001	8.8559883E+001	-4.470977959582169E-004
5.8779320E+004	8.5227109E-002	2.8328373E-004	8.5227579E-002	-1.9044296E-001	1.561248050149879E+001	-1.4667853E-004	-1.0664091E+000	9.5581514E+003	1.0559829E-001	1.000000000000000E+000	37	5.2180891E-003	6.1225358E-002	0	-4.576744940641853E-003	3.3228803E-001	1.3370319E-001	6.1407256E+000	5.4389238E-006	9.0341482E-006	6.6670723E-006	6.9980579E-006	4.0633604E-006	5.9217959E-006	1.1219762E-001	1.9105678E-002	3.5308135E-001	7.7054110E-006	6.7693400E-005	3.2192172E-006	1.6612750E-006	4.9267437E-006	5.4206944E-006	1.1733227E+001	3.8999710E-002	1.1733292E+001	1.9044296E-001	1.0559940E+002	3.1769693E+004	3.1769869E+004	-8.9809555E+001	0.0000000E+000	0.0000000E+000	0.0000000E+000	8.9809555E+001	0.0000000E+000	0.0000000E+000	0.0000000E+000	-8.9809555E+001	0.0000000E+000	0.0000000E+000	0.0000000E+000	-1.9044296E-001	0.0000000E+000	0.0000000E+000	0.0000000E+000	1.9044296E-001	3.0085422E+002	8.9809555E+001	-3.082180735778269E-004
4.6735824E+004	8.6289942E-002	2.4831840E-003	8.6325668E-002	-1.6483579E+000	1.676048218269716E+001	-1.4522456E-004	-1.0260971E+000	1.3713911E+003	1.1347475E+000	1.000000000000000E+000	37	5.1938919E-003	6.0166251E-002	0	-4.785239089286576E-003	2.8265965E-001	1.7991965E-001	6.3400321E+000	6.9177422E-006	5.3498243E-006	6.9799044E-006	4.8258444E-006	4.1182466E-006	5.2174014E-006	1.2461179E-001	1.3206085E-002	3.5602808E-001	4.3104219E-006	7.4311130E-005	3.6563388E-006	6.4107408E-006	3.3185222E-006	2.4280055E-006	1.1579247E+001	3.3321843E-001	1.1584040E+001	1.6483579E+000	1.1347498E+003	3.9432152E+004	3.9448477E+004	-8.8351639E+001	0.0000000E+000	0.0000000E+000	0.0000000E+000	8.8351639E+001	0.0000000E+000	0.0000000E+000	0.0000000E+000	-8.8351639E+001	0.0000000E+000	0.0000000E+000	0.0000000E+000	-1.6483579E+000	0.0000000E+000	0.0000000E+000	0.0000000E+000	1.6483579E+000	3.4749718E+001	8.8351639E+001	-2.084941486447224E-004
3.7160402E+004	8.7461181E-002	4.5195776E-003	8.7577879E-002	-2.9581420E+000	1.790848391727195E+001	-1.5370609E-004	-1.0670047E+000	9.4763672E+002	2.5237639E+000	1.000000000000000E+000	37	5.1886905E-003	5.9246588E-002	0	-5.038140109259221E-003	3.8617077E-001	2.0059547E-001	6.3159270E+000	6.5730637E-006	8.6711116E-006	8.6739201E-006	1.0414617E-005	7.3508254E-006	3.6395943E-006	1.2945528E-001	4.4660419E-002	3.6524868E-001	6.0954335E-006	7.5760618E-005	1.7388228E-006	8.2758052E-006	3.2684966E-006	3.7247949E-006	1.1403193E+001	5.8926278E-001	1.1418408E+001	2.9581420E+000	2.5237666E+003	4.8838941E+004	4.8904105E+004	-8.7041855E+001	0.0000000E+000	0.0000000E+000	0.0000000E+000	8.7041855E+001	0.0000000E+000	0.0000000E+000	0.0000000E+000	-8.7041855E+001	0.0000000E+000	0.0000000E+000	0.0000000E+000	-2.9581420E+000	0.0000000E+000	0.0000000E+000	0.0000000E+000	2.9581420E+000	1.9351627E+001	8.7041855E+001	-2.529010199726458E-004
2.9552035E+004	8.8837944E-002	6.3815811E-003	8.9066856E-002	-4.1087251E+000	1.905649351843749E+001	-1.4276399E-004	-1.0893382E+000	8.4392615E+002	4.3324027E+000	1.000000000000000E+000	37	5.1890183E-003	5.8259815E-002	0	-5.370260376013402E-003	3.1627464E-001	1.5975255E-001	6.2666969E+000	6.9458360E-006	6.3026450E-006	5.9615882E-006	5.3829790E-006	7.9390411E-006	5.4197603E-006	1.3579449E-001	2.0495109E-002	3.7056345E-001	9.6925496E-006	7.7427110E-005	2.3094772E-006	1.0930864E-005	2.9839796E-006	4.9239952E-006	1.1198665E+001	8.0444443E-001	1.1227521E+001	4.1087251E+000	4.3324038E+003	6.0311340E+004	6.0466746E+004	-8.5891273E+001	0.0000000E+000	0.0000000E+000	0.0000000E+000	8.5891273E+001	0.0000000E+000	0.0000000E+000	0.0000000E+000	-8.5891273E+001	0.0000000E+000	0.0000000E+000	0.0000000E+000	-4.1087251E+000	0.0000000E+000	0.0000000E+000	0.0000000E+000	4.1087251E+000	1.3920993E+001	8.5891273E+001	-3.321202667541804E-004
2.3502447E+004	9.0459868E-002	7.9521770E-003	9.0808727E-002	-5.0238619E+000	2.020448085296084E+001	-1.5303503E-004	-1.1059022E+000	8.5157123E+002	6.5303717E+000	1.000000000000000E+000	37	5.1944461E-003	5.7202056E-002	0	-5.590763068736970E-003	3.1207243E-001	1.4343412E-001	6.2598929E+000	9.2883674E-006	5.3214517E-006	5.1195880E-006	7.4632881E-006	5.3527069E-006	3.4147852E-006	1.2880950E-001	4.3414224E-002	3.7377316E-001	5.6855697E-006	7.2251147E-005	4.6175996E-006	1.1170106E-005	2.0759217E-006	3.3553588E-006	1.0969852E+001	9.6434146E-001	1.1012157E+001	5.0238619E+000	6.5303745E+003	7.4286141E+004	7.4572625E+004	-8.4976135E+001	0.0000000E+000	0.0000000E+000	0.0000000E+000	8.4976135E+001	0.0000000E+000	0.0000000E+000	0.0000000E+000	-8.4976135E+001	0.0000000E+000	0.0000000E+000	0.0000000E+000	-5.0238619E+000	0.0000000E+000	0.0000000E+000	0.0000000E+000	5.0238619E+000	1.1375484E+001	8.4976135E+001	-2.205026927235686E-004
1.8686906E+004	9.2127278E-002	9.1985473E-003	9.2585362E-002	-5.7018609E+000	2.135247805414838E+001	-1.5665132E-004	-1.1396445E+000	9.2589874E+002	9.1393919E+000	1.000000000000000E+000	37	5.1823147E-003	5.5973370E-002	0	-5.904256679802241E-003	3.2841760E-001	1.5897278E-001	6.3105297E+000	3.8837179E-006	7.3882366E-006	5.1386473E-006	5.9427948E-006	6.4088504E-006	8.9430141E-006	1.2634785E-001	1.6425187E-002	3.8693434E-001	6.0408329E-006	6.9418922E-005	5.0665226E-006	7.7996556E-006	5.8140158E-006	4.0452892E-006	1.0747404E+001	1.0730861E+000	1.0800843E+001	5.7018609E+000	9.1393877E+003	9.1534813E+004	9.1989945E+004	-8.4298141E+001	0.0000000E+000	0.0000000E+000	0.0000000E+000	8.4298141E+001	0.0000000E+000	0.0000000E+000	0.0000000E+000	-8.4298141E+001	0.0000000E+000	0.0000000E+000	0.0000000E+000	-5.7018609E+000	0.0000000E+000	0.0000000E+000	0.0000000E+000	5.7018609E+000	1.0015416E+001	8.4298141E+001	-3.134936110652702E-004
1.4854886E+004	9.4105907E-002	1.0511188E-002	9.4691113E-002	-6.3732529E+000	2.250048749535927E+001	-1.5995072E-004	-1.1337075E+000	1.0192930E+003	1.2559842E+001	1.000000000000000E+000	37	5.1779253E-003	5.4682273E-002	0	-6.298340826521304E-003	3.2484981E-001	1.6165364E-001	6.2004495E+000	4.8438469E-006	6.8682261E-006	7.6763945E-006	4.3318305E-006	6.0575762E-006	8.8432962E-006	1.1844623E-001	2.3581067E-002	3.9719164E-001	5.9355048E-006	6.3219231E-005	5.5399341E-006	8.1556391E-006	4.5860133E-006	4.2220317E-006	1.0495386E+001	1.1722853E+000	1.0560653E+001	6.3732529E+000	1.2559841E+004	1.1244735E+005	1.1314662E+005	-8.3626747E+001	0.0000000E+000	0.0000000E+000	0.0000000E+000	8.3626747E+001	0.0000000E+000	0.0000000E+000	0.0000000E+000	-8.3626747E+001	0.0000000E+000	0.0000000E+000	0.0000000E+000	-6.3732529E+000	0.0000000E+000	0.0000000E+000	0.0000000E+000	6.3732529E+000	8.9529276E+000	8.3626747E+001	-3.940841467190634E-004
1.1811532E+004	9.6215703E-002	1.1507324E-002	9.6901394E-002	-6.8201356E+000	2.364849370988668E+001	-1.5706141E-004	-1.1332422E+000	1.1709532E+003	1.6513083E+001	1.000000000000000E+000	37	5.1678554E-003	5.3331073E-002	0	-6.606896030722794E-003	2.8059277E-001	1.4572985E-001	6.3255782E+000	5.3311683E-006	5.9993340E-006	5.8779656E-006	5.9610261E-006	5.8739483E-006	5.2319424E-006	1.0095779E-001	4.8233315E-002	4.0658763E-001	8.6151940E-006	5.2275675E-005	4.0773693E-006	5.2629443E-006	4.5481884E-006	2.1523035E-006	1.0246744E+001	1.2255027E+000	1.0319769E+001	6.8201356E+000	1.6513088E+004	1.3807016E+005	1.3905413E+005	-8.3179863E+001	0.0000000E+000	0.0000000E+000	0.0000000E+000	8.3179863E+001	0.0000000E+000	0.0000000E+000	0.0000000E+000	-8.3179863E+001	0.0000000E+000	0.0000000E+000	0.0000000E+000	-6.8201356E+000	0.0000000E+000	0.0000000E+000	0.0000000E+000	6.8201356E+000	8.3612576E+000	8.3179863E+001	-3.085552042014902E-004
