EC-Lab ASCII FILE
Nb header lines : 3                           
freq/Hz	Re(Z)/Ohm	-Im(Z)/Ohm	|Z|/Ohm	Phase(Z)/deg	Re(Y)/Ohm-1	Im(Y)/Ohm-1	|Y|/Ohm-1	Phase(Y)/deg	Re(C)/nF	Im(C)/nF	|C|/nF	Phase(C)/deg	Re(M)	Im(M)	|M|	Phase(M)/deg	Re(Permittivity)	Im(Permittivity)	|Permittivity|	Phase(Permittivity)/deg	Re(Resistivity)/Ohm.cm	Im(Resistivity)/Ohm.cm	|Resistivity|/Ohm.cm	Phase(Resistivity)/deg	Re(Conductivity)/mS/cm	Im(Conductivity)/mS/cm	|Conductivity|/mS/cm	Phase(Conductivity)/deg	Tan(Delta)	Loss Angle(Delta)/deg	
1.0000000E+006	1.0000532E-001	5.3192302E-006	1.0000532E-001	-3.0475324E-003	9.9994678E+000	5.3186645E-004	9.9994678E+000	3.0475324E-003	8.4554628E-002	1.5914648E+003	1.5914648E+003	-8.9996956E+001	0.0000000E+000	0.0000000E+000	0.0000000E+000	8.9996956E+001	0.0000000E+000	0.0000000E+000	0.0000000E+000	-8.9996956E+001	0.0000000E+000	0.0000000E+000	0.0000000E+000	-3.0475324E-003	0.0000000E+000	0.0000000E+000	0.0000000E+000	3.0475324E-003	1.8800713E+004	8.9996956E+001
7.9432825E+005	1.0000597E-001	5.9682748E-006	1.0000597E-001	-3.4193655E-003	9.9994030E+000	5.9675623E-004	9.9994030E+000	3.4193655E-003	1.1951975E-001	2.0035225E+003	2.0035225E+003	-8.9996582E+001	0.0000000E+000	0.0000000E+000	0.0000000E+000	8.9996582E+001	0.0000000E+000	0.0000000E+000	0.0000000E+000	-8.9996582E+001	0.0000000E+000	0.0000000E+000	0.0000000E+000	-3.4193655E-003	0.0000000E+000	0.0000000E+000	0.0000000E+000	3.4193655E-003	1.6756262E+004	8.9996582E+001
6.3095738E+005	1.0000670E-001	6.6965140E-006	1.0000670E-001	-3.8365631E-003	9.9993305E+000	6.6956173E-004	9.9993305E+000	3.8365631E-003	1.6893764E-001	2.5222666E+003	2.5222666E+003	-8.9996162E+001	0.0000000E+000	0.0000000E+000	0.0000000E+000	8.9996162E+001	0.0000000E+000	0.0000000E+000	0.0000000E+000	-8.9996162E+001	0.0000000E+000	0.0000000E+000	0.0000000E+000	-3.8365631E-003	0.0000000E+000	0.0000000E+000	0.0000000E+000	3.8365631E-003	1.4934144E+004	8.9996162E+001
5.0118722E+005	1.0000751E-001	7.5136127E-006	1.0000751E-001	-4.3046596E-003	9.9992485E+000	7.5124839E-004	9.9992485E+000	4.3046596E-003	2.3847018E-001	3.1753203E+003	3.1753203E+003	-8.9995697E+001	0.0000000E+000	0.0000000E+000	0.0000000E+000	8.9995697E+001	0.0000000E+000	0.0000000E+000	0.0000000E+000	-8.9995697E+001	0.0000000E+000	0.0000000E+000	0.0000000E+000	-4.3046596E-003	0.0000000E+000	0.0000000E+000	0.0000000E+000	4.3046596E-003	1.3310177E+004	8.9995697E+001
3.9810716E+005	1.0000843E-001	8.4304120E-006	1.0000843E-001	-4.8298631E-003	9.9991570E+000	8.4289908E-004	9.9991570E+000	4.8298631E-003	3.3694166E-001	3.9974548E+003	3.9974548E+003	-8.9995171E+001	0.0000000E+000	0.0000000E+000	0.0000000E+000	8.9995171E+001	0.0000000E+000	0.0000000E+000	0.0000000E+000	-8.9995171E+001	0.0000000E+000	0.0000000E+000	0.0000000E+000	-4.8298631E-003	0.0000000E+000	0.0000000E+000	0.0000000E+000	4.8298631E-003	1.1862816E+004	8.9995171E+001
3.1622778E+005	1.0000946E-001	9.4590778E-006	1.0000946E-001	-5.4191398E-003	9.9990549E+000	9.4572891E-004	9.9990549E+000	5.4191398E-003	4.7577855E-001	5.0324453E+003	5.0324453E+003	-8.9994583E+001	0.0000000E+000	0.0000000E+000	0.0000000E+000	8.9994583E+001	0.0000000E+000	0.0000000E+000	0.0000000E+000	-8.9994583E+001	0.0000000E+000	0.0000000E+000	0.0000000E+000	-5.4191398E-003	0.0000000E+000	0.0000000E+000	0.0000000E+000	5.4191398E-003	1.0572854E+004	8.9994583E+001
2.5118864E+005	1.0001061E-001	1.0613260E-005	1.0001061E-001	-6.0803047E-003	9.9989386E+000	1.0611007E-003	9.9989386E+000	6.0803047E-003	6.7235684E-001	6.3354004E+003	6.3354004E+003	-8.9993919E+001	0.0000000E+000	0.0000000E+000	0.0000000E+000	8.9993919E+001	0.0000000E+000	0.0000000E+000	0.0000000E+000	-8.9993919E+001	0.0000000E+000	0.0000000E+000	0.0000000E+000	-6.0803047E-003	0.0000000E+000	0.0000000E+000	0.0000000E+000	6.0803047E-003	9.4231748E+003	8.9993919E+001
1.9952623E+005	1.0001191E-001	1.1908273E-005	1.0001191E-001	-6.8221255E-003	9.9988098E+000	1.1905438E-003	9.9988098E+000	6.8221255E-003	9.4945282E-001	7.9756929E+003	7.9756929E+003	-8.9993179E+001	0.0000000E+000	0.0000000E+000	0.0000000E+000	8.9993179E+001	0.0000000E+000	0.0000000E+000	0.0000000E+000	-8.9993179E+001	0.0000000E+000	0.0000000E+000	0.0000000E+000	-6.8221255E-003	0.0000000E+000	0.0000000E+000	0.0000000E+000	6.8221255E-003	8.3985234E+003	8.9993179E+001
1.5848931E+005	1.0001336E-001	1.3361303E-005	1.0001336E-001	-7.6544401E-003	9.9986639E+000	1.3357733E-003	9.9986639E+000	7.6544401E-003	1.3410053E+000	1.0040657E+004	1.0040657E+004	-8.9992348E+001	0.0000000E+000	0.0000000E+000	0.0000000E+000	8.9992348E+001	0.0000000E+000	0.0000000E+000	0.0000000E+000	-8.9992348E+001	0.0000000E+000	0.0000000E+000	0.0000000E+000	-7.6544401E-003	0.0000000E+000	0.0000000E+000	0.0000000E+000	7.6544401E-003	7.4852998E+003	8.9992348E+001
1.2589254E+005	1.0001499E-001	1.4991629E-005	1.0001499E-001	-8.5882824E-003	9.9985008E+000	1.4987133E-003	9.9985008E+000	8.5882824E-003	1.8952254E+000	1.2640231E+004	1.2640231E+004	-8.9991409E+001	0.0000000E+000	0.0000000E+000	0.0000000E+000	8.9991409E+001	0.0000000E+000	0.0000000E+000	0.0000000E+000	-8.9991409E+001	0.0000000E+000	0.0000000E+000	0.0000000E+000	-8.5882824E-003	0.0000000E+000	0.0000000E+000	0.0000000E+000	8.5882824E-003	6.6713892E+003	8.9991409E+001
1.0000000E+005	1.0001682E-001	1.6820883E-005	1.0001682E-001	-9.6360352E-003	9.9983177E+000	1.6815225E-003	9.9983177E+000	9.6360352E-003	2.6761954E+000	1.5912815E+004	1.5912815E+004	-8.9990364E+001	0.0000000E+000	0.0000000E+000	0.0000000E+000	8.9990364E+001	0.0000000E+000	0.0000000E+000	0.0000000E+000	-8.9990364E+001	0.0000000E+000	0.0000000E+000	0.0000000E+000	-9.6360352E-003	0.0000000E+000	0.0000000E+000	0.0000000E+000	9.6360352E-003	5.9459912E+003	8.9990364E+001
7.9432820E+004	1.0001887E-001	1.8873343E-005	1.0001887E-001	-1.0811588E-002	9.9981127E+000	1.8866219E-003	9.9981127E+000	1.0811588E-002	3.7798581E+000	2.0032641E+004	2.0032641E+004	-8.9989189E+001	0.0000000E+000	0.0000000E+000	0.0000000E+000	8.9989189E+001	0.0000000E+000	0.0000000E+000	0.0000000E+000	-8.9989189E+001	0.0000000E+000	0.0000000E+000	0.0000000E+000	-1.0811588E-002	0.0000000E+000	0.0000000E+000	0.0000000E+000	1.0811588E-002	5.2994785E+003	8.9989189E+001
6.3095734E+004	1.0002118E-001	2.1176238E-005	1.0002118E-001	-1.2130521E-002	9.9978828E+000	2.1167272E-003	9.9978828E+000	1.2130521E-002	5.3394032E+000	2.5219018E+004	2.5219018E+004	-8.9987869E+001	0.0000000E+000	0.0000000E+000	0.0000000E+000	8.9987869E+001	0.0000000E+000	0.0000000E+000	0.0000000E+000	-8.9987869E+001	0.0000000E+000	0.0000000E+000	0.0000000E+000	-1.2130521E-002	0.0000000E+000	0.0000000E+000	0.0000000E+000	1.2130521E-002	4.7232739E+003	8.9987869E+001
5.0118723E+004	1.0002376E-001	2.3760129E-005	1.0002376E-001	-1.3610317E-002	9.9976244E+000	2.3748842E-003	9.9976244E+000	1.3610317E-002	7.5418739E+000	3.1748045E+004	3.1748045E+004	-8.9986389E+001	0.0000000E+000	0.0000000E+000	0.0000000E+000	8.9986389E+001	0.0000000E+000	0.0000000E+000	0.0000000E+000	-8.9986389E+001	0.0000000E+000	0.0000000E+000	0.0000000E+000	-1.3610317E-002	0.0000000E+000	0.0000000E+000	0.0000000E+000	1.3610317E-002	4.2097314E+003	8.9986389E+001
3.9810719E+004	1.0002666E-001	2.6659303E-005	1.0002666E-001	-1.5270584E-002	9.9973345E+000	2.6645092E-003	9.9973345E+000	1.5270584E-002	1.0654569E+001	3.9967258E+004	3.9967258E+004	-8.9984726E+001	0.0000000E+000	0.0000000E+000	0.0000000E+000	8.9984726E+001	0.0000000E+000	0.0000000E+000	0.0000000E+000	-8.9984726E+001	0.0000000E+000	0.0000000E+000	0.0000000E+000	-1.5270584E-002	0.0000000E+000	0.0000000E+000	0.0000000E+000	1.5270584E-002	3.7520359E+003	8.9984726E+001
3.1622777E+004	1.0002992E-001	2.9912231E-005	1.0002992E-001	-1.7133320E-002	9.9970093E+000	2.9894339E-003	9.9970093E+000	1.7133320E-002	1.5047606E+001	5.0314156E+004	5.0314160E+004	-8.9982864E+001	0.0000000E+000	0.0000000E+000	0.0000000E+000	8.9982864E+001	0.0000000E+000	0.0000000E+000	0.0000000E+000	-8.9982864E+001	0.0000000E+000	0.0000000E+000	0.0000000E+000	-1.7133320E-002	0.0000000E+000	0.0000000E+000	0.0000000E+000	1.7133320E-002	3.3441143E+003	8.9982864E+001
2.5118865E+004	1.0003356E-001	3.3562075E-005	1.0003357E-001	-1.9223200E-002	9.9966431E+000	3.3539552E-003	9.9966440E+000	1.9223200E-002	2.1254082E+001	6.3339457E+004	6.3339461E+004	-8.9980774E+001	0.0000000E+000	0.0000000E+000	0.0000000E+000	8.9980774E+001	0.0000000E+000	0.0000000E+000	0.0000000E+000	-8.9980774E+001	0.0000000E+000	0.0000000E+000	0.0000000E+000	-1.9223200E-002	0.0000000E+000	0.0000000E+000	0.0000000E+000	1.9223200E-002	2.9805535E+003	8.9980774E+001
1.9952623E+004	1.0003766E-001	3.7657268E-005	1.0003766E-001	-2.1567902E-002	9.9962339E+000	3.7628915E-003	9.9962349E+000	2.1567902E-002	3.0015795E+001	7.9736391E+004	7.9736398E+004	-8.9978432E+001	0.0000000E+000	0.0000000E+000	0.0000000E+000	8.9978432E+001	0.0000000E+000	0.0000000E+000	0.0000000E+000	-8.9978432E+001	0.0000000E+000	0.0000000E+000	0.0000000E+000	-2.1567902E-002	0.0000000E+000	0.0000000E+000	0.0000000E+000	2.1567902E-002	2.6565298E+003	8.9978432E+001
1.5848932E+004	1.0004225E-001	4.2252148E-005	1.0004226E-001	-2.4198472E-002	9.9957743E+000	4.2216456E-003	9.9957752E+000	2.4198472E-002	4.2397209E+001	1.0037755E+005	1.0037756E+005	-8.9975800E+001	0.0000000E+000	0.0000000E+000	0.0000000E+000	8.9975800E+001	0.0000000E+000	0.0000000E+000	0.0000000E+000	-8.9975800E+001	0.0000000E+000	0.0000000E+000	0.0000000E+000	-2.4198472E-002	0.0000000E+000	0.0000000E+000	0.0000000E+000	2.4198472E-002	2.3677437E+003	8.9975800E+001
1.2589254E+004	1.0004741E-001	4.7407691E-005	1.0004742E-001	-2.7149733E-002	9.9952593E+000	4.7362763E-003	9.9952602E+000	2.7149733E-002	5.9883846E+001	1.2636134E+005	1.2636135E+005	-8.9972847E+001	0.0000000E+000	0.0000000E+000	0.0000000E+000	8.9972847E+001	0.0000000E+000	0.0000000E+000	0.0000000E+000	-8.9972847E+001	0.0000000E+000	0.0000000E+000	0.0000000E+000	-2.7149733E-002	0.0000000E+000	0.0000000E+000	0.0000000E+000	2.7149733E-002	2.1103623E+003	8.9972847E+001
1.0000000E+004	1.0005319E-001	5.3192303E-005	1.0005321E-001	-3.0460740E-002	9.9946814E+000	5.3135748E-003	9.9946823E+000	3.0460740E-002	8.4577690E+001	1.5907028E+005	1.5907030E+005	-8.9969536E+001	0.0000000E+000	0.0000000E+000	0.0000000E+000	8.9969536E+001	0.0000000E+000	0.0000000E+000	0.0000000E+000	-8.9969536E+001	0.0000000E+000	0.0000000E+000	0.0000000E+000	-3.0460740E-002	0.0000000E+000	0.0000000E+000	0.0000000E+000	3.0460740E-002	1.8809712E+003	8.9969536E+001
7.9432822E+003	1.0005968E-001	5.9682749E-005	1.0005970E-001	-3.4175295E-002	9.9940310E+000	5.9611546E-003	9.9940329E+000	3.4175295E-002	1.1942889E+002	2.0024463E+005	2.0024466E+005	-8.9965828E+001	0.0000000E+000	0.0000000E+000	0.0000000E+000	8.9965828E+001	0.0000000E+000	0.0000000E+000	0.0000000E+000	-8.9965828E+001	0.0000000E+000	0.0000000E+000	0.0000000E+000	-3.4175295E-002	0.0000000E+000	0.0000000E+000	0.0000000E+000	3.4175295E-002	1.6765260E+003	8.9965828E+001
6.3095732E+003	1.0006697E-001	6.6965142E-005	1.0006699E-001	-3.8342521E-002	9.9933033E+000	6.6875517E-003	9.9933052E+000	3.8342521E-002	1.6870160E+002	2.5207467E+005	2.5207473E+005	-8.9961655E+001	0.0000000E+000	0.0000000E+000	0.0000000E+000	8.9961655E+001	0.0000000E+000	0.0000000E+000	0.0000000E+000	-8.9961655E+001	0.0000000E+000	0.0000000E+000	0.0000000E+000	-3.8342521E-002	0.0000000E+000	0.0000000E+000	0.0000000E+000	3.8342521E-002	1.4943143E+003	8.9961655E+001
5.0118726E+003	1.0007513E-001	7.5136122E-005	1.0007516E-001	-4.3017499E-002	9.9924870E+000	7.5023305E-003	9.9924898E+000	4.3017499E-002	2.3822440E+002	3.1731722E+005	3.1731731E+005	-8.9956985E+001	0.0000000E+000	0.0000000E+000	0.0000000E+000	8.9956985E+001	0.0000000E+000	0.0000000E+000	0.0000000E+000	-8.9956985E+001	0.0000000E+000	0.0000000E+000	0.0000000E+000	-4.3017499E-002	0.0000000E+000	0.0000000E+000	0.0000000E+000	4.3017499E-002	1.3319177E+003	8.9956985E+001
3.9810718E+003	1.0008430E-001	8.4304120E-005	1.0008434E-001	-4.8262004E-002	9.9915695E+000	8.4162094E-003	9.9915733E+000	4.8262004E-002	3.3647324E+002	3.9944206E+005	3.9944222E+005	-8.9951736E+001	0.0000000E+000	0.0000000E+000	0.0000000E+000	8.9951736E+001	0.0000000E+000	0.0000000E+000	0.0000000E+000	-8.9951736E+001	0.0000000E+000	0.0000000E+000	0.0000000E+000	-4.8262004E-002	0.0000000E+000	0.0000000E+000	0.0000000E+000	4.8262004E-002	1.1871816E+003	8.9951736E+001
3.1622776E+003	1.0009459E-001	9.4590781E-005	1.0009464E-001	-5.4145291E-002	9.9905405E+000	9.4411997E-003	9.9905453E+000	5.4145291E-002	4.7517273E+002	5.0281606E+005	5.0281628E+005	-8.9945854E+001	0.0000000E+000	0.0000000E+000	0.0000000E+000	8.9945854E+001	0.0000000E+000	0.0000000E+000	0.0000000E+000	-8.9945854E+001	0.0000000E+000	0.0000000E+000	0.0000000E+000	-5.4145291E-002	0.0000000E+000	0.0000000E+000	0.0000000E+000	5.4145291E-002	1.0581855E+003	8.9945854E+001
2.5118865E+003	1.0010614E-001	1.0613260E-004	1.0010619E-001	-6.0745008E-002	9.9893866E+000	1.0590755E-002	9.9893923E+000	6.0745008E-002	6.7104053E+002	6.3293475E+005	6.3293513E+005	-8.9939255E+001	0.0000000E+000	0.0000000E+000	0.0000000E+000	8.9939255E+001	0.0000000E+000	0.0000000E+000	0.0000000E+000	-8.9939255E+001	0.0000000E+000	0.0000000E+000	0.0000000E+000	-6.0745008E-002	0.0000000E+000	0.0000000E+000	0.0000000E+000	6.0745008E-002	9.4321759E+002	8.9939255E+001
1.9952623E+003	1.0011908E-001	1.1908273E-004	1.0011915E-001	-6.8148196E-002	9.9880924E+000	1.1879946E-002	9.9880991E+000	6.8148196E-002	9.4758691E+002	7.9671444E+005	7.9671500E+005	-8.9931854E+001	0.0000000E+000	0.0000000E+000	0.0000000E+000	8.9931854E+001	0.0000000E+000	0.0000000E+000	0.0000000E+000	-8.9931854E+001	0.0000000E+000	0.0000000E+000	0.0000000E+000	-6.8148196E-002	0.0000000E+000	0.0000000E+000	0.0000000E+000	6.8148196E-002	8.4075232E+002	8.9931854E+001
1.5848932E+003	1.0013361E-001	1.3361302E-004	1.0013370E-001	-7.6452427E-002	9.9866390E+000	1.3325645E-002	9.9866476E+000	7.6452427E-002	1.3381914E+003	1.0028581E+006	1.0028590E+006	-8.9923546E+001	0.0000000E+000	0.0000000E+000	0.0000000E+000	8.9923546E+001	0.0000000E+000	0.0000000E+000	0.0000000E+000	-8.9923546E+001	0.0000000E+000	0.0000000E+000	0.0000000E+000	-7.6452427E-002	0.0000000E+000	0.0000000E+000	0.0000000E+000	7.6452427E-002	7.4943005E+002	8.9923546E+001
1.2589254E+003	1.0014991E-001	1.4991628E-004	1.0015003E-001	-8.5767061E-002	9.9850082E+000	1.4946746E-002	9.9850197E+000	8.5767061E-002	1.8896436E+003	1.2623174E+006	1.2623188E+006	-8.9914230E+001	0.0000000E+000	0.0000000E+000	0.0000000E+000	8.9914230E+001	0.0000000E+000	0.0000000E+000	0.0000000E+000	-8.9914230E+001	0.0000000E+000	0.0000000E+000	0.0000000E+000	-8.5767061E-002	0.0000000E+000	0.0000000E+000	0.0000000E+000	8.5767061E-002	6.6803900E+002	8.9914230E+001
1.0000000E+003	1.0016821E-001	1.6820883E-004	1.0016835E-001	-9.6214630E-002	9.9831791E+000	1.6764389E-002	9.9831934E+000	9.6214630E-002	2.6681265E+003	1.5888724E+006	1.5888746E+006	-8.9903786E+001	0.0000000E+000	0.0000000E+000	0.0000000E+000	8.9903786E+001	0.0000000E+000	0.0000000E+000	0.0000000E+000	-8.9903786E+001	0.0000000E+000	0.0000000E+000	0.0000000E+000	-9.6214630E-002	0.0000000E+000	0.0000000E+000	0.0000000E+000	9.6214630E-002	5.9549908E+002	8.9903786E+001
7.9432825E+002	1.0018873E-001	1.8873342E-004	1.0018891E-001	-1.0793245E-001	9.9811268E+000	1.8802237E-002	9.9811449E+000	1.0793245E-001	3.7673159E+003	1.9998606E+006	1.9998641E+006	-8.9892067E+001	0.0000000E+000	0.0000000E+000	0.0000000E+000	8.9892067E+001	0.0000000E+000	0.0000000E+000	0.0000000E+000	-8.9892067E+001	0.0000000E+000	0.0000000E+000	0.0000000E+000	-1.0793245E-001	0.0000000E+000	0.0000000E+000	0.0000000E+000	1.0793245E-001	5.3084784E+002	8.9892067E+001
6.3095734E+002	1.0021176E-001	2.1176238E-004	1.0021199E-001	-1.2107433E-001	9.9788246E+000	2.1086741E-002	9.9788465E+000	1.2107433E-001	5.3188428E+003	2.5170945E+006	2.5171000E+006	-8.9878929E+001	0.0000000E+000	0.0000000E+000	0.0000000E+000	8.9878929E+001	0.0000000E+000	0.0000000E+000	0.0000000E+000	-8.9878929E+001	0.0000000E+000	0.0000000E+000	0.0000000E+000	-1.2107433E-001	0.0000000E+000	0.0000000E+000	0.0000000E+000	1.2107433E-001	4.7322742E+002	8.9878929E+001
5.0118723E+002	1.0023760E-001	2.3760130E-004	1.0023788E-001	-1.3581257E-001	9.9762402E+000	2.3647487E-002	9.9762678E+000	1.3581257E-001	7.5093042E+003	3.1680135E+006	3.1680225E+006	-8.9864189E+001	0.0000000E+000	0.0000000E+000	0.0000000E+000	8.9864189E+001	0.0000000E+000	0.0000000E+000	0.0000000E+000	-8.9864189E+001	0.0000000E+000	0.0000000E+000	0.0000000E+000	-1.3581257E-001	0.0000000E+000	0.0000000E+000	0.0000000E+000	1.3581257E-001	4.2187311E+002	8.9864189E+001
3.9810718E+002	1.0026659E-001	2.6659304E-004	1.0026695E-001	-1.5234007E-001	9.9733410E+000	2.6517538E-002	9.9733763E+000	1.5234007E-001	1.0601414E+004	3.9871335E+006	3.9871475E+006	-8.9847656E+001	0.0000000E+000	0.0000000E+000	0.0000000E+000	8.9847656E+001	0.0000000E+000	0.0000000E+000	0.0000000E+000	-8.9847656E+001	0.0000000E+000	0.0000000E+000	0.0000000E+000	-1.5234007E-001	0.0000000E+000	0.0000000E+000	0.0000000E+000	1.5234007E-001	3.7610358E+002	8.9847656E+001
3.1622775E+002	1.0029912E-001	2.9912230E-004	1.0029957E-001	-1.7087284E-001	9.9700890E+000	2.9733820E-002	9.9701328E+000	1.7087284E-001	1.4965035E+004	5.0178670E+006	5.0178895E+006	-8.9829124E+001	0.0000000E+000	0.0000000E+000	0.0000000E+000	8.9829124E+001	0.0000000E+000	0.0000000E+000	0.0000000E+000	-8.9829124E+001	0.0000000E+000	0.0000000E+000	0.0000000E+000	-1.7087284E-001	0.0000000E+000	0.0000000E+000	0.0000000E+000	1.7087284E-001	3.3531140E+002	8.9829124E+001
2.5118864E+002	1.0033562E-001	3.3562075E-004	1.0033618E-001	-1.9165258E-001	9.9664392E+000	3.3337548E-002	9.9664946E+000	1.9165258E-001	2.1122672E+004	6.3148080E+006	6.3148435E+006	-8.9808350E+001	0.0000000E+000	0.0000000E+000	0.0000000E+000	8.9808350E+001	0.0000000E+000	0.0000000E+000	0.0000000E+000	-8.9808350E+001	0.0000000E+000	0.0000000E+000	0.0000000E+000	-1.9165258E-001	0.0000000E+000	0.0000000E+000	0.0000000E+000	1.9165258E-001	2.9895535E+002	8.9808350E+001
1.9952623E+002	1.0037658E-001	3.7657269E-004	1.0037728E-001	-2.1494980E-001	9.9623432E+000	3.7374724E-002	9.9624138E+000	2.1494980E-001	2.9812586E+004	7.9466055E+006	7.9466615E+006	-8.9785049E+001	0.0000000E+000	0.0000000E+000	0.0000000E+000	8.9785049E+001	0.0000000E+000	0.0000000E+000	0.0000000E+000	-8.9785049E+001	0.0000000E+000	0.0000000E+000	0.0000000E+000	-2.1494980E-001	0.0000000E+000	0.0000000E+000	0.0000000E+000	2.1494980E-001	2.6655298E+002	8.9785049E+001
1.5848932E+002	1.0042252E-001	4.2252149E-004	1.0042341E-001	-2.4106699E-001	9.9577494E+000	4.1896608E-002	9.9578371E+000	2.4106699E-001	4.2072387E+004	9.9995690E+006	9.9996580E+006	-8.9758934E+001	0.0000000E+000	0.0000000E+000	0.0000000E+000	8.9758934E+001	0.0000000E+000	0.0000000E+000	0.0000000E+000	-8.9758934E+001	0.0000000E+000	0.0000000E+000	0.0000000E+000	-2.4106699E-001	0.0000000E+000	0.0000000E+000	0.0000000E+000	2.4106699E-001	2.3767436E+002	8.9758934E+001
1.2589254E+002	1.0047407E-001	4.7407692E-004	1.0047519E-001	-2.7034241E-001	9.9525948E+000	4.6960324E-002	9.9527054E+000	2.7034241E-001	5.9367305E+004	1.2582197E+007	1.2582337E+007	-8.9729660E+001	0.0000000E+000	0.0000000E+000	0.0000000E+000	8.9729660E+001	0.0000000E+000	0.0000000E+000	0.0000000E+000	-8.9729660E+001	0.0000000E+000	0.0000000E+000	0.0000000E+000	-2.7034241E-001	0.0000000E+000	0.0000000E+000	0.0000000E+000	2.7034241E-001	2.1193623E+002	8.9729660E+001
1.0000000E+002	1.0053192E-001	5.3192303E-004	1.0053333E-001	-3.0315405E-001	9.9468107E+000	5.2629430E-002	9.9469500E+000	3.0315405E-001	8.3762320E+004	1.5830841E+007	1.5831063E+007	-8.9696846E+001	0.0000000E+000	0.0000000E+000	0.0000000E+000	8.9696846E+001	0.0000000E+000	0.0000000E+000	0.0000000E+000	-8.9696846E+001	0.0000000E+000	0.0000000E+000	0.0000000E+000	-3.0315405E-001	0.0000000E+000	0.0000000E+000	0.0000000E+000	3.0315405E-001	1.8899712E+002	8.9696846E+001
