EC-Lab ASCII FILE
Nb header lines : 63                          

Potentio Electrochemical Impedance Spectroscopy

Run on channel : 3 (SN 50730)
User : 
CE vs. WE compliance from -10 V to 10 V
Electrode connection : standard
Potential control : Ewe
Ewe ctrl range : min = -10.00 V, max = 10.00 V
Safety Limits :
	Do not start on E overload
Acquisition started on : 02/14/2023 14:26:00.376
Loaded Setting File :  C:\Users\sto063\Documents\EC-Lab\Data\Baichen\Micormolding\20230214_denseNoPatternS4_IDFF\NoPattern_IDFF_05Fe_2MHCL_ve10cms_EIS_PCGA.mps
Saved on :
	File : NoPattern_IDFF_05Fe_2MHCL_ve2cms_EIS_PCGA_01_PEIS_C03.mpr
	Directory : C:\Users\sto063\Documents\EC-Lab\Data\Baichen\Micormolding\20230214_denseNoPatternS4_IDFF\
	Host : 131.155.90.158
Device : VSP-3e (SN .003050)
Address : USB
EC-Lab for windows v11.43 (software)
Internet server v11.40 (firmware)
Command interpretor v11.40 (firmware)
Electrode material : 
Initial state : 
Electrolyte : 
Comments : 
Electrode surface area : 0.001 cm2
Characteristic mass : 0.001 g
Equivalent Weight : 0.000 g/eq.
Density : 0.000 g/cm3
Volume (V) : 0.001 cm3
Cycle Definition : Charge/Discharge alternance
Mode                Single sine         
E (V)               0.0000              
vs.                 Eoc                 
tE (h:m:s)          0:00:0.0000         
record              0                   
dI                  0.000               
unit dI             mA                  
dt (s)              0.000               
fi                  200.000             
unit fi             kHz                 
ff                  20.000              
unit ff             mHz                 
Nd                  8                   
Points              per decade          
spacing             Logarithmic         
Va (mV)             10.0                
pw                  0.10                
Na                  5                   
corr                0                   
E range min (V)     -10.000             
E range max (V)     10.000              
I Range             Auto                
Bandwidth           5                   
nc cycles           0                   
goto Ns'            0                   
nr cycles           0                   
inc. cycle          0                   

freq/Hz	Re(Z)/Ohm	-Im(Z)/Ohm	|Z|/Ohm	Phase(Z)/deg	time/s	<Ewe>/V	<I>/mA	Cs/uF	Cp/uF	cycle number	I Range	|Ewe|/V	|I|/A	Ns	(Q-Qo)/mA.h	Re(Y)/Ohm-1	Im(Y)/Ohm-1	|Y|/Ohm-1	Phase(Y)/deg	Re(C)/nF	Im(C)/nF	|C|/nF	Phase(C)/deg	Re(M)	Im(M)	|M|	Phase(M)/deg	Re(Permittivity)	Im(Permittivity)	|Permittivity|	Phase(Permittivity)/deg	Re(Resistivity)/Ohm.cm	Im(Resistivity)/Ohm.cm	|Resistivity|/Ohm.cm	Phase(Resistivity)/deg	Re(Conductivity)/mS/cm	Im(Conductivity)/mS/cm	|Conductivity|/mS/cm	Phase(Conductivity)/deg	Tan(Delta)	Loss Angle(Delta)/deg	dq/mA.h	
1.9999814E+005	1.8811324E-001	-7.5181380E-002	2.0258044E-001	2.1784626E+001	1.738484349189093E+000	-3.7790989E-004	-1.3534653E+000	-1.0584830E+001	-1.4578387E+000	1.000000000000000E+000	9	8.2750170E-004	4.0848055E-003	0	-5.139516449252454E-004	4.5837865E+000	-1.8319571E+000	4.9363108E+000	-2.1784626E+001	-1.4578385E+003	3.6476953E+003	3.9282278E+003	-1.1178462E+002	0.0000000E+000	0.0000000E+000	0.0000000E+000	1.1178462E+002	0.0000000E+000	0.0000000E+000	0.0000000E+000	-1.1178462E+002	0.0000000E+000	0.0000000E+000	0.0000000E+000	2.1784626E+001	0.0000000E+000	0.0000000E+000	0.0000000E+000	-2.1784626E+001	-2.5021255E+000	-2.1784626E+001	-5.139516449252454E-004
1.4919834E+005	1.9626048E-001	-5.3661726E-002	2.0346439E-001	1.5292106E+001	2.562485961680068E+000	-3.9595252E-004	-1.3289031E+000	-1.9878860E+001	-1.3827510E+000	1.000000000000000E+000	9	1.7596732E-003	8.6485567E-003	0	-8.302202060640945E-004	4.7408481E+000	-1.2962472E+000	4.9148650E+000	-1.5292106E+001	-1.3827511E+003	5.0572236E+003	5.2428535E+003	-1.0529211E+002	0.0000000E+000	0.0000000E+000	0.0000000E+000	1.0529211E+002	0.0000000E+000	0.0000000E+000	0.0000000E+000	-1.0529211E+002	0.0000000E+000	0.0000000E+000	0.0000000E+000	1.5292106E+001	0.0000000E+000	0.0000000E+000	0.0000000E+000	-1.5292106E+001	-3.6573644E+000	-1.5292106E+001	-3.162685611388491E-004
1.1129565E+005	1.9985342E-001	-3.8336325E-002	2.0349708E-001	1.0858701E+001	3.386496800841996E+000	-4.2980106E-004	-1.4224769E+000	-3.7301945E+001	-1.3238417E+000	1.000000000000000E+000	9	4.6151001E-003	2.2678949E-002	0	-1.121820805821413E-003	4.8260875E+000	-9.2575079E-001	4.9140754E+000	-1.0858701E+001	-1.3238419E+003	6.9013989E+003	7.0272231E+003	-1.0085870E+002	0.0000000E+000	0.0000000E+000	0.0000000E+000	1.0085870E+002	0.0000000E+000	0.0000000E+000	0.0000000E+000	-1.0085870E+002	0.0000000E+000	0.0000000E+000	0.0000000E+000	1.0858701E+001	0.0000000E+000	0.0000000E+000	0.0000000E+000	-1.0858701E+001	-5.2131605E+000	-1.0858701E+001	-2.916005997573181E-004
8.3024047E+004	2.0118907E-001	-2.6725911E-002	2.0295644E-001	7.5668569E+000	4.347498419781914E+000	-4.4497289E-004	-1.4898853E+000	-7.1727173E+001	-1.2437786E+000	1.000000000000000E+000	9	2.2531223E-002	1.1101507E-001	0	-1.587384489922888E-003	4.8842592E+000	-6.4882392E-001	4.9271655E+000	-7.5668569E+000	-1.2437786E+003	9.3629990E+003	9.4452490E+003	-9.7566856E+001	0.0000000E+000	0.0000000E+000	0.0000000E+000	9.7566856E+001	0.0000000E+000	0.0000000E+000	0.0000000E+000	-9.7566856E+001	0.0000000E+000	0.0000000E+000	0.0000000E+000	7.5668569E+000	0.0000000E+000	0.0000000E+000	0.0000000E+000	-7.5668569E+000	-7.5278659E+000	-7.5668569E+000	-4.655636841014751E-004
6.1934008E+004	2.0213455E-001	-1.8571120E-002	2.0298587E-001	5.2493148E+000	6.404480144177796E+000	-3.6726671E-004	-1.2018456E+000	-1.3837347E+002	-1.1582370E+000	1.000000000000000E+000	9	1.1607823E-002	5.7185374E-002	0	-2.785893926793296E-003	4.9057899E+000	-4.5071959E-001	4.9264512E+000	-5.2493148E+000	-1.1582366E+003	1.2606656E+004	1.2659751E+004	-9.5249313E+001	0.0000000E+000	0.0000000E+000	0.0000000E+000	9.5249313E+001	0.0000000E+000	0.0000000E+000	0.0000000E+000	-9.5249313E+001	0.0000000E+000	0.0000000E+000	0.0000000E+000	5.2493148E+000	0.0000000E+000	0.0000000E+000	0.0000000E+000	-5.2493148E+000	-1.0884349E+001	-5.2493148E+000	-1.198509436870408E-003
4.6206945E+004	2.0313187E-001	-1.2322539E-002	2.0350529E-001	3.4714658E+000	7.502476463007042E+000	-3.2456455E-004	-1.0391294E+000	-2.7951984E+002	-1.0248532E+000	1.000000000000000E+000	9	9.4451746E-003	4.6412427E-002	0	-2.849553750676103E-003	4.9048605E+000	-2.9754236E-001	4.9138770E+000	-3.4714658E+000	-1.0248533E+003	1.6894273E+004	1.6925330E+004	-9.3471466E+001	0.0000000E+000	0.0000000E+000	0.0000000E+000	9.3471466E+001	0.0000000E+000	0.0000000E+000	0.0000000E+000	-9.3471466E+001	0.0000000E+000	0.0000000E+000	0.0000000E+000	3.4714658E+000	0.0000000E+000	0.0000000E+000	0.0000000E+000	-3.4714658E+000	-1.6484579E+001	-3.4714658E+000	-6.365982388280723E-005
3.4469641E+004	2.0432597E-001	-7.5213667E-003	2.0446436E-001	2.1081414E+000	8.326481142110424E+000	-3.1464855E-004	-9.9194193E-001	-6.1388440E+002	-8.3070129E-001	1.000000000000000E+000	9	9.3491366E-003	4.5725018E-002	0	-3.008448202227449E-003	4.8875175E+000	-1.7991255E-001	4.8908277E+000	-2.1081414E+000	-8.3070038E+002	2.2566893E+004	2.2582176E+004	-9.2108139E+001	0.0000000E+000	0.0000000E+000	0.0000000E+000	9.2108139E+001	0.0000000E+000	0.0000000E+000	0.0000000E+000	-9.2108139E+001	0.0000000E+000	0.0000000E+000	0.0000000E+000	2.1081414E+000	0.0000000E+000	0.0000000E+000	0.0000000E+000	-2.1081414E+000	-2.7166069E+001	-2.1081414E+000	-1.588944515513464E-004
2.5710734E+004	2.0561427E-001	-3.9641233E-003	2.0565248E-001	1.1044925E+000	9.150479421281489E+000	-2.9681090E-004	-9.5494050E-001	-1.5615593E+003	-5.8020961E-001	1.000000000000000E+000	9	9.9790636E-003	4.8523918E-002	0	-3.165342937833423E-003	4.8616686E+000	-9.3730152E-002	4.8625722E+000	-1.1044925E+000	-5.8020947E+002	3.0094770E+004	3.0100361E+004	-9.1104492E+001	0.0000000E+000	0.0000000E+000	0.0000000E+000	9.1104492E+001	0.0000000E+000	0.0000000E+000	0.0000000E+000	-9.1104492E+001	0.0000000E+000	0.0000000E+000	0.0000000E+000	1.1044925E+000	0.0000000E+000	0.0000000E+000	0.0000000E+000	-1.1044925E+000	-5.1868786E+001	-1.1044925E+000	-1.568947356059736E-004
1.9178668E+004	2.0673616E-001	-1.4241639E-003	2.0674106E-001	3.9469290E-001	9.974473407055484E+000	-3.0242125E-004	-9.6192360E-001	-5.8269556E+003	-2.7650830E-001	1.000000000000000E+000	9	1.0305822E-002	4.9848936E-002	0	-3.498788681192117E-003	4.8368535E+000	-3.3320114E-002	4.8369684E+000	-3.9469290E-001	-2.7650732E+002	4.0138824E+004	4.0139777E+004	-9.0394691E+001	0.0000000E+000	0.0000000E+000	0.0000000E+000	9.0394691E+001	0.0000000E+000	0.0000000E+000	0.0000000E+000	-9.0394691E+001	0.0000000E+000	0.0000000E+000	0.0000000E+000	3.9469290E-001	0.0000000E+000	0.0000000E+000	0.0000000E+000	-3.9469290E-001	-1.4516318E+002	-3.9469290E-001	-3.334457433586940E-004
1.4307455E+004	2.0811467E-001	3.9293361E-004	2.0811504E-001	-1.0817791E-001	1.079849277951871E+001	-3.0717422E-004	-9.7399038E-001	2.8309916E+004	1.0091832E-001	1.000000000000000E+000	9	1.0467856E-002	5.0298411E-002	0	-3.739660209341777E-003	4.8050261E+000	9.0721911E-003	4.8050346E+000	1.0817791E-001	1.0091763E+002	5.3450715E+004	5.3450809E+004	-8.9891823E+001	0.0000000E+000	0.0000000E+000	0.0000000E+000	8.9891823E+001	0.0000000E+000	0.0000000E+000	0.0000000E+000	-8.9891823E+001	0.0000000E+000	0.0000000E+000	0.0000000E+000	-1.0817791E-001	0.0000000E+000	0.0000000E+000	0.0000000E+000	1.0817791E-001	5.2964331E+002	1.0817791E-001	-2.408715281496600E-004
1.0670281E+004	2.0932528E-001	1.7109162E-003	2.0933227E-001	-4.6829554E-001	1.162247457870399E+001	-3.0609313E-004	-9.7953963E-001	8.7179736E+003	5.8237219E-001	1.000000000000000E+000	9	1.0498520E-002	5.0152421E-002	0	-3.938227638940016E-003	4.7769346E+000	3.9044186E-002	4.7770944E+000	4.6829554E-001	5.8236810E+002	7.1251430E+004	7.1253813E+004	-8.9531708E+001	0.0000000E+000	0.0000000E+000	0.0000000E+000	8.9531708E+001	0.0000000E+000	0.0000000E+000	0.0000000E+000	-8.9531708E+001	0.0000000E+000	0.0000000E+000	0.0000000E+000	-4.6829554E-001	0.0000000E+000	0.0000000E+000	0.0000000E+000	4.6829554E-001	1.2234689E+002	4.6829554E-001	-1.985674295982395E-004
7.9597627E+003	2.1041164E-001	2.4724996E-003	2.1042617E-001	-6.7323875E-001	1.255874318319547E+001	-3.1276594E-004	-9.7134608E-001	8.0869316E+003	1.1164949E+000	1.000000000000000E+000	9	1.0403038E-002	4.9437948E-002	0	-4.105994441107329E-003	4.7519326E+000	5.5838887E-002	4.7522607E+000	6.7323875E-001	1.1164980E+003	9.5014578E+004	9.5021141E+004	-8.9326759E+001	0.0000000E+000	0.0000000E+000	0.0000000E+000	8.9326759E+001	0.0000000E+000	0.0000000E+000	0.0000000E+000	-8.9326759E+001	0.0000000E+000	0.0000000E+000	0.0000000E+000	-6.7323875E-001	0.0000000E+000	0.0000000E+000	0.0000000E+000	6.7323875E-001	8.5100777E+001	6.7323875E-001	-1.677668021673132E-004
5.9375000E+003	2.1149871E-001	2.9846854E-003	2.1151976E-001	-8.0850857E-001	1.373951710588881E+001	-2.9928985E-004	-8.8481086E-001	8.9808604E+003	1.7881879E+000	1.000000000000000E+000	9	1.0309346E-002	4.8739400E-002	0	-4.323997708456177E-003	4.7272201E+000	6.6710874E-002	4.7276907E+000	8.0850857E-001	1.7881907E+003	1.2671334E+005	1.2672595E+005	-8.9191490E+001	0.0000000E+000	0.0000000E+000	0.0000000E+000	8.9191490E+001	0.0000000E+000	0.0000000E+000	0.0000000E+000	-8.9191490E+001	0.0000000E+000	0.0000000E+000	0.0000000E+000	-8.0850857E-001	0.0000000E+000	0.0000000E+000	0.0000000E+000	8.0850857E-001	7.0861305E+001	8.0850857E-001	-2.180032673488475E-004
4.4314180E+003	2.1252914E-001	3.2909198E-003	2.1255462E-001	-8.8712895E-001	1.507769932950760E+001	-2.9712770E-004	-8.6004394E-001	1.0913401E+004	2.6160958E+000	1.000000000000000E+000	9	1.0168206E-002	4.7838084E-002	0	-4.531554876759028E-003	4.7041092E+000	7.2841056E-002	4.7046733E+000	8.8712895E-001	2.6161011E+003	1.6894869E+005	1.6896894E+005	-8.9112869E+001	0.0000000E+000	0.0000000E+000	0.0000000E+000	8.9112869E+001	0.0000000E+000	0.0000000E+000	0.0000000E+000	-8.9112869E+001	0.0000000E+000	0.0000000E+000	0.0000000E+000	-8.8712895E-001	0.0000000E+000	0.0000000E+000	0.0000000E+000	8.8712895E-001	6.4580467E+001	8.8712895E-001	-2.075571683028505E-004
3.3060581E+003	2.1345040E-001	3.4010839E-003	2.1347749E-001	-9.1286439E-001	1.619371114251408E+001	-2.9576704E-004	-8.7797660E-001	1.4154428E+004	3.5927153E+000	1.000000000000000E+000	9	1.0755682E-002	5.0383214E-002	0	-4.789194852657616E-003	4.6837401E+000	7.4629955E-002	4.6843348E+000	9.1286439E-001	3.5927163E+003	2.2547708E+005	2.2550570E+005	-8.9087135E+001	0.0000000E+000	0.0000000E+000	0.0000000E+000	8.9087135E+001	0.0000000E+000	0.0000000E+000	0.0000000E+000	-8.9087135E+001	0.0000000E+000	0.0000000E+000	0.0000000E+000	-9.1286439E-001	0.0000000E+000	0.0000000E+000	0.0000000E+000	9.1286439E-001	6.2759521E+001	9.1286439E-001	-2.576399758985890E-004
2.4657891E+003	2.1423030E-001	3.3967546E-003	2.1425723E-001	-9.0838408E-001	1.753070272602054E+001	-2.9444369E-004	-8.7289292E-001	1.9002031E+004	4.7759242E+000	1.000000000000000E+000	9	1.0069286E-002	4.6996247E-002	0	-5.079719756036169E-003	4.6667008E+000	7.3993444E-002	4.6672873E+000	9.0838408E-001	4.7759355E+003	3.0121328E+005	3.0125116E+005	-8.9091614E+001	0.0000000E+000	0.0000000E+000	0.0000000E+000	8.9091614E+001	0.0000000E+000	0.0000000E+000	0.0000000E+000	-8.9091614E+001	0.0000000E+000	0.0000000E+000	0.0000000E+000	-9.0838408E-001	0.0000000E+000	0.0000000E+000	0.0000000E+000	9.0838408E-001	6.3069111E+001	9.0838408E-001	-2.905249033785529E-004
1.8382352E+003	2.1508250E-001	3.2477649E-003	2.1510701E-001	-8.6510569E-001	1.864696560567245E+001	-2.9621439E-004	-8.7797666E-001	2.6658424E+004	6.0770736E+000	1.000000000000000E+000	9	1.0256279E-002	4.7679894E-002	0	-5.392008171116312E-003	4.6483192E+000	7.0190035E-002	4.6488490E+000	8.6510569E-001	6.0770669E+003	4.0245284E+005	4.0249872E+005	-8.9134895E+001	0.0000000E+000	0.0000000E+000	0.0000000E+000	8.9134895E+001	0.0000000E+000	0.0000000E+000	0.0000000E+000	-8.9134895E+001	0.0000000E+000	0.0000000E+000	0.0000000E+000	-8.6510569E-001	0.0000000E+000	0.0000000E+000	0.0000000E+000	8.6510569E-001	6.6224777E+001	8.6510569E-001	-3.122884150801430E-004
1.3721958E+003	2.1582334E-001	3.1060700E-003	2.1584569E-001	-8.2452816E-001	1.976244917864096E+001	-2.9386586E-004	-8.7142187E-001	3.7341590E+004	7.7326527E+000	1.000000000000000E+000	9	1.0360410E-002	4.7999151E-002	0	-5.702008802404213E-003	4.6324596E+000	6.6669084E-002	4.6329393E+000	8.2452816E-001	7.7326846E+003	5.3729856E+005	5.3735419E+005	-8.9175468E+001	0.0000000E+000	0.0000000E+000	0.0000000E+000	8.9175468E+001	0.0000000E+000	0.0000000E+000	0.0000000E+000	-8.9175468E+001	0.0000000E+000	0.0000000E+000	0.0000000E+000	-8.2452816E-001	0.0000000E+000	0.0000000E+000	0.0000000E+000	8.2452816E-001	6.9484375E+001	8.2452816E-001	-3.100006312879008E-004
1.0240171E+003	2.1627223E-001	2.9099532E-003	2.1629182E-001	-7.7087086E-001	2.087794808499166E+001	-3.0348366E-004	-8.7302327E-001	5.3410531E+004	9.6676016E+000	1.000000000000000E+000	9	1.0407289E-002	4.8116889E-002	0	-5.961796567736193E-003	4.6229649E+000	6.2202211E-002	4.6233835E+000	7.7087086E-001	9.6676406E+003	7.1851113E+005	7.1857619E+005	-8.9229126E+001	0.0000000E+000	0.0000000E+000	0.0000000E+000	8.9229126E+001	0.0000000E+000	0.0000000E+000	0.0000000E+000	-8.9229126E+001	0.0000000E+000	0.0000000E+000	0.0000000E+000	-7.7087086E-001	0.0000000E+000	0.0000000E+000	0.0000000E+000	7.7087086E-001	7.4321548E+001	7.7087086E-001	-2.597877653319801E-004
7.6329034E+002	2.1686883E-001	2.7322134E-003	2.1688604E-001	-7.2180039E-001	2.199721341810073E+001	-2.9065995E-004	-8.6384273E-001	7.6316031E+004	1.2111050E+001	1.000000000000000E+000	9	1.0439923E-002	4.8135523E-002	0	-6.251675093823837E-003	4.6103506E+000	5.8083314E-002	4.6107163E+000	7.2180039E-001	1.2111072E+004	9.6131188E+005	9.6138819E+005	-8.9278198E+001	0.0000000E+000	0.0000000E+000	0.0000000E+000	8.9278198E+001	0.0000000E+000	0.0000000E+000	0.0000000E+000	-8.9278198E+001	0.0000000E+000	0.0000000E+000	0.0000000E+000	-7.2180039E-001	0.0000000E+000	0.0000000E+000	0.0000000E+000	7.2180039E-001	7.9374779E+001	7.2180039E-001	-2.898785260876434E-004
5.6945331E+002	2.1735425E-001	2.6290233E-003	2.1737015E-001	-6.9299120E-001	2.311296779115219E+001	-2.9880524E-004	-8.4261400E-001	1.0630840E+005	1.5550939E+001	1.000000000000000E+000	9	1.0456640E-002	4.8105225E-002	0	-6.560703425741030E-003	4.6001110E+000	5.5640958E-002	4.6004477E+000	6.9299120E-001	1.5550982E+004	1.2856725E+006	1.2857665E+006	-8.9307007E+001	0.0000000E+000	0.0000000E+000	0.0000000E+000	8.9307007E+001	0.0000000E+000	0.0000000E+000	0.0000000E+000	-8.9307007E+001	0.0000000E+000	0.0000000E+000	0.0000000E+000	-6.9299120E-001	0.0000000E+000	0.0000000E+000	0.0000000E+000	6.9299120E-001	8.2674904E+001	6.9299120E-001	-3.090283319171936E-004
4.2513608E+002	2.1777023E-001	2.5445526E-003	2.1778511E-001	-6.6944629E-001	2.422866701748717E+001	-2.9463007E-004	-8.5805136E-001	1.4712306E+005	2.0083862E+001	1.000000000000000E+000	9	1.0465822E-002	4.8055731E-002	0	-6.808979468119124E-003	4.5913692E+000	5.3648189E-002	4.5916824E+000	6.6944629E-001	2.0083939E+004	1.7188356E+006	1.7189530E+006	-8.9330551E+001	0.0000000E+000	0.0000000E+000	0.0000000E+000	8.9330551E+001	0.0000000E+000	0.0000000E+000	0.0000000E+000	-8.9330551E+001	0.0000000E+000	0.0000000E+000	0.0000000E+000	-6.6944629E-001	0.0000000E+000	0.0000000E+000	0.0000000E+000	6.6944629E-001	8.5582916E+001	6.6944629E-001	-2.482760423780936E-004
3.1713113E+002	2.1812899E-001	2.4837477E-003	2.1814314E-001	-6.5237600E-001	2.533942915018997E+001	-2.9123775E-004	-8.5928047E-001	2.0205695E+005	2.6194229E+001	1.000000000000000E+000	9	1.0469589E-002	4.7994126E-002	0	-7.040045031176673E-003	4.5838490E+000	5.2194458E-002	4.5841460E+000	6.5237600E-001	2.6194162E+004	2.3004433E+006	2.3005925E+006	-8.9347626E+001	0.0000000E+000	0.0000000E+000	0.0000000E+000	8.9347626E+001	0.0000000E+000	0.0000000E+000	0.0000000E+000	-8.9347626E+001	0.0000000E+000	0.0000000E+000	0.0000000E+000	-6.5237600E-001	0.0000000E+000	0.0000000E+000	0.0000000E+000	6.5237600E-001	8.7822525E+001	6.5237600E-001	-2.310655630575493E-004
2.3658990E+002	2.1844088E-001	2.5329359E-003	2.1845555E-001	-6.6434473E-001	2.644942157625337E+001	-2.9792919E-004	-8.5659891E-001	2.6558266E+005	3.5704418E+001	1.000000000000000E+000	9	1.0469505E-002	4.7925103E-002	0	-7.256148008923564E-003	4.5772824E+000	5.3075980E-002	4.5775900E+000	6.6434473E-001	3.5704422E+004	3.0791558E+006	3.0793628E+006	-8.9335655E+001	0.0000000E+000	0.0000000E+000	0.0000000E+000	8.9335655E+001	0.0000000E+000	0.0000000E+000	0.0000000E+000	-8.9335655E+001	0.0000000E+000	0.0000000E+000	0.0000000E+000	-6.6434473E-001	0.0000000E+000	0.0000000E+000	0.0000000E+000	6.6434473E-001	8.6240189E+001	6.6434473E-001	-2.161029777468905E-004
1.7641125E+002	2.1884491E-001	2.6121167E-003	2.1886049E-001	-6.8384576E-001	2.755716344222310E+001	-3.0016588E-004	-8.6198056E-001	3.4538325E+005	4.9198483E+001	1.000000000000000E+000	9	1.0472758E-002	4.7851294E-002	0	-7.561426882922753E-003	4.5687957E+000	5.4532807E-002	4.5691209E+000	6.8384576E-001	4.9198465E+004	4.1218823E+006	4.1221758E+006	-8.9316154E+001	0.0000000E+000	0.0000000E+000	0.0000000E+000	8.9316154E+001	0.0000000E+000	0.0000000E+000	0.0000000E+000	-8.9316154E+001	0.0000000E+000	0.0000000E+000	0.0000000E+000	-6.8384576E-001	0.0000000E+000	0.0000000E+000	0.0000000E+000	6.8384576E-001	8.3780678E+001	6.8384576E-001	-3.052788739991890E-004
