EC-Lab ASCII FILE
Nb header lines : 63                          

Potentio Electrochemical Impedance Spectroscopy

Run on channel : 3 (SN 50730)
User : 
CE vs. WE compliance from -10 V to 10 V
Electrode connection : standard
Potential control : Ewe
Ewe ctrl range : min = -10.00 V, max = 10.00 V
Safety Limits :
	Do not start on E overload
Acquisition started on : 02/14/2023 13:54:00.312
Loaded Setting File :  C:\Users\sto063\Documents\EC-Lab\Data\Baichen\Micormolding\20230214_denseNoPatternS4_IDFF\NoPattern_IDFF_05Fe_2MHCL_ve10cms_EIS_PCGA.mps
Saved on :
	File : NoPattern_IDFF_05Fe_2MHCL_ve5cms_EIS_PCGA_01_PEIS_C03.mpr
	Directory : C:\Users\sto063\Documents\EC-Lab\Data\Baichen\Micormolding\20230214_denseNoPatternS4_IDFF\
	Host : 131.155.90.158
Device : VSP-3e (SN .003050)
Address : USB
EC-Lab for windows v11.43 (software)
Internet server v11.40 (firmware)
Command interpretor v11.40 (firmware)
Electrode material : 
Initial state : 
Electrolyte : 
Comments : 
Electrode surface area : 0.001 cm2
Characteristic mass : 0.001 g
Equivalent Weight : 0.000 g/eq.
Density : 0.000 g/cm3
Volume (V) : 0.001 cm3
Cycle Definition : Charge/Discharge alternance
Mode                Single sine         
E (V)               0.0000              
vs.                 Eoc                 
tE (h:m:s)          0:00:0.0000         
record              0                   
dI                  0.000               
unit dI             mA                  
dt (s)              0.000               
fi                  200.000             
unit fi             kHz                 
ff                  20.000              
unit ff             mHz                 
Nd                  8                   
Points              per decade          
spacing             Logarithmic         
Va (mV)             10.0                
pw                  0.10                
Na                  5                   
corr                0                   
E range min (V)     -10.000             
E range max (V)     10.000              
I Range             Auto                
Bandwidth           5                   
nc cycles           0                   
goto Ns'            0                   
nr cycles           0                   
inc. cycle          0                   

freq/Hz	Re(Z)/Ohm	-Im(Z)/Ohm	|Z|/Ohm	Phase(Z)/deg	time/s	<Ewe>/V	<I>/mA	Cs/uF	Cp/uF	cycle number	I Range	|Ewe|/V	|I|/A	Ns	(Q-Qo)/mA.h	Re(Y)/Ohm-1	Im(Y)/Ohm-1	|Y|/Ohm-1	Phase(Y)/deg	Re(C)/nF	Im(C)/nF	|C|/nF	Phase(C)/deg	Re(M)	Im(M)	|M|	Phase(M)/deg	Re(Permittivity)	Im(Permittivity)	|Permittivity|	Phase(Permittivity)/deg	Re(Resistivity)/Ohm.cm	Im(Resistivity)/Ohm.cm	|Resistivity|/Ohm.cm	Phase(Resistivity)/deg	Re(Conductivity)/mS/cm	Im(Conductivity)/mS/cm	|Conductivity|/mS/cm	Phase(Conductivity)/deg	Tan(Delta)	Loss Angle(Delta)/deg	dq/mA.h	
1.9999814E+005	1.8858346E-001	-7.5459123E-002	2.0312017E-001	2.1808149E+001	1.739486962585943E+000	-3.7684746E-004	-1.3231864E+000	-1.0545871E+001	-1.4554584E+000	1.000000000000000E+000	9	8.2776154E-004	4.0752306E-003	0	-4.774179184821357E-004	4.5708556E+000	-1.8289660E+000	4.9231939E+000	-2.1808149E+001	-1.4554584E+003	3.6374048E+003	3.9177893E+003	-1.1180815E+002	0.0000000E+000	0.0000000E+000	0.0000000E+000	1.1180815E+002	0.0000000E+000	0.0000000E+000	0.0000000E+000	-1.1180815E+002	0.0000000E+000	0.0000000E+000	0.0000000E+000	2.1808149E+001	0.0000000E+000	0.0000000E+000	0.0000000E+000	-2.1808149E+001	-2.4991474E+000	-2.1808149E+001	-4.774179184821357E-004
1.4919834E+005	1.9632229E-001	-5.3996634E-002	2.0361257E-001	1.5378424E+001	2.563474068389041E+000	-3.9330576E-004	-1.3571709E+000	-1.9755566E+001	-1.3893564E+000	1.000000000000000E+000	9	1.7575134E-003	8.6316550E-003	0	-7.825459208510324E-004	4.7354412E+000	-1.3024395E+000	4.9112883E+000	-1.5378424E+001	-1.3893566E+003	5.0514561E+003	5.2390381E+003	-1.0537843E+002	0.0000000E+000	0.0000000E+000	0.0000000E+000	1.0537843E+002	0.0000000E+000	0.0000000E+000	0.0000000E+000	-1.0537843E+002	0.0000000E+000	0.0000000E+000	0.0000000E+000	1.5378424E+001	0.0000000E+000	0.0000000E+000	0.0000000E+000	-1.5378424E+001	-3.6358247E+000	-1.5378424E+001	-3.051280023688967E-004
1.1129565E+005	1.9994578E-001	-3.8678449E-002	2.0365249E-001	1.0948336E+001	3.387477760872571E+000	-4.2046286E-004	-1.4738729E+000	-3.6971996E+001	-1.3336183E+000	1.000000000000000E+000	9	4.6251263E-003	2.2710875E-002	0	-1.137384822853531E-003	4.8209519E+000	-9.3258756E-001	4.9103255E+000	-1.0948336E+001	-1.3336180E+003	6.8940547E+003	7.0218608E+003	-1.0094833E+002	0.0000000E+000	0.0000000E+000	0.0000000E+000	1.0094833E+002	0.0000000E+000	0.0000000E+000	0.0000000E+000	-1.0094833E+002	0.0000000E+000	0.0000000E+000	0.0000000E+000	1.0948336E+001	0.0000000E+000	0.0000000E+000	0.0000000E+000	-1.0948336E+001	-5.1694365E+000	-1.0948336E+001	-3.548389020024981E-004
8.3024047E+004	2.0119846E-001	-2.7014157E-002	2.0300390E-001	7.6471539E+000	4.348481566499686E+000	-4.4437643E-004	-1.6037385E+000	-7.0961830E+001	-1.2566053E+000	1.000000000000000E+000	9	2.2540065E-002	1.1103267E-001	0	-1.558111439736353E-003	4.8822036E+000	-6.5551507E-001	4.9260139E+000	-7.6471539E+000	-1.2566057E+003	9.3590576E+003	9.4430410E+003	-9.7647156E+001	0.0000000E+000	0.0000000E+000	0.0000000E+000	9.7647156E+001	0.0000000E+000	0.0000000E+000	0.0000000E+000	-9.7647156E+001	0.0000000E+000	0.0000000E+000	0.0000000E+000	7.6471539E+000	0.0000000E+000	0.0000000E+000	0.0000000E+000	-7.6471539E+000	-7.4478898E+000	-7.6471539E+000	-4.207266168828226E-004
6.1934008E+004	2.0200416E-001	-1.8813480E-002	2.0287836E-001	5.3208432E+000	6.405486117553664E+000	-3.5710837E-004	-1.2625525E+000	-1.3659091E+002	-1.1745963E+000	1.000000000000000E+000	9	1.1539333E-002	5.6878090E-002	0	-1.891084998703303E-003	4.9078226E+000	-4.5708576E-001	4.9290619E+000	-5.3208432E+000	-1.1745970E+003	1.2611880E+004	1.2666459E+004	-9.5320847E+001	0.0000000E+000	0.0000000E+000	0.0000000E+000	9.5320847E+001	0.0000000E+000	0.0000000E+000	0.0000000E+000	-9.5320847E+001	0.0000000E+000	0.0000000E+000	0.0000000E+000	5.3208432E+000	0.0000000E+000	0.0000000E+000	0.0000000E+000	-5.3208432E+000	-1.0737204E+001	-5.3208432E+000	-3.329735589669501E-004
4.6206945E+004	2.0313510E-001	-1.2376929E-002	2.0351182E-001	3.4866951E+000	7.503485049674055E+000	-3.2393081E-004	-1.1328340E+000	-2.7829150E+002	-1.0293107E+000	1.000000000000000E+000	9	9.4470652E-003	4.6420228E-002	0	-2.263137129531552E-003	4.9046240E+000	-2.9883650E-001	4.9137197E+000	-3.4866951E+000	-1.0293105E+003	1.6893461E+004	1.6924789E+004	-9.3486694E+001	0.0000000E+000	0.0000000E+000	0.0000000E+000	9.3486694E+001	0.0000000E+000	0.0000000E+000	0.0000000E+000	-9.3486694E+001	0.0000000E+000	0.0000000E+000	0.0000000E+000	3.4866951E+000	0.0000000E+000	0.0000000E+000	0.0000000E+000	-3.4866951E+000	-1.6412399E+001	-3.4866951E+000	-3.720521308282492E-004
3.4469641E+004	2.0424795E-001	-7.6407581E-003	2.0439082E-001	2.1423917E+000	8.327481862186687E+000	-3.0728610E-004	-1.0666896E+000	-6.0429211E+002	-8.4449488E-001	1.000000000000000E+000	9	9.3480432E-003	4.5736119E-002	0	-2.588312436470141E-003	4.8891678E+000	-1.8289998E-001	4.8925877E+000	-2.1423917E+000	-8.4449615E+002	2.2574508E+004	2.2590299E+004	-9.2142395E+001	0.0000000E+000	0.0000000E+000	0.0000000E+000	9.2142395E+001	0.0000000E+000	0.0000000E+000	0.0000000E+000	-9.2142395E+001	0.0000000E+000	0.0000000E+000	0.0000000E+000	2.1423917E+000	0.0000000E+000	0.0000000E+000	0.0000000E+000	-2.1423917E+000	-2.6731373E+001	-2.1423917E+000	-3.251753069385887E-004
2.5710734E+004	2.0543130E-001	-4.1500744E-003	2.0547321E-001	1.1573184E+000	9.151495767961023E+000	-3.0698784E-004	-1.0594642E+000	-1.4915909E+003	-6.0848671E-001	1.000000000000000E+000	9	9.9427290E-003	4.8389416E-002	0	-2.804495784074585E-003	4.8658218E+000	-9.8298177E-002	4.8668146E+000	-1.1573184E+000	-6.0848657E+002	3.0120475E+004	3.0126621E+004	-9.1157318E+001	0.0000000E+000	0.0000000E+000	0.0000000E+000	9.1157318E+001	0.0000000E+000	0.0000000E+000	0.0000000E+000	-9.1157318E+001	0.0000000E+000	0.0000000E+000	0.0000000E+000	1.1573184E+000	0.0000000E+000	0.0000000E+000	0.0000000E+000	-1.1573184E+000	-4.9500629E+001	-1.1573184E+000	-2.161833476044444E-004
1.9178668E+004	2.0663291E-001	-1.5346833E-003	2.0663860E-001	4.2553368E-001	9.975494767102646E+000	-2.9897300E-004	-1.0549952E+000	-5.4073306E+003	-2.9826173E-001	1.000000000000000E+000	9	1.0301041E-002	4.9850516E-002	0	-3.080980379774959E-003	4.8392334E+000	-3.5941474E-002	4.8393669E+000	-4.2553368E-001	-2.9826413E+002	4.0158566E+004	4.0159676E+004	-9.0425537E+001	0.0000000E+000	0.0000000E+000	0.0000000E+000	9.0425537E+001	0.0000000E+000	0.0000000E+000	0.0000000E+000	-9.0425537E+001	0.0000000E+000	0.0000000E+000	0.0000000E+000	4.2553368E-001	0.0000000E+000	0.0000000E+000	0.0000000E+000	-4.2553368E-001	-1.3464206E+002	-4.2553368E-001	-2.764845957003740E-004
1.4307455E+004	2.0791334E-001	2.2036069E-004	2.0791346E-001	-6.0725939E-002	1.079947976625408E+001	-2.9746324E-004	-1.0192040E+000	5.0480500E+004	5.6705691E-002	1.000000000000000E+000	9	1.0459188E-002	5.0305489E-002	0	-3.351593222987321E-003	4.8096905E+000	5.0976370E-003	4.8096933E+000	6.0725939E-002	5.6702339E+001	5.3502598E+004	5.3502629E+004	-8.9939278E+001	0.0000000E+000	0.0000000E+000	0.0000000E+000	8.9939278E+001	0.0000000E+000	0.0000000E+000	0.0000000E+000	-8.9939278E+001	0.0000000E+000	0.0000000E+000	0.0000000E+000	-6.0725939E-002	0.0000000E+000	0.0000000E+000	0.0000000E+000	6.0725939E-002	9.4351373E+002	6.0725939E-002	-2.706128432123614E-004
1.0670281E+004	2.0903651E-001	1.5032105E-003	2.0904192E-001	-4.1201478E-001	1.162349127206835E+001	-2.9252388E-004	-1.0402465E+000	9.9225771E+003	5.1309443E-001	1.000000000000000E+000	9	1.0487346E-002	5.0168626E-002	0	-3.683130375750363E-003	4.7836061E+000	3.4399573E-002	4.7837296E+000	4.1201478E-001	5.1309821E+002	7.1350930E+004	7.1352773E+004	-8.9587982E+001	0.0000000E+000	0.0000000E+000	0.0000000E+000	8.9587982E+001	0.0000000E+000	0.0000000E+000	0.0000000E+000	-8.9587982E+001	0.0000000E+000	0.0000000E+000	0.0000000E+000	-4.1201478E-001	0.0000000E+000	0.0000000E+000	0.0000000E+000	4.1201478E-001	1.3906004E+002	4.1201478E-001	-3.315371527630420E-004
7.9597627E+003	2.1020314E-001	2.3123876E-003	2.1021587E-001	-6.3026983E-001	1.255973560990242E+001	-2.9619577E-004	-1.0081985E+000	8.6468789E+003	1.0462842E+000	1.000000000000000E+000	9	1.0397591E-002	4.9461495E-002	0	-3.929938212409409E-003	4.7567267E+000	5.2327458E-002	4.7570148E+000	6.3026983E-001	1.0462877E+003	9.5110453E+004	9.5116211E+004	-8.9369728E+001	0.0000000E+000	0.0000000E+000	0.0000000E+000	8.9369728E+001	0.0000000E+000	0.0000000E+000	0.0000000E+000	-8.9369728E+001	0.0000000E+000	0.0000000E+000	0.0000000E+000	-6.3026983E-001	0.0000000E+000	0.0000000E+000	0.0000000E+000	6.3026983E-001	9.0903076E+001	6.3026983E-001	-2.468078366590458E-004
5.9375000E+003	2.1113841E-001	2.8487267E-003	2.1115763E-001	-7.7300060E-001	1.374054371929378E+001	-2.9809694E-004	-9.7384137E-001	9.4094814E+003	1.7125912E+000	1.000000000000000E+000	9	1.0299655E-002	4.8777089E-002	0	-4.224770191038984E-003	4.7353673E+000	6.3890636E-002	4.7357984E+000	7.7300060E-001	1.7125958E+003	1.2693173E+005	1.2694328E+005	-8.9226997E+001	0.0000000E+000	0.0000000E+000	0.0000000E+000	8.9226997E+001	0.0000000E+000	0.0000000E+000	0.0000000E+000	-8.9226997E+001	0.0000000E+000	0.0000000E+000	0.0000000E+000	-7.7300060E-001	0.0000000E+000	0.0000000E+000	0.0000000E+000	7.7300060E-001	7.4116768E+001	7.7300060E-001	-2.948319786295756E-004
4.4314180E+003	2.1214698E-001	3.1755664E-003	2.1217075E-001	-8.5757983E-001	1.507867004955187E+001	-2.8780816E-004	-9.2702627E-001	1.1309834E+004	2.5335391E+000	1.000000000000000E+000	9	1.0161668E-002	4.7893822E-002	0	-4.631223940002422E-003	4.7126570E+000	7.0542395E-002	4.7131848E+000	8.5757983E-001	2.5335457E+003	1.6925566E+005	1.6927463E+005	-8.9142418E+001	0.0000000E+000	0.0000000E+000	0.0000000E+000	8.9142418E+001	0.0000000E+000	0.0000000E+000	0.0000000E+000	-8.9142418E+001	0.0000000E+000	0.0000000E+000	0.0000000E+000	-8.5757983E-001	0.0000000E+000	0.0000000E+000	0.0000000E+000	8.5757983E-001	6.6806030E+001	8.5757983E-001	-4.064537489634375E-004
3.3060581E+003	2.1301790E-001	3.2616484E-003	2.1304287E-001	-8.7722242E-001	1.619470644922694E+001	-2.8944839E-004	-9.2678416E-001	1.4759529E+004	3.4594955E+000	1.000000000000000E+000	9	1.0750405E-002	5.0461233E-002	0	-4.953592500137372E-003	4.6933408E+000	7.1862631E-002	4.6938910E+000	8.7722242E-001	3.4594866E+003	2.2593928E+005	2.2596577E+005	-8.9122780E+001	0.0000000E+000	0.0000000E+000	0.0000000E+000	8.9122780E+001	0.0000000E+000	0.0000000E+000	0.0000000E+000	-8.9122780E+001	0.0000000E+000	0.0000000E+000	0.0000000E+000	-8.7722242E-001	0.0000000E+000	0.0000000E+000	0.0000000E+000	8.7722242E-001	6.5309891E+001	8.7722242E-001	-3.223685601349505E-004
2.4657891E+003	2.1388246E-001	3.2277883E-003	2.1390681E-001	-8.6460859E-001	1.753171195273171E+001	-2.8719308E-004	-9.0387952E-001	1.9996738E+004	4.5532346E+000	1.000000000000000E+000	9	1.0186892E-002	4.7623038E-002	0	-5.285172948982153E-003	4.6744008E+000	7.0543304E-002	4.6749330E+000	8.6460859E-001	4.5532358E+003	3.0171034E+005	3.0174469E+005	-8.9135391E+001	0.0000000E+000	0.0000000E+000	0.0000000E+000	8.9135391E+001	0.0000000E+000	0.0000000E+000	0.0000000E+000	-8.9135391E+001	0.0000000E+000	0.0000000E+000	0.0000000E+000	-8.6460859E-001	0.0000000E+000	0.0000000E+000	0.0000000E+000	8.6460859E-001	6.6262856E+001	8.6460859E-001	-3.315804488447805E-004
1.8382352E+003	2.1466579E-001	3.2827710E-003	2.1469088E-001	-8.7612599E-001	1.864796144573484E+001	-2.8335341E-004	-9.1343236E-001	2.6374150E+004	6.1664104E+000	1.000000000000000E+000	9	1.0373786E-002	4.8319642E-002	0	-5.533277309416483E-003	4.6573153E+000	7.1221881E-002	4.6578598E+000	8.7612599E-001	6.1664331E+003	4.0323169E+005	4.0327884E+005	-8.9123871E+001	0.0000000E+000	0.0000000E+000	0.0000000E+000	8.9123871E+001	0.0000000E+000	0.0000000E+000	0.0000000E+000	-8.9123871E+001	0.0000000E+000	0.0000000E+000	0.0000000E+000	-8.7612599E-001	0.0000000E+000	0.0000000E+000	0.0000000E+000	8.7612599E-001	6.5391640E+001	8.7612599E-001	-2.481043604343298E-004
1.3721958E+003	2.1527608E-001	3.0687598E-003	2.1529795E-001	-8.1669587E-001	1.976343139199889E+001	-2.9645671E-004	-9.4367415E-001	3.7795590E+004	7.6786900E+000	1.000000000000000E+000	9	1.0474999E-002	4.8653502E-002	0	-5.793909442325226E-003	4.6442537E+000	6.6203825E-002	4.6447258E+000	8.1669587E-001	7.6786929E+003	5.3866650E+005	5.3872125E+005	-8.9183304E+001	0.0000000E+000	0.0000000E+000	0.0000000E+000	8.9183304E+001	0.0000000E+000	0.0000000E+000	0.0000000E+000	-8.9183304E+001	0.0000000E+000	0.0000000E+000	0.0000000E+000	-8.1669587E-001	0.0000000E+000	0.0000000E+000	0.0000000E+000	8.1669587E-001	7.0150841E+001	8.1669587E-001	-2.606321329087433E-004
1.0240171E+003	2.1597055E-001	2.9261047E-003	2.1599036E-001	-7.7623171E-001	2.087893061837531E+001	-2.9472326E-004	-9.3173754E-001	5.3115719E+004	9.7484150E+000	1.000000000000000E+000	9	1.0535591E-002	4.8778061E-002	0	-6.122842390078223E-003	4.6294112E+000	6.2722169E-002	4.6298361E+000	7.7623171E-001	9.7483916E+003	7.1951306E+005	7.1957913E+005	-8.9223770E+001	0.0000000E+000	0.0000000E+000	0.0000000E+000	8.9223770E+001	0.0000000E+000	0.0000000E+000	0.0000000E+000	-8.9223770E+001	0.0000000E+000	0.0000000E+000	0.0000000E+000	-7.7623171E-001	0.0000000E+000	0.0000000E+000	0.0000000E+000	7.7623171E-001	7.3808212E+001	7.7623171E-001	-3.289329477529973E-004
7.6329034E+002	2.1651229E-001	2.8147076E-003	2.1653059E-001	-7.4481583E-001	2.199819808485336E+001	-2.9241203E-004	-9.2857188E-001	7.4079336E+004	1.2517717E+001	1.000000000000000E+000	9	1.0566549E-002	4.8799336E-002	0	-6.379285830574731E-003	4.6178951E+000	6.0033653E-002	4.6182852E+000	7.4481583E-001	1.2517653E+004	9.6288500E+005	9.6296638E+005	-8.9255188E+001	0.0000000E+000	0.0000000E+000	0.0000000E+000	8.9255188E+001	0.0000000E+000	0.0000000E+000	0.0000000E+000	-8.9255188E+001	0.0000000E+000	0.0000000E+000	0.0000000E+000	-7.4481583E-001	0.0000000E+000	0.0000000E+000	0.0000000E+000	7.4481583E-001	7.6921768E+001	7.4481583E-001	-2.564434404965076E-004
5.6945331E+002	2.1691759E-001	2.5349858E-003	2.1693240E-001	-6.6955090E-001	2.311394080452737E+001	-2.9317621E-004	-9.2436343E-001	1.1025200E+005	1.5055275E+001	1.000000000000000E+000	9	1.0581572E-002	4.8778199E-002	0	-6.634996390370031E-003	4.6094160E+000	5.3867478E-002	4.6097307E+000	6.6955090E-001	1.5055209E+004	1.2882730E+006	1.2883610E+006	-8.9330452E+001	0.0000000E+000	0.0000000E+000	0.0000000E+000	8.9330452E+001	0.0000000E+000	0.0000000E+000	0.0000000E+000	-8.9330452E+001	0.0000000E+000	0.0000000E+000	0.0000000E+000	-6.6955090E-001	0.0000000E+000	0.0000000E+000	0.0000000E+000	6.6955090E-001	8.5569550E+001	6.6955090E-001	-2.557105597953005E-004
4.2513608E+002	2.1722813E-001	2.3368651E-003	2.1724071E-001	-6.1634439E-001	2.422969747087336E+001	-2.9608392E-004	-9.2827398E-001	1.6019853E+005	1.8537169E+001	1.000000000000000E+000	9	1.0586484E-002	4.8731588E-002	0	-6.899345178699328E-003	4.6029224E+000	4.9516648E-002	4.6031890E+000	6.1634439E-001	1.8537057E+004	1.7231609E+006	1.7232606E+006	-8.9383659E+001	0.0000000E+000	0.0000000E+000	0.0000000E+000	8.9383659E+001	0.0000000E+000	0.0000000E+000	0.0000000E+000	-8.9383659E+001	0.0000000E+000	0.0000000E+000	0.0000000E+000	-6.1634439E-001	0.0000000E+000	0.0000000E+000	0.0000000E+000	6.1634439E-001	9.2957069E+001	6.1634439E-001	-2.643487883292970E-004
3.1713113E+002	2.1766560E-001	2.4740105E-003	2.1767966E-001	-6.5120184E-001	2.534039829691756E+001	-2.9498420E-004	-9.5656037E-001	2.0285222E+005	2.6202763E+001	1.000000000000000E+000	9	1.0594115E-002	4.8668370E-002	0	-7.219136344925811E-003	4.5936098E+000	5.2211452E-002	4.5939064E+000	6.5120184E-001	2.6202658E+004	2.3053418E+006	2.3054908E+006	-8.9348801E+001	0.0000000E+000	0.0000000E+000	0.0000000E+000	8.9348801E+001	0.0000000E+000	0.0000000E+000	0.0000000E+000	-8.9348801E+001	0.0000000E+000	0.0000000E+000	0.0000000E+000	-6.5120184E-001	0.0000000E+000	0.0000000E+000	0.0000000E+000	6.5120184E-001	8.7980873E+001	6.5120184E-001	-3.197911662264829E-004
2.3658990E+002	2.1800111E-001	2.5374230E-003	2.1801588E-001	-6.6686386E-001	2.645040272295591E+001	-2.9997950E-004	-9.3870211E-001	2.6511303E+005	3.5912079E+001	1.000000000000000E+000	9	1.0596097E-002	4.8602406E-002	0	-7.540753300185419E-003	4.5865111E+000	5.3384680E-002	4.5868220E+000	6.6686386E-001	3.5912008E+004	3.0853640E+006	3.0855730E+006	-8.9333138E+001	0.0000000E+000	0.0000000E+000	0.0000000E+000	8.9333138E+001	0.0000000E+000	0.0000000E+000	0.0000000E+000	-8.9333138E+001	0.0000000E+000	0.0000000E+000	0.0000000E+000	-6.6686386E-001	0.0000000E+000	0.0000000E+000	0.0000000E+000	6.6686386E-001	8.5914375E+001	6.6686386E-001	-3.216169552596078E-004
1.7641125E+002	2.1829103E-001	2.5760739E-003	2.1830623E-001	-6.7612177E-001	2.755914410899277E+001	-2.8680166E-004	-9.0291113E-001	3.5021563E+005	4.8766312E+001	1.000000000000000E+000	9	1.0595355E-002	4.8534371E-002	0	-7.784499152252451E-003	4.5804024E+000	5.4053783E-002	4.5807214E+000	6.7612177E-001	4.8766516E+004	4.1323538E+006	4.1326415E+006	-8.9323875E+001	0.0000000E+000	0.0000000E+000	0.0000000E+000	8.9323875E+001	0.0000000E+000	0.0000000E+000	0.0000000E+000	-8.9323875E+001	0.0000000E+000	0.0000000E+000	0.0000000E+000	-6.7612177E-001	0.0000000E+000	0.0000000E+000	0.0000000E+000	6.7612177E-001	8.4737877E+001	6.7612177E-001	-2.437458520670316E-004
