EC-Lab ASCII FILE
Nb header lines : 69                          

Potentio Electrochemical Impedance Spectroscopy

Run on channel : 3 (SN 50730)
User : 
CE vs. WE compliance from -10 V to 10 V
Electrode connection : standard
Potential control : Ewe
Ewe ctrl range : min = -10.00 V, max = 10.00 V
Safety Limits :
	Do not start on E overload
Acquisition started on : 02/14/2023 14:58:07.205
Loaded Setting File :  C:\Users\sto063\Documents\EC-Lab\Data\Baichen\Micormolding\20230214_denseNoPatternS4_IDFF\NoPattern_IDFF_05Fe_2MHCL_ve10cms_EIS_PCGA.mps
Saved on :
	File : NoPattern_IDFF_05Fe_2MHCL_ve1cms_EIS_PCGA_01_PEIS_C03.mpr
	Directory : C:\Users\sto063\Documents\EC-Lab\Data\Baichen\Micormolding\20230214_denseNoPatternS4_IDFF\
	Host : 131.155.90.158
Device : VSP-3e (SN .003050)
Address : USB
EC-Lab for windows v11.43 (software)
Internet server v11.40 (firmware)
Command interpretor v11.40 (firmware)
Electrode material : 
Initial state : 
Electrolyte : 
Comments : 
Electrode surface area : 0.001 cm2
Characteristic mass : 0.001 g
Equivalent Weight : 0.000 g/eq.
Density : 0.000 g/cm3
Volume (V) : 0.001 cm3
Cycle Definition : Charge/Discharge alternance
Mode                Single sine         
E (V)               0.0000              
vs.                 Eoc                 
tE (h:m:s)          0:00:0.0000         
record              0                   
dI                  0.000               
unit dI             mA                  
dt (s)              0.000               
fi                  200.000             
unit fi             kHz                 
ff                  5.000               
unit ff             mHz                 
Nd                  8                   
Points              per decade          
spacing             Logarithmic         
Va (mV)             10.0                
pw                  0.10                
Na                  5                   
corr                0                   
E range min (V)     -10.000             
E range max (V)     10.000              
I Range             Auto                
Bandwidth           5                   
nc cycles           0                   
goto Ns'            0                   
nr cycles           0                   
inc. cycle          0                   

Modify on : 02/14/2023 15:44
ff                  3.000               

Modify on : 02/14/2023 15:45
ff                  4.000               

freq/Hz	Re(Z)/Ohm	-Im(Z)/Ohm	|Z|/Ohm	Phase(Z)/deg	time/s	<Ewe>/V	<I>/mA	Cs/uF	Cp/uF	cycle number	I Range	|Ewe|/V	|I|/A	Ns	(Q-Qo)/mA.h	Re(Y)/Ohm-1	Im(Y)/Ohm-1	|Y|/Ohm-1	Phase(Y)/deg	Re(C)/nF	Im(C)/nF	|C|/nF	Phase(C)/deg	Re(M)	Im(M)	|M|	Phase(M)/deg	Re(Permittivity)	Im(Permittivity)	|Permittivity|	Phase(Permittivity)/deg	Re(Resistivity)/Ohm.cm	Im(Resistivity)/Ohm.cm	|Resistivity|/Ohm.cm	Phase(Resistivity)/deg	Re(Conductivity)/mS/cm	Im(Conductivity)/mS/cm	|Conductivity|/mS/cm	Phase(Conductivity)/deg	Tan(Delta)	Loss Angle(Delta)/deg	dq/mA.h	
1.9999814E+005	1.8934356E-001	-7.5085774E-002	2.0368813E-001	2.1631216E+001	1.738495282566873E+000	-3.8955931E-004	-1.6733308E+000	-1.0598308E+001	-1.4401920E+000	1.000000000000000E+000	9	8.2018727E-004	4.0266817E-003	0	-6.567400122517720E-004	4.5637212E+000	-1.8097818E+000	4.9094663E+000	-2.1631216E+001	-1.4401921E+003	3.6317275E+003	3.9068655E+003	-1.1163122E+002	0.0000000E+000	0.0000000E+000	0.0000000E+000	1.1163122E+002	0.0000000E+000	0.0000000E+000	0.0000000E+000	-1.1163122E+002	0.0000000E+000	0.0000000E+000	0.0000000E+000	2.1631216E+001	0.0000000E+000	0.0000000E+000	0.0000000E+000	-2.1631216E+001	-2.5216968E+000	-2.1631216E+001	-6.567400122517720E-004
1.4939319E+005	1.9708717E-001	-5.3748533E-002	2.0428474E-001	1.5254438E+001	2.562495908321580E+000	-4.0005310E-004	-1.5965718E+000	-1.9820871E+001	-1.3720948E+000	1.000000000000000E+000	9	1.7303595E-003	8.4703313E-003	0	-1.021690175667741E-003	4.7226582E+000	-1.2879374E+000	4.8951283E+000	-1.5254438E+001	-1.3720947E+003	5.0312485E+003	5.2149888E+003	-1.0525444E+002	0.0000000E+000	0.0000000E+000	0.0000000E+000	1.0525444E+002	0.0000000E+000	0.0000000E+000	0.0000000E+000	-1.0525444E+002	0.0000000E+000	0.0000000E+000	0.0000000E+000	1.5254438E+001	0.0000000E+000	0.0000000E+000	0.0000000E+000	-1.5254438E+001	-3.6668382E+000	-1.5254438E+001	-3.649501634159694E-004
1.1159256E+005	2.0109330E-001	-3.8557846E-002	2.0475650E-001	1.0854218E+001	3.386482614179840E+000	-4.2098475E-004	-1.6219716E+000	-3.6988960E+001	-1.3116629E+000	1.000000000000000E+000	9	4.5431992E-003	2.2188302E-002	0	-1.401513897421511E-003	4.7964754E+000	-9.1968143E-001	4.8838501E+000	-1.0854218E+001	-1.3116631E+003	6.8408032E+003	6.9654180E+003	-1.0085422E+002	0.0000000E+000	0.0000000E+000	0.0000000E+000	1.0085422E+002	0.0000000E+000	0.0000000E+000	0.0000000E+000	-1.0085422E+002	0.0000000E+000	0.0000000E+000	0.0000000E+000	1.0854218E+001	0.0000000E+000	0.0000000E+000	0.0000000E+000	-1.0854218E+001	-5.2153664E+000	-1.0854218E+001	-3.798237217537697E-004
8.3358078E+004	2.0218512E-001	-2.6837282E-002	2.0395848E-001	7.5610247E+000	4.347496606438654E+000	-4.4536433E-004	-1.6856369E+000	-7.1143288E+001	-1.2317637E+000	1.000000000000000E+000	9	2.2276018E-002	1.0921840E-001	0	-1.964123840793967E-003	4.8603292E+000	-6.4514154E-001	4.9029589E+000	-7.5610247E+000	-1.2317643E+003	9.2797891E+003	9.3611816E+003	-9.7561028E+001	0.0000000E+000	0.0000000E+000	0.0000000E+000	9.7561028E+001	0.0000000E+000	0.0000000E+000	0.0000000E+000	-9.7561028E+001	0.0000000E+000	0.0000000E+000	0.0000000E+000	7.5610247E+000	0.0000000E+000	0.0000000E+000	0.0000000E+000	-7.5610247E+000	-7.5337405E+000	-7.5610247E+000	-5.626099433724563E-004
6.2258758E+004	2.0300889E-001	-1.8643977E-002	2.0386320E-001	5.2472243E+000	6.404487130843336E+000	-3.6931699E-004	-1.3108573E+000	-1.3711378E+002	-1.1467812E+000	1.000000000000000E+000	9	1.1806219E-002	5.7912458E-002	0	-2.690513793515507E-003	4.8846941E+000	-4.4860169E-001	4.9052501E+000	-5.2472243E+000	-1.1467810E+003	1.2486970E+004	1.2539519E+004	-9.5247223E+001	0.0000000E+000	0.0000000E+000	0.0000000E+000	9.5247223E+001	0.0000000E+000	0.0000000E+000	0.0000000E+000	-9.5247223E+001	0.0000000E+000	0.0000000E+000	0.0000000E+000	5.2472243E+000	0.0000000E+000	0.0000000E+000	0.0000000E+000	-5.2472243E+000	-1.0888712E+001	-5.2472243E+000	-7.263899527215397E-004
4.6503859E+004	2.0413044E-001	-1.2365805E-002	2.0450464E-001	3.4666250E+000	7.502478249632986E+000	-3.3367908E-004	-1.1871163E+000	-2.7676343E+002	-1.0119224E+000	1.000000000000000E+000	9	9.4009787E-003	4.5969512E-002	0	-3.257387418131861E-003	4.8809171E+000	-2.9567599E-001	4.8898644E+000	-3.4666250E+000	-1.0119213E+003	1.6704465E+004	1.6735086E+004	-9.3466621E+001	0.0000000E+000	0.0000000E+000	0.0000000E+000	9.3466621E+001	0.0000000E+000	0.0000000E+000	0.0000000E+000	-9.3466621E+001	0.0000000E+000	0.0000000E+000	0.0000000E+000	3.4666250E+000	0.0000000E+000	0.0000000E+000	0.0000000E+000	-3.4666250E+000	-1.6507654E+001	-3.4666250E+000	-5.668736246163542E-004
3.4738715E+004	2.0528981E-001	-7.5232084E-003	2.0542762E-001	2.0987661E+000	8.326480688789161E+000	-3.2601840E-004	-1.1673772E+000	-6.0898035E+002	-8.1675506E-001	1.000000000000000E+000	9	9.3236864E-003	4.5386724E-002	0	-3.472281935220248E-003	4.8646293E+000	-1.7827295E-001	4.8678946E+000	-2.0987661E+000	-8.1675372E+002	2.2287232E+004	2.2302193E+004	-9.2098763E+001	0.0000000E+000	0.0000000E+000	0.0000000E+000	9.2098763E+001	0.0000000E+000	0.0000000E+000	0.0000000E+000	-9.2098763E+001	0.0000000E+000	0.0000000E+000	0.0000000E+000	2.0987661E+000	0.0000000E+000	0.0000000E+000	0.0000000E+000	-2.0987661E+000	-2.7287535E+001	-2.0987661E+000	-2.148945170883866E-004
2.5951973E+004	2.0653169E-001	-4.0040528E-003	2.0657049E-001	1.1106606E+000	9.150484114623396E+000	-3.1479762E-004	-1.1374334E+000	-1.5316163E+003	-5.7545716E-001	1.000000000000000E+000	9	9.9371551E-003	4.8105396E-002	0	-3.661291014479266E-003	4.8400531E+000	-9.3834646E-002	4.8409624E+000	-1.1106606E+000	-5.7545520E+002	2.9682459E+004	2.9688037E+004	-9.1110657E+001	0.0000000E+000	0.0000000E+000	0.0000000E+000	9.1110657E+001	0.0000000E+000	0.0000000E+000	0.0000000E+000	-9.1110657E+001	0.0000000E+000	0.0000000E+000	0.0000000E+000	1.1106606E+000	0.0000000E+000	0.0000000E+000	0.0000000E+000	-1.1106606E+000	-5.1580662E+001	-1.1106606E+000	-1.890090792590186E-004
1.9382795E+004	2.0779839E-001	-1.4843843E-003	2.0780370E-001	4.0927893E-001	9.974479993717978E+000	-3.0892630E-004	-1.1280481E+000	-5.5316841E+003	-2.8225622E-001	1.000000000000000E+000	9	1.0276191E-002	4.9451433E-002	0	-3.955173419948874E-003	4.8121114E+000	-3.4374770E-002	4.8122339E+000	-4.0927893E-001	-2.8225616E+002	3.9512941E+004	3.9513949E+004	-9.0409279E+001	0.0000000E+000	0.0000000E+000	0.0000000E+000	9.0409279E+001	0.0000000E+000	0.0000000E+000	0.0000000E+000	-9.0409279E+001	0.0000000E+000	0.0000000E+000	0.0000000E+000	4.0927893E-001	0.0000000E+000	0.0000000E+000	0.0000000E+000	-4.0927893E-001	-1.3998962E+002	-4.0927893E-001	-2.938824054696081E-004
1.4474464E+004	2.0903434E-001	4.3272992E-004	2.0903479E-001	-1.1860999E-001	1.079848787284573E+001	-3.0750973E-004	-1.0977879E+000	2.5409768E+004	1.0889237E-001	1.000000000000000E+000	9	1.0470558E-002	5.0090026E-002	0	-4.266667628113594E-003	4.7838826E+000	9.9032959E-003	4.7838926E+000	1.1860999E-001	1.0888923E+002	5.2601508E+004	5.2601621E+004	-8.9881393E+001	0.0000000E+000	0.0000000E+000	0.0000000E+000	8.9881393E+001	0.0000000E+000	0.0000000E+000	0.0000000E+000	-8.9881393E+001	0.0000000E+000	0.0000000E+000	0.0000000E+000	-1.1860999E-001	0.0000000E+000	0.0000000E+000	0.0000000E+000	1.1860999E-001	4.8305960E+002	1.1860999E-001	-3.114942081647197E-004
1.0818732E+004	2.1029162E-001	1.6178315E-003	2.1029785E-001	-4.4078353E-001	1.162247692534584E+001	-2.9914075E-004	-1.1034858E+000	9.0930684E+003	5.3815496E-001	1.000000000000000E+000	9	1.0473952E-002	4.9805321E-002	0	-4.552021016124636E-003	4.7550197E+000	3.6581676E-002	4.7551603E+000	4.4078353E-001	5.3815143E+002	6.9951344E+004	6.9953414E+004	-8.9559219E+001	0.0000000E+000	0.0000000E+000	0.0000000E+000	8.9559219E+001	0.0000000E+000	0.0000000E+000	0.0000000E+000	-8.9559219E+001	0.0000000E+000	0.0000000E+000	0.0000000E+000	-4.4078353E-001	0.0000000E+000	0.0000000E+000	0.0000000E+000	4.4078353E-001	1.2998364E+002	4.4078353E-001	-2.853533880110420E-004
8.0797285E+003	2.1139191E-001	2.5566765E-003	2.1140738E-001	-6.9292921E-001	1.254793774266727E+001	-3.1427571E-004	-1.0807674E+000	7.7045562E+003	1.1268313E+000	1.000000000000000E+000	9	1.0411833E-002	4.9250096E-002	0	-4.708710758995678E-003	4.7298584E+000	5.7205204E-002	4.7302041E+000	6.9292921E-001	1.1268359E+003	9.3169008E+004	9.3175820E+004	-8.9307068E+001	0.0000000E+000	0.0000000E+000	0.0000000E+000	8.9307068E+001	0.0000000E+000	0.0000000E+000	0.0000000E+000	-8.9307068E+001	0.0000000E+000	0.0000000E+000	0.0000000E+000	-6.9292921E-001	0.0000000E+000	0.0000000E+000	0.0000000E+000	6.9292921E-001	8.2682304E+001	6.9292921E-001	-1.566897428710422E-004
6.0326597E+003	2.1251927E-001	2.9981122E-003	2.1254042E-001	-8.0824566E-001	1.371597641147673E+001	-3.0987686E-004	-1.0184591E+000	8.7996094E+003	1.7509595E+000	1.000000000000000E+000	9	1.0263267E-002	4.8288543E-002	0	-5.103127173566673E-003	4.7045193E+000	6.6368930E-002	4.7049875E+000	8.0824566E-001	1.7509534E+003	1.2411566E+005	1.2412801E+005	-8.9191757E+001	0.0000000E+000	0.0000000E+000	0.0000000E+000	8.9191757E+001	0.0000000E+000	0.0000000E+000	0.0000000E+000	-8.9191757E+001	0.0000000E+000	0.0000000E+000	0.0000000E+000	-8.0824566E-001	0.0000000E+000	0.0000000E+000	0.0000000E+000	8.0824566E-001	7.0884361E+001	8.0824566E-001	-3.944164145709946E-004
4.5064424E+003	2.1344450E-001	3.4086963E-003	2.1347171E-001	-9.1493255E-001	1.505368724836444E+001	-3.0072505E-004	-9.8907393E-001	1.0360912E+004	2.6417637E+000	1.000000000000000E+000	9	1.0134508E-002	4.7474712E-002	0	-5.527279769800397E-003	4.6838641E+000	7.4801043E-002	4.6844616E+000	9.1493255E-001	2.6417629E+003	1.6542098E+005	1.6544208E+005	-8.9085068E+001	0.0000000E+000	0.0000000E+000	0.0000000E+000	8.9085068E+001	0.0000000E+000	0.0000000E+000	0.0000000E+000	-8.9085068E+001	0.0000000E+000	0.0000000E+000	0.0000000E+000	-9.1493255E-001	0.0000000E+000	0.0000000E+000	0.0000000E+000	9.1493255E-001	6.2617634E+001	9.1493255E-001	-4.241525962337235E-004
3.3660774E+003	2.1439499E-001	3.3779012E-003	2.1442160E-001	-9.0264922E-001	1.616970250137820E+001	-3.0355819E-004	-1.0024444E+000	1.3997456E+004	3.4738088E+000	1.000000000000000E+000	9	1.0732832E-002	5.0054811E-002	0	-5.815992194614270E-003	4.6631303E+000	7.3469974E-002	4.6637092E+000	9.0264922E-001	3.4738079E+003	2.2048225E+005	2.2050961E+005	-8.9097351E+001	0.0000000E+000	0.0000000E+000	0.0000000E+000	8.9097351E+001	0.0000000E+000	0.0000000E+000	0.0000000E+000	-8.9097351E+001	0.0000000E+000	0.0000000E+000	0.0000000E+000	-9.0264922E-001	0.0000000E+000	0.0000000E+000	0.0000000E+000	9.0264922E-001	6.3469883E+001	9.0264922E-001	-2.887124248138733E-004
2.5158052E+003	2.1528091E-001	3.4055093E-003	2.1530785E-001	-9.0628117E-001	1.750669019154884E+001	-3.0193661E-004	-1.0042320E+000	1.8576379E+004	4.6473508E+000	1.000000000000000E+000	9	1.0175077E-002	4.7258273E-002	0	-6.224363951176819E-003	4.6439319E+000	7.3461935E-002	4.6445127E+000	9.0628117E-001	4.6473481E+003	2.9378456E+005	2.9382131E+005	-8.9093719E+001	0.0000000E+000	0.0000000E+000	0.0000000E+000	8.9093719E+001	0.0000000E+000	0.0000000E+000	0.0000000E+000	-8.9093719E+001	0.0000000E+000	0.0000000E+000	0.0000000E+000	-9.0628117E-001	0.0000000E+000	0.0000000E+000	0.0000000E+000	9.0628117E-001	6.3215481E+001	9.0628117E-001	-4.083717565625490E-004
1.8781967E+003	2.1609960E-001	3.3175666E-003	2.1612507E-001	-8.7953717E-001	1.862293371121632E+001	-3.0307358E-004	-9.9711847E-001	2.5542268E+004	6.0185022E+000	1.000000000000000E+000	9	1.0368159E-002	4.7972959E-002	0	-6.494819785746022E-003	4.6264052E+000	7.1024686E-002	4.6269503E+000	8.7953717E-001	6.0185176E+003	3.9203309E+005	3.9207928E+005	-8.9120461E+001	0.0000000E+000	0.0000000E+000	0.0000000E+000	8.9120461E+001	0.0000000E+000	0.0000000E+000	0.0000000E+000	-8.9120461E+001	0.0000000E+000	0.0000000E+000	0.0000000E+000	-8.7953717E-001	0.0000000E+000	0.0000000E+000	0.0000000E+000	8.7953717E-001	6.5137985E+001	8.7953717E-001	-2.704558345692030E-004
1.4036523E+003	2.1680121E-001	3.1506084E-003	2.1682410E-001	-8.3257776E-001	1.973892987088766E+001	-3.0642861E-004	-9.8981887E-001	3.5988695E+004	7.5987101E+000	1.000000000000000E+000	9	1.0474305E-002	4.8307844E-002	0	-6.847643979438891E-003	4.6115465E+000	6.7016125E-002	4.6120334E+000	8.3257776E-001	7.5987363E+003	5.2288619E+005	5.2294141E+005	-8.9167419E+001	0.0000000E+000	0.0000000E+000	0.0000000E+000	8.9167419E+001	0.0000000E+000	0.0000000E+000	0.0000000E+000	-8.9167419E+001	0.0000000E+000	0.0000000E+000	0.0000000E+000	-8.3257776E-001	0.0000000E+000	0.0000000E+000	0.0000000E+000	8.3257776E-001	6.8812492E+001	8.3257776E-001	-3.528241936928689E-004
1.0476533E+003	2.1745811E-001	2.9674880E-003	2.1747836E-001	-7.8182405E-001	2.085819272403023E+001	-2.9990493E-004	-9.7870153E-001	5.1193352E+004	9.5314589E+000	1.000000000000000E+000	9	1.0533621E-002	4.8435256E-002	0	-7.192457406695570E-003	4.5977302E+000	6.2741779E-002	4.5981584E+000	7.8182405E-001	9.5314365E+003	6.9846725E+005	6.9853225E+005	-8.9218178E+001	0.0000000E+000	0.0000000E+000	0.0000000E+000	8.9218178E+001	0.0000000E+000	0.0000000E+000	0.0000000E+000	-8.9218178E+001	0.0000000E+000	0.0000000E+000	0.0000000E+000	-7.8182405E-001	0.0000000E+000	0.0000000E+000	0.0000000E+000	7.8182405E-001	7.3280197E+001	7.8182405E-001	-3.448134272566791E-004
7.8324554E+002	2.1795355E-001	2.7821860E-003	2.1797131E-001	-7.3134327E-001	2.197718965719105E+001	-2.9893572E-004	-9.7447449E-001	7.3035844E+004	1.1898979E+001	1.000000000000000E+000	9	1.0562291E-002	4.8457254E-002	0	-7.534060336106767E-003	4.5873861E+000	5.8558173E-002	4.5877600E+000	7.3134327E-001	1.1899026E+004	9.3215363E+005	9.3222956E+005	-8.9268654E+001	0.0000000E+000	0.0000000E+000	0.0000000E+000	8.9268654E+001	0.0000000E+000	0.0000000E+000	0.0000000E+000	-8.9268654E+001	0.0000000E+000	0.0000000E+000	0.0000000E+000	-7.3134327E-001	0.0000000E+000	0.0000000E+000	0.0000000E+000	7.3134327E-001	7.8338959E+001	7.3134327E-001	-3.416029294111972E-004
5.8443896E+002	2.1849057E-001	2.6568924E-003	2.1850672E-001	-6.9669467E-001	2.309295299020596E+001	-3.0193661E-004	-9.7667181E-001	1.0249602E+005	1.5153932E+001	1.000000000000000E+000	9	1.0581321E-002	4.8425607E-002	0	-7.856369579798956E-003	4.5761795E+000	5.5647332E-002	4.5765181E+000	6.9669467E-001	1.5153903E+004	1.2461894E+006	1.2462815E+006	-8.9303307E+001	0.0000000E+000	0.0000000E+000	0.0000000E+000	8.9303307E+001	0.0000000E+000	0.0000000E+000	0.0000000E+000	-8.9303307E+001	0.0000000E+000	0.0000000E+000	0.0000000E+000	-6.9669467E-001	0.0000000E+000	0.0000000E+000	0.0000000E+000	6.9669467E-001	8.2235382E+001	6.9669467E-001	-3.223092436921886E-004
4.3681717E+002	2.1884023E-001	2.5881589E-003	2.1885553E-001	-6.7758876E-001	2.420394634961849E+001	-2.9664309E-004	-9.6423250E-001	1.4077628E+005	1.9687761E+001	1.000000000000000E+000	9	1.0587103E-002	4.8374847E-002	0	-8.174243414707481E-003	4.5689049E+000	5.4035094E-002	4.5692244E+000	6.7758876E-001	1.9687781E+004	1.6646869E+006	1.6648033E+006	-8.9322411E+001	0.0000000E+000	0.0000000E+000	0.0000000E+000	8.9322411E+001	0.0000000E+000	0.0000000E+000	0.0000000E+000	-8.9322411E+001	0.0000000E+000	0.0000000E+000	0.0000000E+000	-6.7758876E-001	0.0000000E+000	0.0000000E+000	0.0000000E+000	6.7758876E-001	8.4554398E+001	6.7758876E-001	-3.178738349085258E-004
3.2635764E+002	2.1926259E-001	2.4966334E-003	2.1927680E-001	-6.5237021E-001	2.531490405573277E+001	-3.0765880E-004	-9.8155081E-001	1.9533119E+005	2.5321871E+001	1.000000000000000E+000	9	1.0593904E-002	4.8312929E-002	0	-8.441118798620998E-003	4.5601501E+000	5.1924150E-002	4.5604458E+000	6.5237021E-001	2.5321730E+004	2.2238500E+006	2.2239943E+006	-8.9347633E+001	0.0000000E+000	0.0000000E+000	0.0000000E+000	8.9347633E+001	0.0000000E+000	0.0000000E+000	0.0000000E+000	-8.9347633E+001	0.0000000E+000	0.0000000E+000	0.0000000E+000	-6.5237021E-001	0.0000000E+000	0.0000000E+000	0.0000000E+000	6.5237021E-001	8.7823296E+001	6.5237021E-001	-2.668753839135170E-004
2.4382964E+002	2.1958783E-001	2.4664483E-003	2.1960169E-001	-6.4352900E-001	2.643570026898669E+001	-2.9660581E-004	-9.5387888E-001	2.6464375E+005	3.3383690E+001	1.000000000000000E+000	9	1.0594771E-002	4.8245400E-002	0	-8.741698700569985E-003	4.5534120E+000	5.1144704E-002	4.5536990E+000	6.4352900E-001	3.3383836E+004	2.9721490E+006	2.9723365E+006	-8.9356468E+001	0.0000000E+000	0.0000000E+000	0.0000000E+000	8.9356468E+001	0.0000000E+000	0.0000000E+000	0.0000000E+000	-8.9356468E+001	0.0000000E+000	0.0000000E+000	0.0000000E+000	-6.4352900E-001	0.0000000E+000	0.0000000E+000	0.0000000E+000	6.4352900E-001	8.9029976E+001	6.4352900E-001	-3.005799019489865E-004
1.8215671E+002	2.1988209E-001	2.6322340E-003	2.1989784E-001	-6.8586165E-001	2.754036669476773E+001	-3.0068780E-004	-9.5345062E-001	3.3193306E+005	4.7561722E+001	1.000000000000000E+000	9	1.0593007E-002	4.8172403E-002	0	-9.097255915254355E-003	4.5472407E+000	5.4435544E-002	4.5475664E+000	6.8586165E-001	4.7561582E+004	3.9730395E+006	3.9733243E+006	-8.9314140E+001	0.0000000E+000	0.0000000E+000	0.0000000E+000	8.9314140E+001	0.0000000E+000	0.0000000E+000	0.0000000E+000	-8.9314140E+001	0.0000000E+000	0.0000000E+000	0.0000000E+000	-6.8586165E-001	0.0000000E+000	0.0000000E+000	0.0000000E+000	6.8586165E-001	8.3534401E+001	6.8586165E-001	-3.555572146843704E-004
