EC-Lab ASCII FILE
Nb header lines : 66                          

Potentio Electrochemical Impedance Spectroscopy

Run on channel : 3 (SN 50730)
User : 
CE vs. WE compliance from -10 V to 10 V
Electrode connection : standard
Potential control : Ewe
Ewe ctrl range : min = -10.00 V, max = 10.00 V
Safety Limits :
	Do not start on E overload
Acquisition started on : 02/14/2023 16:56:05.168
Loaded Setting File :  NONE
Saved on :
	File : NoPattern_IDFF_05Fe_2MHCL_ve10cms_EIS_PCGA_01_PEIS_C01_01_PEIS_C03.mpr
	Directory : C:\Users\sto063\Documents\EC-Lab\Data\Baichen\Micormolding\20230214_denseNoPatternS4_IDFF\
	Host : 131.155.90.158
Device : VSP-3e (SN .003050)
Address : USB
EC-Lab for windows v11.43 (software)
Internet server v11.40 (firmware)
Command interpretor v11.40 (firmware)
Electrode material : 
Initial state : 
Electrolyte : 
Comments : 
Electrode surface area : 0.001 cm2
Characteristic mass : 0.001 g
Equivalent Weight : 0.000 g/eq.
Density : 0.000 g/cm3
Volume (V) : 0.001 cm3
Cycle Definition : Charge/Discharge alternance
Mode                Single sine         
E (V)               0.0000              
vs.                 Eoc                 
tE (h:m:s)          0:00:0.0000         
record              0                   
dI                  0.000               
unit dI             mA                  
dt (s)              0.000               
fi                  200.000             
unit fi             kHz                 
ff                  4.000               
unit ff             mHz                 
Nd                  8                   
Points              per decade          
spacing             Logarithmic         
Va (mV)             10.0                
pw                  0.10                
Na                  5                   
corr                0                   
E range min (V)     -10.000             
E range max (V)     10.000              
I Range             Auto                
Bandwidth           5                   
nc cycles           0                   
goto Ns'            0                   
nr cycles           0                   
inc. cycle          0                   

Modify on : 02/14/2023 16:56
ff                  20.000              

freq/Hz	Re(Z)/Ohm	-Im(Z)/Ohm	|Z|/Ohm	Phase(Z)/deg	time/s	<Ewe>/V	<I>/mA	Cs/uF	Cp/uF	cycle number	I Range	|Ewe|/V	|I|/A	Ns	(Q-Qo)/mA.h	Re(Y)/Ohm-1	Im(Y)/Ohm-1	|Y|/Ohm-1	Phase(Y)/deg	Re(C)/nF	Im(C)/nF	|C|/nF	Phase(C)/deg	Re(M)	Im(M)	|M|	Phase(M)/deg	Re(Permittivity)	Im(Permittivity)	|Permittivity|	Phase(Permittivity)/deg	Re(Resistivity)/Ohm.cm	Im(Resistivity)/Ohm.cm	|Resistivity|/Ohm.cm	Phase(Resistivity)/deg	Re(Conductivity)/mS/cm	Im(Conductivity)/mS/cm	|Conductivity|/mS/cm	Phase(Conductivity)/deg	Tan(Delta)	Loss Angle(Delta)/deg	dq/mA.h	
1.9999814E+005	1.9721574E-001	-7.4038289E-002	2.1065544E-001	2.0577028E+001	1.738480349216843E+000	-3.8622294E-004	-1.3038012E+000	-1.0748251E+001	-1.3277161E+000	1.000000000000000E+000	9	8.5842150E-004	4.0750029E-003	0	-4.770821304315921E-004	4.4442267E+000	-1.6684418E+000	4.7470884E+000	-2.0577028E+001	-1.3277161E+003	3.5366362E+003	3.7776482E+003	-1.1057703E+002	0.0000000E+000	0.0000000E+000	0.0000000E+000	1.1057703E+002	0.0000000E+000	0.0000000E+000	0.0000000E+000	-1.1057703E+002	0.0000000E+000	0.0000000E+000	0.0000000E+000	2.0577028E+001	0.0000000E+000	0.0000000E+000	0.0000000E+000	-2.0577028E+001	-2.6636992E+000	-2.0577028E+001	-4.770821304315921E-004
1.4956020E+005	2.0528965E-001	-5.3591397E-002	2.1216945E-001	1.4630692E+001	2.562479161686497E+000	-4.0007176E-004	-1.3393499E+000	-1.9856789E+001	-1.2668741E+000	1.000000000000000E+000	9	1.8209051E-003	8.5823154E-003	0	-7.997098821442988E-004	4.5603833E+000	-1.1904999E+000	4.7132139E+000	-1.4630692E+001	-1.2668740E+003	4.8529458E+003	5.0155811E+003	-1.0463069E+002	0.0000000E+000	0.0000000E+000	0.0000000E+000	1.0463069E+002	0.0000000E+000	0.0000000E+000	0.0000000E+000	-1.0463069E+002	0.0000000E+000	0.0000000E+000	0.0000000E+000	1.4630692E+001	0.0000000E+000	0.0000000E+000	0.0000000E+000	-1.4630692E+001	-3.8306456E+000	-1.4630692E+001	-3.226277517127067E-004
1.1184308E+005	2.0957986E-001	-3.8617622E-002	2.1310803E-001	1.0440333E+001	3.386491734156152E+000	-4.2983834E-004	-1.6665334E+000	-3.6848980E+001	-1.2100321E+000	1.000000000000000E+000	9	4.7237556E-003	2.2166014E-002	0	-1.152333109496213E-003	4.6147680E+000	-8.5032690E-001	4.6924558E+000	-1.0440333E+001	-1.2100319E+003	6.5669077E+003	6.6774585E+003	-1.0044033E+002	0.0000000E+000	0.0000000E+000	0.0000000E+000	1.0044033E+002	0.0000000E+000	0.0000000E+000	0.0000000E+000	-1.0044033E+002	0.0000000E+000	0.0000000E+000	0.0000000E+000	1.0440333E+001	0.0000000E+000	0.0000000E+000	0.0000000E+000	-1.0440333E+001	-5.4270525E+000	-1.0440333E+001	-3.526232273519142E-004
8.3636430E+004	2.1087827E-001	-2.7053541E-002	2.1260653E-001	7.3105350E+000	4.347477406467078E+000	-4.6409661E-004	-1.7923210E+000	-7.0339706E+001	-1.1389260E+000	1.000000000000000E+000	9	2.3060029E-002	1.0846341E-001	0	-1.695946389937773E-003	4.6652894E+000	-5.9850925E-001	4.7035241E+000	-7.3105350E+000	-1.1389255E+003	8.8777568E+003	8.9505146E+003	-9.7310532E+001	0.0000000E+000	0.0000000E+000	0.0000000E+000	9.7310532E+001	0.0000000E+000	0.0000000E+000	0.0000000E+000	-9.7310532E+001	0.0000000E+000	0.0000000E+000	0.0000000E+000	7.3105350E+000	0.0000000E+000	0.0000000E+000	0.0000000E+000	-7.3105350E+000	-7.7948489E+000	-7.3105350E+000	-5.436132804415602E-004
6.2546391E+004	2.1140885E-001	-1.8815191E-002	2.1224447E-001	5.0858717E+000	6.404484357481124E+000	-3.7036074E-004	-1.4805386E+000	-1.3524127E+002	-1.0628054E+000	1.000000000000000E+000	9	1.2791003E-002	6.0265426E-002	0	-2.412402348341938E-003	4.6929984E+000	-4.1767251E-001	4.7115479E+000	-5.0858717E+000	-1.0628049E+003	1.1941759E+004	1.1988960E+004	-9.5085869E+001	0.0000000E+000	0.0000000E+000	0.0000000E+000	9.5085869E+001	0.0000000E+000	0.0000000E+000	0.0000000E+000	-9.5085869E+001	0.0000000E+000	0.0000000E+000	0.0000000E+000	5.0858717E+000	0.0000000E+000	0.0000000E+000	0.0000000E+000	-5.0858717E+000	-1.1236073E+001	-5.0858717E+000	-7.164559584041646E-004
4.6772934E+004	2.1230161E-001	-1.2692505E-002	2.1268068E-001	3.4213700E+000	7.502495902968803E+000	-3.1802221E-004	-1.2988096E+000	-2.6808850E+002	-9.5480961E-001	1.000000000000000E+000	9	9.3029691E-003	4.3741487E-002	0	-2.776892916063468E-003	4.6935039E+000	-2.8060231E-001	4.7018843E+000	-3.4213700E+000	-9.5480994E+002	1.5970654E+004	1.5999171E+004	-9.3421371E+001	0.0000000E+000	0.0000000E+000	0.0000000E+000	9.3421371E+001	0.0000000E+000	0.0000000E+000	0.0000000E+000	-9.3421371E+001	0.0000000E+000	0.0000000E+000	0.0000000E+000	3.4213700E+000	0.0000000E+000	0.0000000E+000	0.0000000E+000	-3.4213700E+000	-1.6726534E+001	-3.4213700E+000	-3.644905677215298E-004
3.4970684E+004	2.1338581E-001	-7.8654112E-003	2.1353072E-001	2.1109695E+000	8.326473675464513E+000	-3.1099527E-004	-1.2362777E+000	-5.7862152E+002	-7.8508508E-001	1.000000000000000E+000	9	9.2858002E-003	4.3486953E-002	0	-2.993277743961662E-003	4.6799889E+000	-1.7250462E-001	4.6831670E+000	-2.1109695E+000	-7.8508514E+002	2.1299080E+004	2.1313545E+004	-9.2110970E+001	0.0000000E+000	0.0000000E+000	0.0000000E+000	9.2110970E+001	0.0000000E+000	0.0000000E+000	0.0000000E+000	-9.2110970E+001	0.0000000E+000	0.0000000E+000	0.0000000E+000	2.1109695E+000	0.0000000E+000	0.0000000E+000	0.0000000E+000	-2.1109695E+000	-2.7129644E+001	-2.1109695E+000	-2.163848278981945E-004
2.6156100E+004	2.1453655E-001	-4.3290905E-003	2.1458022E-001	1.1560034E+000	9.150490487954812E+000	-3.0913134E-004	-1.2273766E+000	-1.4055635E+003	-5.7209009E-001	1.000000000000000E+000	9	9.9079236E-003	4.6173517E-002	0	-3.336669645729164E-003	4.6593132E+000	-9.4019361E-002	4.6602616E+000	-1.1560034E+000	-5.7209137E+002	2.8351043E+004	2.8356814E+004	-9.1156006E+001	0.0000000E+000	0.0000000E+000	0.0000000E+000	9.1156006E+001	0.0000000E+000	0.0000000E+000	0.0000000E+000	-9.1156006E+001	0.0000000E+000	0.0000000E+000	0.0000000E+000	1.1560034E+000	0.0000000E+000	0.0000000E+000	0.0000000E+000	-1.1560034E+000	-4.9556957E+001	-1.1560034E+000	-3.433919017675020E-004
1.9559088E+004	2.1559787E-001	-1.7104083E-003	2.1560465E-001	4.5453662E-001	9.974481167068006E+000	-3.0370735E-004	-1.1854962E+000	-4.7574229E+003	-2.9940227E-001	1.000000000000000E+000	9	1.0301340E-002	4.7778841E-002	0	-3.608924315537636E-003	4.6379728E+000	-3.6794554E-002	4.6381187E+000	-4.5453662E-001	-2.9940216E+002	3.7739813E+004	3.7741000E+004	-9.0454536E+001	0.0000000E+000	0.0000000E+000	0.0000000E+000	9.0454536E+001	0.0000000E+000	0.0000000E+000	0.0000000E+000	-9.0454536E+001	0.0000000E+000	0.0000000E+000	0.0000000E+000	4.5453662E-001	0.0000000E+000	0.0000000E+000	0.0000000E+000	-4.5453662E-001	-1.2605053E+002	-4.5453662E-001	-2.722546698084721E-004
1.4622922E+004	2.1688150E-001	7.4563133E-005	2.1688151E-001	-1.9698095E-002	1.079847509952378E+001	-3.0320408E-004	-1.1736528E+000	1.4596939E+005	1.7253017E-002	1.000000000000000E+000	9	1.0461949E-002	4.8238084E-002	0	-3.796807406142147E-003	4.6108122E+000	1.5851817E-003	4.6108127E+000	1.9698095E-002	1.7253893E+001	5.0183785E+004	5.0183789E+004	-8.9980301E+001	0.0000000E+000	0.0000000E+000	0.0000000E+000	8.9980301E+001	0.0000000E+000	0.0000000E+000	0.0000000E+000	-8.9980301E+001	0.0000000E+000	0.0000000E+000	0.0000000E+000	-1.9698095E-002	0.0000000E+000	0.0000000E+000	0.0000000E+000	1.9698095E-002	2.9086960E+003	1.9698095E-002	-1.878830906045107E-004
1.0939354E+004	2.1782932E-001	1.3280649E-003	2.1783337E-001	-3.4931740E-001	1.162248263202491E+001	-2.9874934E-004	-1.1860361E+000	1.0954918E+004	4.0719169E-001	1.000000000000000E+000	9	1.0478689E-002	4.8104152E-002	0	-4.113480163260052E-003	4.5905795E+000	2.7987910E-002	4.5906649E+000	3.4931740E-001	4.0719409E+002	6.6787617E+004	6.6788859E+004	-8.9650681E+001	0.0000000E+000	0.0000000E+000	0.0000000E+000	8.9650681E+001	0.0000000E+000	0.0000000E+000	0.0000000E+000	-8.9650681E+001	0.0000000E+000	0.0000000E+000	0.0000000E+000	-3.4931740E-001	0.0000000E+000	0.0000000E+000	0.0000000E+000	3.4931740E-001	1.6402008E+002	3.4931740E-001	-3.166727571179053E-004
8.1784604E+003	2.1884136E-001	2.2004379E-003	2.1885242E-001	-5.7608652E-001	1.254040838227957E+001	-2.9744458E-004	-1.1546025E+000	8.8438115E+003	8.9403605E-001	1.000000000000000E+000	9	1.0407705E-002	4.7555815E-002	0	-4.324861845085190E-003	4.5690584E+000	4.5941632E-002	4.5692892E+000	5.7608652E-001	8.9403821E+002	8.8915055E+004	8.8919547E+004	-8.9423912E+001	0.0000000E+000	0.0000000E+000	0.0000000E+000	8.9423912E+001	0.0000000E+000	0.0000000E+000	0.0000000E+000	-8.9423912E+001	0.0000000E+000	0.0000000E+000	0.0000000E+000	-5.7608652E-001	0.0000000E+000	0.0000000E+000	0.0000000E+000	5.7608652E-001	9.9453545E+001	5.7608652E-001	-2.113816818251381E-004
6.1154248E+003	2.1968119E-001	2.6288249E-003	2.1969692E-001	-6.8559980E-001	1.369166051701177E+001	-3.0564578E-004	-1.0851249E+000	9.8999238E+003	1.4174483E+000	1.000000000000000E+000	9	1.0267891E-002	4.6736617E-002	0	-4.615938867202235E-003	4.5513992E+000	5.4464523E-002	4.5517249E+000	6.8559980E-001	1.4174492E+003	1.1845091E+005	1.1845940E+005	-8.9314400E+001	0.0000000E+000	0.0000000E+000	0.0000000E+000	8.9314400E+001	0.0000000E+000	0.0000000E+000	0.0000000E+000	-8.9314400E+001	0.0000000E+000	0.0000000E+000	0.0000000E+000	-6.8559980E-001	0.0000000E+000	0.0000000E+000	0.0000000E+000	6.8559980E-001	8.3566307E+001	6.8559980E-001	-2.910770221170450E-004
4.5714629E+003	2.2042370E-001	2.9838691E-003	2.2044389E-001	-7.7556390E-001	1.502968836722721E+001	-2.9267295E-004	-1.0487380E+000	1.1667698E+004	2.1377089E+000	1.000000000000000E+000	9	1.0194803E-002	4.6246700E-002	0	-5.062992349872366E-003	4.5358858E+000	6.1402153E-002	4.5363016E+000	7.7556390E-001	2.1377148E+003	1.5791634E+005	1.5793081E+005	-8.9224434E+001	0.0000000E+000	0.0000000E+000	0.0000000E+000	8.9224434E+001	0.0000000E+000	0.0000000E+000	0.0000000E+000	-8.9224434E+001	0.0000000E+000	0.0000000E+000	0.0000000E+000	-7.7556390E-001	0.0000000E+000	0.0000000E+000	0.0000000E+000	7.7556390E-001	7.3871773E+001	7.7556390E-001	-4.470534826701306E-004
3.4210947E+003	2.2121495E-001	3.0457454E-003	2.2123592E-001	-7.8881347E-001	1.614566639356781E+001	-2.9118182E-004	-1.0408796E+000	1.5274303E+004	2.8949251E+000	1.000000000000000E+000	9	1.0765807E-002	4.8662111E-002	0	-5.354557714348452E-003	4.5196338E+000	6.2227499E-002	4.5200620E+000	7.8881347E-001	2.8949153E+003	2.1026077E+005	2.1028069E+005	-8.9211189E+001	0.0000000E+000	0.0000000E+000	0.0000000E+000	8.9211189E+001	0.0000000E+000	0.0000000E+000	0.0000000E+000	-8.9211189E+001	0.0000000E+000	0.0000000E+000	0.0000000E+000	-7.8881347E-001	0.0000000E+000	0.0000000E+000	0.0000000E+000	7.8881347E-001	7.2630806E+001	7.8881347E-001	-2.915653644760862E-004
2.5675354E+003	2.2045451E-001	2.8569454E-003	2.2047302E-001	-7.4247408E-001	1.748292197706178E+001	-2.9369813E-004	-1.0433749E+000	2.1697104E+004	3.6432981E+000	1.000000000000000E+000	9	1.0004763E-002	4.5378625E-002	0	-5.722005000373970E-003	4.5353212E+000	5.8774784E-002	4.5357022E+000	7.4247408E-001	3.6433147E+003	2.8113297E+005	2.8115656E+005	-8.9257523E+001	0.0000000E+000	0.0000000E+000	0.0000000E+000	8.9257523E+001	0.0000000E+000	0.0000000E+000	0.0000000E+000	-8.9257523E+001	0.0000000E+000	0.0000000E+000	0.0000000E+000	-7.4247408E-001	0.0000000E+000	0.0000000E+000	0.0000000E+000	7.4247408E-001	7.7164413E+001	7.4247408E-001	-3.674472860255174E-004
1.8382352E+003	2.2256948E-001	3.0243595E-003	2.2259003E-001	-7.7850914E-001	1.859892296339967E+001	-2.9108865E-004	-1.0749760E+000	2.8627646E+004	5.2849517E+000	1.000000000000000E+000	9	1.0256268E-002	4.6076942E-002	0	-6.070579593206859E-003	4.4921494E+000	6.1041053E-002	4.4925642E+000	7.7850914E-001	5.2849653E+003	3.8893163E+005	3.8896753E+005	-8.9221489E+001	0.0000000E+000	0.0000000E+000	0.0000000E+000	8.9221489E+001	0.0000000E+000	0.0000000E+000	0.0000000E+000	-8.9221489E+001	0.0000000E+000	0.0000000E+000	0.0000000E+000	-7.7850914E-001	0.0000000E+000	0.0000000E+000	0.0000000E+000	7.7850914E-001	7.3592270E+001	7.7850914E-001	-3.485745928328895E-004
1.3721958E+003	2.2336201E-001	2.9055688E-003	2.2338091E-001	-7.4528092E-001	1.971443528300733E+001	-2.9485373E-004	-1.0536356E+000	3.9918379E+004	6.7537208E+000	1.000000000000000E+000	9	1.0367453E-002	4.6411544E-002	0	-6.434537365157157E-003	4.4762797E+000	5.8228966E-002	4.4766583E+000	7.4528092E-001	6.7536895E+003	5.1918394E+005	5.1922788E+005	-8.9254723E+001	0.0000000E+000	0.0000000E+000	0.0000000E+000	8.9254723E+001	0.0000000E+000	0.0000000E+000	0.0000000E+000	-8.9254723E+001	0.0000000E+000	0.0000000E+000	0.0000000E+000	-7.4528092E-001	0.0000000E+000	0.0000000E+000	0.0000000E+000	7.4528092E-001	7.6873764E+001	7.4528092E-001	-3.639577719502978E-004
1.0240171E+003	2.2378059E-001	2.8093597E-003	2.2379822E-001	-7.1925807E-001	2.082994802936446E+001	-2.9448097E-004	-1.0745664E+000	5.5322980E+004	8.7178020E+000	1.000000000000000E+000	9	1.0416435E-002	4.6543870E-002	0	-6.763271621560885E-003	4.4679589E+000	5.6091115E-002	4.4683108E+000	7.1925807E-001	8.7178408E+003	6.9441981E+005	6.9447456E+005	-8.9280739E+001	0.0000000E+000	0.0000000E+000	0.0000000E+000	8.9280739E+001	0.0000000E+000	0.0000000E+000	0.0000000E+000	-8.9280739E+001	0.0000000E+000	0.0000000E+000	0.0000000E+000	-7.1925807E-001	0.0000000E+000	0.0000000E+000	0.0000000E+000	7.1925807E-001	7.9655373E+001	7.1925807E-001	-3.287342564037279E-004
7.6329034E+002	2.2415364E-001	2.6270584E-003	2.2416903E-001	-6.7147011E-001	2.194919037583168E+001	-2.8696939E-004	-1.0392596E+000	7.9370773E+004	1.0900561E+001	1.000000000000000E+000	9	1.0441975E-002	4.6580810E-002	0	-7.104150866525455E-003	4.4606133E+000	5.2277941E-002	4.4609194E+000	6.7147011E-001	1.0900569E+004	9.3008988E+005	9.3015375E+005	-8.9328529E+001	0.0000000E+000	0.0000000E+000	0.0000000E+000	8.9328529E+001	0.0000000E+000	0.0000000E+000	0.0000000E+000	-8.9328529E+001	0.0000000E+000	0.0000000E+000	0.0000000E+000	-6.7147011E-001	0.0000000E+000	0.0000000E+000	0.0000000E+000	6.7147011E-001	8.5324951E+001	6.7147011E-001	-3.408792449645700E-004
5.6945331E+002	2.2463121E-001	2.4109890E-003	2.2464414E-001	-6.1493766E-001	2.306494949554326E+001	-2.9791056E-004	-1.0655907E+000	1.1592223E+005	1.3352637E+001	1.000000000000000E+000	9	1.0463570E-002	4.6578426E-002	0	-7.474361106491337E-003	4.4512286E+000	4.7775481E-002	4.4514852E+000	6.1493766E-001	1.3352619E+004	1.2440618E+006	1.2441334E+006	-8.9385063E+001	0.0000000E+000	0.0000000E+000	0.0000000E+000	8.9385063E+001	0.0000000E+000	0.0000000E+000	0.0000000E+000	-8.9385063E+001	0.0000000E+000	0.0000000E+000	0.0000000E+000	-6.1493766E-001	0.0000000E+000	0.0000000E+000	0.0000000E+000	6.1493766E-001	9.3169731E+001	6.1493766E-001	-3.702102399658824E-004
4.2513608E+002	2.2489196E-001	2.2886379E-003	2.2490360E-001	-5.8305675E-001	2.418069466854649E+001	-2.9653127E-004	-1.0563357E+000	1.6357430E+005	1.6938559E+001	1.000000000000000E+000	9	1.0468143E-002	4.6545021E-002	0	-7.781705889894317E-003	4.4461193E+000	4.5246430E-002	4.4463496E+000	5.8305675E-001	1.6938467E+004	1.6644598E+006	1.6645459E+006	-8.9416946E+001	0.0000000E+000	0.0000000E+000	0.0000000E+000	8.9416946E+001	0.0000000E+000	0.0000000E+000	0.0000000E+000	-8.9416946E+001	0.0000000E+000	0.0000000E+000	0.0000000E+000	-5.8305675E-001	0.0000000E+000	0.0000000E+000	0.0000000E+000	5.8305675E-001	9.8264542E+001	5.8305675E-001	-3.073447834029798E-004
3.1713113E+002	2.2511749E-001	2.2991365E-003	2.2512923E-001	-5.8514440E-001	2.529142120122560E+001	-2.9677356E-004	-1.0693710E+000	2.1828128E+005	2.2765764E+001	1.000000000000000E+000	9	1.0472273E-002	4.6516716E-002	0	-8.078392016908154E-003	4.4416614E+000	4.5362916E-002	4.4418931E+000	5.8514440E-001	2.2765748E+004	2.2290853E+006	2.2292015E+006	-8.9414856E+001	0.0000000E+000	0.0000000E+000	0.0000000E+000	8.9414856E+001	0.0000000E+000	0.0000000E+000	0.0000000E+000	-8.9414856E+001	0.0000000E+000	0.0000000E+000	0.0000000E+000	-5.8514440E-001	0.0000000E+000	0.0000000E+000	0.0000000E+000	5.8514440E-001	9.7913933E+001	5.8514440E-001	-2.966861270138369E-004
2.3658990E+002	2.2535880E-001	2.3409014E-003	2.2537096E-001	-5.9513515E-001	2.640141370732454E+001	-3.0163839E-004	-1.0584213E+000	2.8736959E+005	3.1003531E+001	1.000000000000000E+000	9	1.0474294E-002	4.6475794E-002	0	-8.360844772223177E-003	4.4368896E+000	4.6087932E-002	4.4371290E+000	5.9513515E-001	3.1003705E+004	2.9847128E+006	2.9848738E+006	-8.9404861E+001	0.0000000E+000	0.0000000E+000	0.0000000E+000	8.9404861E+001	0.0000000E+000	0.0000000E+000	0.0000000E+000	-8.9404861E+001	0.0000000E+000	0.0000000E+000	0.0000000E+000	-5.9513515E-001	0.0000000E+000	0.0000000E+000	0.0000000E+000	5.9513515E-001	9.6270096E+001	5.9513515E-001	-2.824527553150231E-004
1.7641125E+002	2.2554879E-001	2.3981044E-003	2.2556154E-001	-6.0916346E-001	2.751015818663291E+001	-2.9373539E-004	-1.0481235E+000	3.7620603E+005	4.2523777E+001	1.000000000000000E+000	9	1.0472799E-002	4.6429895E-002	0	-8.729330096529590E-003	4.4331293E+000	4.7134396E-002	4.4333797E+000	6.0916346E-001	4.2523633E+004	3.9994870E+006	3.9997130E+006	-8.9390839E+001	0.0000000E+000	0.0000000E+000	0.0000000E+000	8.9390839E+001	0.0000000E+000	0.0000000E+000	0.0000000E+000	-8.9390839E+001	0.0000000E+000	0.0000000E+000	0.0000000E+000	-6.0916346E-001	0.0000000E+000	0.0000000E+000	0.0000000E+000	6.0916346E-001	9.4052948E+001	6.0916346E-001	-3.684853243064133E-004
1.3155768E+002	2.2579587E-001	2.6116944E-003	2.2581097E-001	-6.6268879E-001	2.861439877239172E+001	-2.9914072E-004	-1.0452558E+000	4.6321391E+005	6.1963539E+001	1.000000000000000E+000	9	1.0472652E-002	4.6377957E-002	0	-9.031271192522099E-003	4.4281864E+000	5.1219136E-002	4.4284825E+000	6.6268879E-001	6.1963570E+004	5.3571005E+006	5.3574590E+006	-8.9337311E+001	0.0000000E+000	0.0000000E+000	0.0000000E+000	8.9337311E+001	0.0000000E+000	0.0000000E+000	0.0000000E+000	-8.9337311E+001	0.0000000E+000	0.0000000E+000	0.0000000E+000	-6.6268879E-001	0.0000000E+000	0.0000000E+000	0.0000000E+000	6.6268879E-001	8.6455696E+001	6.6268879E-001	-3.019410959925091E-004
