EC-Lab ASCII FILE
Nb header lines : 79                          

Potentio Electrochemical Impedance Spectroscopy

Run on channel : 1 (SN 5680)
User : 
Electrode connection : standard
Potential control : Ewe
Ewe ctrl range : min = 0.00 V, max = 5.00 V
Ewe,I filtering : 50 kHz
Safety Limits :
	Do not start on E overload
Channel : Floating
Acquisition started on : 01/21/2022 12:10:31.015
Loaded Setting File :  C:\Data\baili\Compression Ratio Tests\final\SGL 2.5 Felt ve=2\EIS_fullcell_CR20_flowthrough_C01.mpr
Saved on :
	File : EIS_fullcell_CR30_flowthrough_C01.mpr
	Directory : C:\Data\baili\Compression Ratio Tests\final\SGL 2.5 Felt ve=2\
	Host : 192.168.0.1
Device : SP-300 (SN 0955)
Address : 192.168.0.4
EC-Lab for windows v11.36 (software)
Internet server v11.36 (firmware)
Command interpretor v11.36 (firmware)
Electrode material : 
Initial state : 
Electrolyte : 
Comments : 
Current amplifier : B-10A5V
Cable : standard
Electrode surface area : 0.001 cm²
Characteristic mass : 0.001 g
Equivalent Weight : 0.000 g/eq.
Density : 0.000 g/cm3
Volume (V) : 0.000 m³
Record Power
Cycle Definition : Charge/Discharge alternance
External device configuration :
   device type : Other
   device name : Other
   Analog OUT : 
      mode : E/V
      unit : speed/rpm
      max : 150.000 at 5.000 V
      min : 0.000 at 0.000 V
      current : 32.000
Mode                Single sine         
E (V)               0.0000              
vs.                 Eoc                 
tE (h:m:s)          0:00:0.0000         
record              0                   
dI                  0.000               
unit dI             mA                  
dt (s)              0.000               
fi                  200.000             
unit fi             kHz                 
ff                  30.000              
unit ff             mHz                 
Nd                  12                  
Points              per decade          
spacing             Logarithmic         
Va (mV)             10.0                
pw                  0.10                
Na                  3                   
corr                0                   
E range min (V)     0.000               
E range max (V)     5.000               
I Range             Auto                
Bandwidth           8                   
nc cycles           3                   
goto Ns'            0                   
nr cycles           0                   
inc. cycle          0                   

Modify on : 01/21/2022 12:13
nc cycles           4                   

freq/Hz	Re(Z)/Ohm	-Im(Z)/Ohm	|Z|/Ohm	Phase(Z)/deg	time/s	<Ewe>/V	<I>/mA	Cs/µF	Cp/µF	cycle number	I Range	|Ewe|/V	|I|/A	Ns	(Q-Qo)/mA.h	Analog OUT/V	P/W	Re(Y)/Ohm-1	Im(Y)/Ohm-1	|Y|/Ohm-1	Phase(Y)/deg	Re(C)/nF	Im(C)/nF	|C|/nF	Phase(C)/deg	Re(M)	Im(M)	|M|	Phase(M)/deg	Re(Permittivity)	Im(Permittivity)	|Permittivity|	Phase(Permittivity)/deg	Re(Resistivity)/Ohm.cm	Im(Resistivity)/Ohm.cm	|Resistivity|/Ohm.cm	Phase(Resistivity)/deg	Re(Conductivity)/mS/cm	Im(Conductivity)/mS/cm	|Conductivity|/mS/cm	Phase(Conductivity)/deg	Tan(Delta)	Loss Angle(Delta)/deg	dq/mA.h	
1.9999814E+005	7.9482920E-002	-2.3271076E-002	8.2819551E-002	1.6319019E+001	1.783485018037027E+000	1.3898761E+000	-1.3644894E+001	-3.4196186E+001	-2.6998827E+000	1.000000000000000E+000	65	9.5867943E-003	1.1575521E-001	0	-2.566582181325079E-003	3.2000000E+001	-1.8964712E-002	1.1587990E+001	-3.3927412E+000	1.2074444E+001	-1.6319019E+001	-2.6998821E+003	9.2215146E+003	9.6086260E+003	-1.0631902E+002	0.0000000E+000	0.0000000E+000	0.0000000E+000	1.0631902E+002	0.0000000E+000	0.0000000E+000	0.0000000E+000	-1.0631902E+002	0.0000000E+000	0.0000000E+000	0.0000000E+000	1.6319019E+001	0.0000000E+000	0.0000000E+000	0.0000000E+000	-1.6319019E+001	3.4155240E+000	7.3680984E+001	-2.566582181325079E-003
1.6473055E+005	8.0748029E-002	-1.7803431E-002	8.2687400E-002	1.2433720E+001	2.357487365283305E+000	1.3898562E+000	3.9259377E+000	-5.4267811E+001	-2.5157704E+000	1.000000000000000E+000	65	1.0438368E-002	1.2623891E-001	0	-2.509120633667542E-003	3.2000000E+001	5.4564890E-003	1.1810092E+001	-2.6039045E+000	1.2093741E+001	-1.2433720E+001	-2.5157698E+003	1.1410357E+004	1.1684406E+004	-1.0243372E+002	0.0000000E+000	0.0000000E+000	0.0000000E+000	1.0243372E+002	0.0000000E+000	0.0000000E+000	0.0000000E+000	-1.0243372E+002	0.0000000E+000	0.0000000E+000	0.0000000E+000	1.2433720E+001	0.0000000E+000	0.0000000E+000	0.0000000E+000	-1.2433720E+001	4.5355320E+000	7.7566284E+001	5.746154765753691E-005
1.3568883E+005	8.1801839E-002	-1.3299304E-002	8.2875885E-002	9.2343254E+000	2.930497659166576E+000	1.3898700E+000	3.9689772E+000	-8.8195641E+001	-2.2711644E+000	1.000000000000000E+000	65	1.0551739E-002	1.2731977E-001	0	-2.316939745864935E-003	3.2000000E+001	5.5163624E-003	1.1909862E+001	-1.9362997E+000	1.2066236E+001	-9.2343254E+000	-2.2711655E+003	1.3969562E+004	1.4152979E+004	-9.9234329E+001	0.0000000E+000	0.0000000E+000	0.0000000E+000	9.9234329E+001	0.0000000E+000	0.0000000E+000	0.0000000E+000	-9.9234329E+001	0.0000000E+000	0.0000000E+000	0.0000000E+000	9.2343254E+000	0.0000000E+000	0.0000000E+000	0.0000000E+000	-9.2343254E+000	6.1508360E+000	8.0765671E+001	1.921808878026072E-004
1.1175957E+005	8.2787476E-002	-9.4455862E-003	8.3324581E-002	6.5089803E+000	3.502485126344254E+000	1.3898602E+000	3.9671137E+000	-1.5076707E+002	-1.9373945E+000	1.000000000000000E+000	65	1.0564938E-002	1.2679258E-001	0	-1.825430045552862E-003	3.2000000E+001	5.5137333E-003	1.1923902E+001	-1.3604501E+000	1.2001261E+001	-6.5089803E+000	-1.9373943E+003	1.6980629E+004	1.7090795E+004	-9.6508980E+001	0.0000000E+000	0.0000000E+000	0.0000000E+000	9.6508980E+001	0.0000000E+000	0.0000000E+000	0.0000000E+000	-9.6508980E+001	0.0000000E+000	0.0000000E+000	0.0000000E+000	6.5089803E+000	0.0000000E+000	0.0000000E+000	0.0000000E+000	-6.5089803E+000	8.7646732E+000	8.3491020E+001	4.915097003120724E-004
9.2052031E+004	8.3541997E-002	-6.2465067E-003	8.3775200E-002	4.2760978E+000	4.076480140240164E+000	1.3898616E+000	3.8720911E+000	-2.7678946E+002	-1.5388384E+000	1.000000000000000E+000	65	1.0543278E-002	1.2585202E-001	0	-6.187964141971122E-004	3.2000000E+001	5.3816708E-003	1.1903479E+001	-8.9003330E-001	1.1936707E+001	-4.2760978E+000	-1.5388392E+003	2.0580725E+004	2.0638174E+004	-9.4276100E+001	0.0000000E+000	0.0000000E+000	0.0000000E+000	9.4276100E+001	0.0000000E+000	0.0000000E+000	0.0000000E+000	-9.4276100E+001	0.0000000E+000	0.0000000E+000	0.0000000E+000	4.2760978E+000	0.0000000E+000	0.0000000E+000	0.0000000E+000	-4.2760978E+000	1.3374195E+001	8.5723900E+001	1.206633631355750E-003
7.5823930E+004	8.4379815E-002	-3.4227807E-003	8.4449209E-002	2.3228710E+000	4.648482220742153E+000	1.3898546E+000	3.8812208E+000	-6.1324609E+002	-1.0073994E+000	1.000000000000000E+000	65	1.0524719E-002	1.2462780E-001	0	5.882313703715594E-004	3.2000000E+001	5.3943326E-003	1.1831707E+001	-4.7994104E-001	1.1841437E+001	-2.3228710E+000	-1.0073984E+003	2.4834834E+004	2.4855258E+004	-9.2322868E+001	0.0000000E+000	0.0000000E+000	0.0000000E+000	9.2322868E+001	0.0000000E+000	0.0000000E+000	0.0000000E+000	-9.2322868E+001	0.0000000E+000	0.0000000E+000	0.0000000E+000	2.3228710E+000	0.0000000E+000	0.0000000E+000	0.0000000E+000	-2.3228710E+000	2.4652416E+001	8.7677132E+001	1.207027784568672E-003
6.2453605E+004	8.5284263E-002	-8.6458126E-004	8.5288644E-002	5.8082420E-001	5.221474727994064E+000	1.3898655E+000	4.0261769E+000	-2.9475205E+003	-3.0289078E-001	1.000000000000000E+000	65	1.0500879E-002	1.2312166E-001	0	4.840478876831734E-004	3.2000000E+001	5.5958447E-003	1.1724288E+001	-1.1885664E-001	1.1724891E+001	-5.8082420E-001	-3.0289160E+002	2.9877832E+004	2.9879367E+004	-9.0580826E+001	0.0000000E+000	0.0000000E+000	0.0000000E+000	9.0580826E+001	0.0000000E+000	0.0000000E+000	0.0000000E+000	-9.0580826E+001	0.0000000E+000	0.0000000E+000	0.0000000E+000	5.8082420E-001	0.0000000E+000	0.0000000E+000	0.0000000E+000	-5.8082420E-001	9.8642273E+001	8.9419174E+001	-1.041834826883860E-004
5.1440023E+004	8.6163715E-002	1.2753378E-003	8.6173154E-002	-8.4799194E-001	5.793495181802427E+000	1.3898561E+000	4.0246863E+000	2.4260166E+003	5.3137392E-001	1.000000000000000E+000	65	1.0474651E-002	1.2155353E-001	0	3.608610390805536E-004	3.2000000E+001	5.5937348E-003	1.1603271E+001	1.7174387E-001	1.1604542E+001	8.4799194E-001	5.3137390E+002	3.5900410E+004	3.5904344E+004	-8.9152008E+001	0.0000000E+000	0.0000000E+000	0.0000000E+000	8.9152008E+001	0.0000000E+000	0.0000000E+000	0.0000000E+000	-8.9152008E+001	0.0000000E+000	0.0000000E+000	0.0000000E+000	-8.4799194E-001	0.0000000E+000	0.0000000E+000	0.0000000E+000	8.4799194E-001	6.7561485E+001	8.9152008E+001	-1.231868486026198E-004
4.2374922E+004	8.7136254E-002	3.3478383E-003	8.7200545E-002	-2.2002633E+000	6.367496702383505E+000	1.3898561E+000	4.0489078E+000	1.1218809E+003	1.6536260E+000	1.000000000000000E+000	65	1.0439772E-002	1.1972141E-001	0	1.170126063670549E-003	3.2000000E+001	5.6273993E-003	1.1459364E+001	4.4027707E-001	1.1467818E+001	2.2002633E+000	1.6536265E+003	4.3039945E+004	4.3071699E+004	-8.7799736E+001	0.0000000E+000	0.0000000E+000	0.0000000E+000	8.7799736E+001	0.0000000E+000	0.0000000E+000	0.0000000E+000	-8.7799736E+001	0.0000000E+000	0.0000000E+000	0.0000000E+000	-2.2002633E+000	0.0000000E+000	0.0000000E+000	0.0000000E+000	2.2002633E+000	2.6027617E+001	8.7799736E+001	8.092650245899956E-004
3.4896449E+004	8.8316523E-002	5.1719421E-003	8.8467829E-002	-3.3514953E+000	6.940478809614433E+000	1.3898786E+000	4.0636268E+000	8.8183075E+002	3.0138512E+000	1.000000000000000E+000	65	1.0418997E-002	1.1777160E-001	0	1.755404775140186E-003	3.2000000E+001	5.6479480E-003	1.1284211E+001	6.6081959E-001	1.1303544E+001	3.3514953E+000	3.0138501E+003	5.1464781E+004	5.1552953E+004	-8.6648506E+001	0.0000000E+000	0.0000000E+000	0.0000000E+000	8.6648506E+001	0.0000000E+000	0.0000000E+000	0.0000000E+000	-8.6648506E+001	0.0000000E+000	0.0000000E+000	0.0000000E+000	-3.3514953E+000	0.0000000E+000	0.0000000E+000	0.0000000E+000	3.3514953E+000	1.7076084E+001	8.6648506E+001	5.852787114696370E-004
2.8744803E+004	8.9647360E-002	6.7969225E-003	8.9904658E-002	-4.3357811E+000	7.513499930180842E+000	1.3898591E+000	4.0485353E+000	8.1460760E+002	4.6559544E+000	1.000000000000000E+000	65	1.0395171E-002	1.1562439E-001	0	2.880059472411871E-003	3.2000000E+001	5.6268936E-003	1.1091062E+001	8.4090698E-001	1.1122894E+001	4.3357811E+000	4.6559585E+003	6.1409266E+004	6.1585516E+004	-8.5664215E+001	0.0000000E+000	0.0000000E+000	0.0000000E+000	8.5664215E+001	0.0000000E+000	0.0000000E+000	0.0000000E+000	-8.5664215E+001	0.0000000E+000	0.0000000E+000	0.0000000E+000	-4.3357811E+000	0.0000000E+000	0.0000000E+000	0.0000000E+000	4.3357811E+000	1.3189404E+001	8.5664215E+001	1.124654697271685E-003
2.3678742E+004	9.1101669E-002	8.3937244E-003	9.1487534E-002	-5.2641296E+000	8.086485344072571E+000	1.3898624E+000	4.1057353E+000	8.0076819E+002	6.7405043E+000	1.000000000000000E+000	65	1.0371208E-002	1.1336198E-001	0	4.711160627271566E-003	3.2000000E+001	5.7064071E-003	1.0884350E+001	1.0028381E+000	1.0930450E+001	5.2641296E+000	6.7405039E+003	7.3158367E+004	7.3468234E+004	-8.4735870E+001	0.0000000E+000	0.0000000E+000	0.0000000E+000	8.4735870E+001	0.0000000E+000	0.0000000E+000	0.0000000E+000	-8.4735870E+001	0.0000000E+000	0.0000000E+000	0.0000000E+000	-5.2641296E+000	0.0000000E+000	0.0000000E+000	0.0000000E+000	5.2641296E+000	1.0853545E+001	8.4735870E+001	1.831101154859695E-003
1.9503414E+004	9.2619441E-002	9.7808549E-003	9.3134448E-002	-6.0282416E+000	8.659492064587539E+000	1.3898717E+000	4.1113253E+000	8.3432001E+002	9.2016478E+000	1.000000000000000E+000	65	1.0361147E-002	1.1124936E-001	0	4.415991810413802E-003	3.2000000E+001	5.7142149E-003	1.0677792E+001	1.1276027E+000	1.0737165E+001	6.0282416E+000	9.2016514E+003	8.7134656E+004	8.7619172E+004	-8.3971756E+001	0.0000000E+000	0.0000000E+000	0.0000000E+000	8.3971756E+001	0.0000000E+000	0.0000000E+000	0.0000000E+000	-8.3971756E+001	0.0000000E+000	0.0000000E+000	0.0000000E+000	-6.0282416E+000	0.0000000E+000	0.0000000E+000	0.0000000E+000	6.0282416E+000	9.4694624E+000	8.3971756E+001	-2.951688168577639E-004
1.6061090E+004	9.4242297E-002	1.1037262E-002	9.4886415E-002	-6.6798115E+000	9.232483825151576E+000	1.3898684E+000	4.1003323E+000	8.9780859E+002	1.2147821E+001	1.000000000000000E+000	65	1.0310454E-002	1.0866102E-001	0	4.797542575559683E-003	3.2000000E+001	5.6989221E-003	1.0467375E+001	1.2258950E+000	1.0538917E+001	6.6798115E+000	1.2147817E+004	1.0372487E+005	1.0443380E+005	-8.3320190E+001	0.0000000E+000	0.0000000E+000	0.0000000E+000	8.3320190E+001	0.0000000E+000	0.0000000E+000	0.0000000E+000	-8.3320190E+001	0.0000000E+000	0.0000000E+000	0.0000000E+000	-6.6798115E+000	0.0000000E+000	0.0000000E+000	0.0000000E+000	6.6798115E+000	8.5385571E+000	8.3320190E+001	3.815507651458803E-004
1.3231144E+004	9.5958374E-002	1.2220530E-002	9.6733399E-002	-7.2576871E+000	9.804479825688759E+000	1.3898634E+000	4.1146784E+000	9.8431183E+002	1.5709411E+001	1.000000000000000E+000	65	1.0285981E-002	1.0633329E-001	0	5.979560257017612E-003	3.2000000E+001	5.7188408E-003	1.0254866E+001	1.3059819E+000	1.0337691E+001	7.2576871E+000	1.5709418E+004	1.2335385E+005	1.2435015E+005	-8.2742310E+001	0.0000000E+000	0.0000000E+000	0.0000000E+000	8.2742310E+001	0.0000000E+000	0.0000000E+000	0.0000000E+000	-8.2742310E+001	0.0000000E+000	0.0000000E+000	0.0000000E+000	-7.2576871E+000	0.0000000E+000	0.0000000E+000	0.0000000E+000	7.2576871E+000	7.8522272E+000	8.2742310E+001	1.182017681457930E-003
1.0902241E+004	9.7916357E-002	1.3404471E-002	9.8829612E-002	-7.7951746E+000	1.037750070620677E+001	1.3898573E+000	4.0939970E+000	1.0890671E+003	2.0034561E+001	1.000000000000000E+000	65	1.0256690E-002	1.0378154E-001	0	7.630392768714163E-003	3.2000000E+001	5.6900717E-003	1.0024922E+001	1.3723835E+000	1.0118424E+001	7.7951746E+000	2.0034559E+004	1.4634753E+005	1.4771250E+005	-8.2204826E+001	0.0000000E+000	0.0000000E+000	0.0000000E+000	8.2204826E+001	0.0000000E+000	0.0000000E+000	0.0000000E+000	-8.2204826E+001	0.0000000E+000	0.0000000E+000	0.0000000E+000	-7.7951746E+000	0.0000000E+000	0.0000000E+000	0.0000000E+000	7.7951746E+000	7.3047538E+000	8.2204826E+001	1.650832511696551E-003
8.9747607E+003	9.9963814E-002	1.4236164E-002	1.0097244E-001	-8.1051722E+000	1.097414057454444E+001	1.3897836E+000	3.6147838E+000	1.2456736E+003	2.4761934E+001	1.000000000000000E+000	65	1.0391947E-002	1.0291865E-001	0	7.358015735373108E-003	3.2000000E+001	5.0237672E-003	9.8047647E+000	1.3963276E+000	9.9036932E+000	8.1051722E+000	2.4761932E+004	1.7387391E+005	1.7562827E+005	-8.1894829E+001	0.0000000E+000	0.0000000E+000	0.0000000E+000	8.1894829E+001	0.0000000E+000	0.0000000E+000	0.0000000E+000	-8.1894829E+001	0.0000000E+000	0.0000000E+000	0.0000000E+000	-8.1051722E+000	0.0000000E+000	0.0000000E+000	0.0000000E+000	8.1051722E+000	7.0218220E+000	8.1894829E+001	-2.723770333410555E-004
7.3948726E+003	1.0198616E-001	1.5130099E-002	1.0310236E-001	-8.4385338E+000	1.166060676721099E+001	1.3897862E+000	3.6036046E+000	1.4224849E+003	3.0633312E+001	1.000000000000000E+000	65	1.0241976E-002	9.9337935E-002	0	8.641685079530089E-003	3.2000000E+001	5.0082402E-003	9.5940952E+000	1.4233265E+000	9.6990986E+000	8.4385338E+000	3.0633326E+004	2.0648736E+005	2.0874728E+005	-8.1561462E+001	0.0000000E+000	0.0000000E+000	0.0000000E+000	8.1561462E+001	0.0000000E+000	0.0000000E+000	0.0000000E+000	-8.1561462E+001	0.0000000E+000	0.0000000E+000	0.0000000E+000	-8.4385338E+000	0.0000000E+000	0.0000000E+000	0.0000000E+000	8.4385338E+000	6.7406144E+000	8.1561462E+001	1.283669344156981E-003
6.0875864E+003	1.0425641E-001	1.5843943E-002	1.0545345E-001	-8.6411734E+000	1.246244877859135E+001	1.3897766E+000	3.5957792E+000	1.6501056E+003	3.7249172E+001	1.000000000000000E+000	65	1.0207534E-002	9.6796580E-002	0	9.271645125118395E-003	3.2000000E+001	4.9973298E-003	9.3752136E+000	1.4247597E+000	9.4828568E+000	8.6411734E+000	3.7249176E+004	2.4510727E+005	2.4792150E+005	-8.1358826E+001	0.0000000E+000	0.0000000E+000	0.0000000E+000	8.1358826E+001	0.0000000E+000	0.0000000E+000	0.0000000E+000	-8.1358826E+001	0.0000000E+000	0.0000000E+000	0.0000000E+000	-8.6411734E+000	0.0000000E+000	0.0000000E+000	0.0000000E+000	8.6411734E+000	6.5802064E+000	8.1358826E+001	6.299600455883063E-004
5.0166025E+003	1.0652778E-001	1.6561892E-002	1.0780753E-001	-8.8370380E+000	1.338767370257119E+001	1.3897754E+000	3.5212514E+000	1.9155808E+003	4.5208714E+001	1.000000000000000E+000	65	1.0153648E-002	9.4183110E-002	0	1.028076047576136E-002	3.2000000E+001	4.8937486E-003	9.1656799E+000	1.4249898E+000	9.2757902E+000	8.8370380E+000	4.5208707E+004	2.9078709E+005	2.9428041E+005	-8.1162964E+001	0.0000000E+000	0.0000000E+000	0.0000000E+000	8.1162964E+001	0.0000000E+000	0.0000000E+000	0.0000000E+000	-8.1162964E+001	0.0000000E+000	0.0000000E+000	0.0000000E+000	-8.8370380E+000	0.0000000E+000	0.0000000E+000	0.0000000E+000	8.8370380E+000	6.4321017E+000	8.1162964E+001	1.009115350642966E-003
4.1313247E+003	1.0896941E-001	1.7126195E-002	1.1030702E-001	-8.9318371E+000	1.431169051978941E+001	1.3897488E+000	3.3280382E+000	2.2494167E+003	5.4223228E+001	1.000000000000000E+000	65	1.0157902E-002	9.2087537E-002	0	1.116125296446433E-002	3.2000000E+001	4.6251370E-003	8.9556742E+000	1.4075199E+000	9.0656061E+000	8.9318371E+000	5.4223238E+004	3.4500794E+005	3.4924294E+005	-8.1068161E+001	0.0000000E+000	0.0000000E+000	0.0000000E+000	8.1068161E+001	0.0000000E+000	0.0000000E+000	0.0000000E+000	-8.1068161E+001	0.0000000E+000	0.0000000E+000	0.0000000E+000	-8.9318371E+000	0.0000000E+000	0.0000000E+000	0.0000000E+000	8.9318371E+000	6.3627334E+000	8.1068161E+001	8.804924887029653E-004
3.4039094E+003	1.1130201E-001	1.7489159E-002	1.1266769E-001	-8.9300098E+000	1.500282655260526E+001	1.3897525E+000	3.4288368E+000	2.6734568E+003	6.4418747E+001	1.000000000000000E+000	65	1.0750727E-002	9.5419787E-002	0	1.212176004018138E-002	3.2000000E+001	4.7652344E-003	8.7680740E+000	1.3777493E+000	8.8756590E+000	8.9300098E+000	6.4418746E+004	4.0996463E+005	4.1499491E+005	-8.1069992E+001	0.0000000E+000	0.0000000E+000	0.0000000E+000	8.1069992E+001	0.0000000E+000	0.0000000E+000	0.0000000E+000	-8.1069992E+001	0.0000000E+000	0.0000000E+000	0.0000000E+000	-8.9300098E+000	0.0000000E+000	0.0000000E+000	0.0000000E+000	8.9300098E+000	6.3640571E+000	8.1069992E+001	9.605070757170518E-004
2.8023123E+003	1.1380530E-001	1.7950384E-002	1.1521225E-001	-8.9633541E+000	1.592692851650645E+001	1.3897504E+000	3.3960445E+000	3.1639519E+003	7.6803322E+001	1.000000000000000E+000	65	1.0100449E-002	8.7668180E-002	0	1.340046020988251E-002	3.2000000E+001	4.7196541E-003	8.5736380E+000	1.3523103E+000	8.6796322E+000	8.9633541E+000	7.6803328E+004	4.8693250E+005	4.9295234E+005	-8.1036644E+001	0.0000000E+000	0.0000000E+000	0.0000000E+000	8.1036644E+001	0.0000000E+000	0.0000000E+000	0.0000000E+000	-8.1036644E+001	0.0000000E+000	0.0000000E+000	0.0000000E+000	-8.9633541E+000	0.0000000E+000	0.0000000E+000	0.0000000E+000	8.9633541E+000	6.3399925E+000	8.1036644E+001	1.278700169701131E-003
2.3092627E+003	1.1640397E-001	1.8055849E-002	1.1779600E-001	-8.8170938E+000	1.661881345603615E+001	1.3897587E+000	3.4851053E+000	3.8170591E+003	8.9681664E+001	1.000000000000000E+000	65	1.0325055E-002	8.7651998E-002	0	1.379495337621674E-002	3.2000000E+001	4.8434553E-003	8.3889332E+000	1.3012383E+000	8.4892530E+000	8.8170938E+000	8.9681648E+004	5.7816731E+005	5.8508138E+005	-8.1182907E+001	0.0000000E+000	0.0000000E+000	0.0000000E+000	8.1182907E+001	0.0000000E+000	0.0000000E+000	0.0000000E+000	-8.1182907E+001	0.0000000E+000	0.0000000E+000	0.0000000E+000	-8.8170938E+000	0.0000000E+000	0.0000000E+000	0.0000000E+000	8.8170938E+000	6.4468842E+000	8.1182907E+001	3.944931663342286E-004
