EC-Lab ASCII FILE
Nb header lines : 72                          

Potentio Electrochemical Impedance Spectroscopy

Run on channel : 1 (SN 50780)
User : 
CE vs. WE compliance from -10 V to 10 V
Electrode connection : standard
Potential control : Ewe
Ewe ctrl range : min = -10.00 V, max = 10.00 V
Safety Limits :
	Do not start on E overload
Acquisition started on : 02/13/2023 16:02:39.721
Loaded Setting File :  C:\Users\sto063\Documents\EC-Lab\Data\Baichen\Micormolding\20230213_denseNoPatternS3_FTFF\NoPattern_FTFF_05Fe_2MHCL_ve10cms_EIS_PCGA.mps
Saved on :
	File : NoPattern_FTFF_05Fe_2MHCL_ve5cms_EIS_PCGA_01_PEIS_C01.mpr
	Directory : C:\Users\sto063\Documents\EC-Lab\Data\Baichen\Micormolding\20230213_denseNoPatternS3_FTFF\
	Host : 131.155.90.158
Device : VSP-3e (SN .003050)
Address : USB
EC-Lab for windows v11.43 (software)
Internet server v11.40 (firmware)
Command interpretor v11.40 (firmware)
Electrode material : 
Initial state : 
Electrolyte : 
Comments : 
Electrode surface area : 0.001 cm2
Characteristic mass : 0.001 g
Equivalent Weight : 0.000 g/eq.
Density : 0.000 g/cm3
Volume (V) : 0.001 cm3
Cycle Definition : Charge/Discharge alternance
Mode                Single sine         
E (V)               0.0000              
vs.                 Eoc                 
tE (h:m:s)          0:00:0.0000         
record              0                   
dI                  0.000               
unit dI             mA                  
dt (s)              0.000               
fi                  200.000             
unit fi             kHz                 
ff                  4.000               
unit ff             mHz                 
Nd                  8                   
Points              per decade          
spacing             Logarithmic         
Va (mV)             10.0                
pw                  0.10                
Na                  5                   
corr                0                   
E range min (V)     -10.000             
E range max (V)     10.000              
I Range             Auto                
Bandwidth           5                   
nc cycles           0                   
goto Ns'            0                   
nr cycles           0                   
inc. cycle          0                   

Modify on : 02/13/2023 16:03
ff                  5.000               

Modify on : 02/13/2023 16:17
ff                  7.000               

Modify on : 02/13/2023 16:17
ff                  8.000               

freq/Hz	Re(Z)/Ohm	-Im(Z)/Ohm	|Z|/Ohm	Phase(Z)/deg	time/s	<Ewe>/V	<I>/mA	Cs/uF	Cp/uF	cycle number	I Range	|Ewe|/V	|I|/A	Ns	(Q-Qo)/mA.h	Re(Y)/Ohm-1	Im(Y)/Ohm-1	|Y|/Ohm-1	Phase(Y)/deg	Re(C)/nF	Im(C)/nF	|C|/nF	Phase(C)/deg	Re(M)	Im(M)	|M|	Phase(M)/deg	Re(Permittivity)	Im(Permittivity)	|Permittivity|	Phase(Permittivity)/deg	Re(Resistivity)/Ohm.cm	Im(Resistivity)/Ohm.cm	|Resistivity|/Ohm.cm	Phase(Resistivity)/deg	Re(Conductivity)/mS/cm	Im(Conductivity)/mS/cm	|Conductivity|/mS/cm	Phase(Conductivity)/deg	Tan(Delta)	Loss Angle(Delta)/deg	dq/mA.h	
1.9999814E+005	2.0298553E-001	-1.4602496E-001	2.5005281E-001	3.5730713E+001	1.739495629240992E+000	-1.1189270E-003	-3.3409846E+000	-5.4496307E+000	-1.8584795E+000	1.000000000000000E+000	9	1.0423372E-003	4.1684681E-003	0	-1.344385976744531E-003	3.2463968E+000	-2.3354125E+000	3.9991553E+000	-3.5730713E+001	-1.8584794E+003	2.5834243E+003	3.1824561E+003	-1.2573071E+002	0.0000000E+000	0.0000000E+000	0.0000000E+000	1.2573071E+002	0.0000000E+000	0.0000000E+000	0.0000000E+000	-1.2573071E+002	0.0000000E+000	0.0000000E+000	0.0000000E+000	3.5730713E+001	0.0000000E+000	0.0000000E+000	0.0000000E+000	-3.5730713E+001	-1.3900743E+000	-3.5730713E+001	-1.344385976744531E-003
1.4956020E+005	2.1220487E-001	-1.0766657E-001	2.3795588E-001	2.6901911E+001	2.563495428388705E+000	-1.1314081E-003	-3.1348441E+000	-9.8837824E+000	-2.0234482E+000	1.000000000000000E+000	9	2.0762323E-003	8.7252827E-003	0	-2.082088498278625E-003	3.7476799E+000	-1.9014636E+000	4.2024598E+000	-2.6901911E+001	-2.0234481E+003	3.9881047E+003	4.4720601E+003	-1.1690191E+002	0.0000000E+000	0.0000000E+000	0.0000000E+000	1.1690191E+002	0.0000000E+000	0.0000000E+000	0.0000000E+000	-1.1690191E+002	0.0000000E+000	0.0000000E+000	0.0000000E+000	2.6901911E+001	0.0000000E+000	0.0000000E+000	0.0000000E+000	-2.6901911E+001	-1.9709448E+000	-2.6901911E+001	-7.377025215340935E-004
1.1184308E+005	2.1434066E-001	-7.8894287E-002	2.2839926E-001	2.0207600E+001	3.387474267539801E+000	-1.1545820E-003	-3.1433854E+000	-1.8037048E+001	-2.1521235E+000	1.000000000000000E+000	9	5.2612820E-003	2.3035459E-002	0	-2.819575907430870E-003	4.1088014E+000	-1.5123633E+000	4.3782978E+000	-2.0207600E+001	-2.1521230E+003	5.8469072E+003	6.2304058E+003	-1.1020760E+002	0.0000000E+000	0.0000000E+000	0.0000000E+000	1.1020760E+002	0.0000000E+000	0.0000000E+000	0.0000000E+000	-1.1020760E+002	0.0000000E+000	0.0000000E+000	0.0000000E+000	2.0207600E+001	0.0000000E+000	0.0000000E+000	0.0000000E+000	-2.0207600E+001	-2.7168083E+000	-2.0207600E+001	-7.374874091522457E-004
8.3636430E+004	2.1519610E-001	-5.7437558E-002	2.2272952E-001	1.4944324E+001	4.348475886537926E+000	-1.1678078E-003	-3.0669174E+000	-3.3130554E+001	-2.2032564E+000	1.000000000000000E+000	9	2.3933060E-002	1.0745347E-001	0	-3.721848559488853E-003	4.3378935E+000	-1.1578183E+000	4.4897509E+000	-1.4944324E+001	-2.2032561E+003	8.2547422E+003	8.5437178E+003	-1.0494432E+002	0.0000000E+000	0.0000000E+000	0.0000000E+000	1.0494432E+002	0.0000000E+000	0.0000000E+000	0.0000000E+000	-1.0494432E+002	0.0000000E+000	0.0000000E+000	0.0000000E+000	1.4944324E+001	0.0000000E+000	0.0000000E+000	0.0000000E+000	-1.4944324E+001	-3.7466094E+000	-1.4944324E+001	-9.022726520579822E-004
6.2546391E+004	2.1561205E-001	-4.2060338E-002	2.1967620E-001	1.1038301E+001	6.405490010889480E+000	-1.0604704E-003	-2.6634219E+000	-6.0498569E+001	-2.2178116E+000	1.000000000000000E+000	9	1.2951314E-002	5.8956385E-002	0	-5.287063419536998E-003	4.4679370E+000	-8.7157899E-001	4.5521545E+000	-1.1038301E+001	-2.2178113E+003	1.1369070E+004	1.1583369E+004	-1.0103830E+002	0.0000000E+000	0.0000000E+000	0.0000000E+000	1.0103830E+002	0.0000000E+000	0.0000000E+000	0.0000000E+000	-1.0103830E+002	0.0000000E+000	0.0000000E+000	0.0000000E+000	1.1038301E+001	0.0000000E+000	0.0000000E+000	0.0000000E+000	-1.1038301E+001	-5.1262560E+000	-1.1038301E+001	-1.565214860048145E-003
4.6772934E+004	2.1625762E-001	-3.0407531E-002	2.1838492E-001	8.0037689E+000	7.503479289676761E+000	-1.0103039E-003	-2.5016134E+000	-1.1190369E+002	-2.1695087E+000	1.000000000000000E+000	9	9.2882924E-003	4.2531747E-002	0	-6.101035491545788E-003	4.5344653E+000	-6.3758171E-001	4.5790706E+000	-8.0037689E+000	-2.1695088E+003	1.5429492E+004	1.5581271E+004	-9.8003769E+001	0.0000000E+000	0.0000000E+000	0.0000000E+000	9.8003769E+001	0.0000000E+000	0.0000000E+000	0.0000000E+000	-9.8003769E+001	0.0000000E+000	0.0000000E+000	0.0000000E+000	8.0037689E+000	0.0000000E+000	0.0000000E+000	0.0000000E+000	-8.0037689E+000	-7.1119757E+000	-8.0037689E+000	-8.139720720087900E-004
3.4970684E+004	2.1703944E-001	-2.1564446E-002	2.1810810E-001	5.6741295E+000	8.327490955503890E+000	-9.9484215E-004	-2.4719594E+000	-2.1104628E+002	-2.0630546E+000	1.000000000000000E+000	9	9.2429072E-003	4.2377643E-002	0	-6.632828137750013E-003	4.5624180E+000	-4.5330936E-001	4.5848823E+000	-5.6741295E+000	-2.0630559E+003	2.0764002E+004	2.0866240E+004	-9.5674133E+001	0.0000000E+000	0.0000000E+000	0.0000000E+000	9.5674133E+001	0.0000000E+000	0.0000000E+000	0.0000000E+000	-9.5674133E+001	0.0000000E+000	0.0000000E+000	0.0000000E+000	5.6741295E+000	0.0000000E+000	0.0000000E+000	0.0000000E+000	-5.6741295E+000	-1.0064689E+001	-5.6741295E+000	-5.317926462042252E-004
2.6156100E+004	2.1784553E-001	-1.4848072E-002	2.1835096E-001	3.8991761E+000	9.151489927986404E+000	-9.9897769E-004	-2.4216411E+000	-4.0980484E+002	-1.8949903E+000	1.000000000000000E+000	9	9.8991413E-003	4.5335919E-002	0	-7.241792610780232E-003	4.5691819E+000	-3.1142956E-001	4.5797830E+000	-3.8991761E+000	-1.8949910E+003	2.7802611E+004	2.7867117E+004	-9.3899178E+001	0.0000000E+000	0.0000000E+000	0.0000000E+000	9.3899178E+001	0.0000000E+000	0.0000000E+000	0.0000000E+000	-9.3899178E+001	0.0000000E+000	0.0000000E+000	0.0000000E+000	3.8991761E+000	0.0000000E+000	0.0000000E+000	0.0000000E+000	-3.8991761E+000	-1.4671638E+001	-3.8991761E+000	-6.089644730302192E-004
1.9559088E+004	2.1869089E-001	-9.8711252E-003	2.1891356E-001	2.5844250E+000	9.975478260457749E+000	-9.8763290E-004	-2.4432194E+000	-8.2433716E+002	-1.6760728E+000	1.000000000000000E+000	9	1.0289132E-002	4.7000889E-002	0	-7.696818244381704E-003	4.5633669E+000	-2.0597824E-001	4.5680132E+000	-2.5844250E+000	-1.6760740E+003	3.7132730E+004	3.7170539E+004	-9.2584427E+001	0.0000000E+000	0.0000000E+000	0.0000000E+000	9.2584427E+001	0.0000000E+000	0.0000000E+000	0.0000000E+000	-9.2584427E+001	0.0000000E+000	0.0000000E+000	0.0000000E+000	2.5844250E+000	0.0000000E+000	0.0000000E+000	0.0000000E+000	-2.5844250E+000	-2.2154606E+001	-2.5844250E+000	-4.550256336014720E-004
1.4622922E+004	2.1950160E-001	-6.2588225E-003	2.1959081E-001	1.6332773E+000	1.079949003292131E+001	-9.8172761E-004	-2.4279075E+000	-1.7389750E+003	-1.4127010E+000	1.000000000000000E+000	9	1.0463871E-002	4.7651678E-002	0	-8.226070624290862E-003	4.5520744E+000	-1.2979689E-001	4.5539246E+000	-1.6332773E+000	-1.4127017E+003	4.9544488E+004	4.9564625E+004	-9.1633278E+001	0.0000000E+000	0.0000000E+000	0.0000000E+000	9.1633278E+001	0.0000000E+000	0.0000000E+000	0.0000000E+000	-9.1633278E+001	0.0000000E+000	0.0000000E+000	0.0000000E+000	1.6332773E+000	0.0000000E+000	0.0000000E+000	0.0000000E+000	-1.6332773E+000	-3.5070751E+001	-1.6332773E+000	-5.292523799091580E-004
1.0939354E+004	2.2019689E-001	-3.5828629E-003	2.2022603E-001	9.3218762E-001	1.162347993874573E+001	-9.9085551E-004	-2.4266765E+000	-4.0606750E+003	-1.0747843E+000	1.000000000000000E+000	9	1.0422453E-002	4.7326162E-002	0	-8.817880475054598E-003	4.5401883E+000	-7.3874213E-002	4.5407891E+000	-9.3218762E-001	-1.0747869E+003	6.6054477E+004	6.6063219E+004	-9.0932190E+001	0.0000000E+000	0.0000000E+000	0.0000000E+000	9.0932190E+001	0.0000000E+000	0.0000000E+000	0.0000000E+000	-9.0932190E+001	0.0000000E+000	0.0000000E+000	0.0000000E+000	9.3218762E-001	0.0000000E+000	0.0000000E+000	0.0000000E+000	-9.3218762E-001	-6.1458363E+001	-9.3218762E-001	-5.918098507637359E-004
8.1784604E+003	2.2104990E-001	-1.7464410E-003	2.2105680E-001	4.5266530E-001	1.254140803564223E+001	-9.9020358E-004	-2.4071312E+000	-1.1142809E+004	-6.9549614E-001	1.000000000000000E+000	9	1.0438770E-002	4.7222115E-002	0	-9.534500844365607E-003	4.5235829E+000	-3.5739310E-002	4.5237241E+000	-4.5266530E-001	-6.9549915E+002	8.8030086E+004	8.8032836E+004	-9.0452667E+001	0.0000000E+000	0.0000000E+000	0.0000000E+000	9.0452667E+001	0.0000000E+000	0.0000000E+000	0.0000000E+000	-9.0452667E+001	0.0000000E+000	0.0000000E+000	0.0000000E+000	4.5266530E-001	0.0000000E+000	0.0000000E+000	0.0000000E+000	-4.5266530E-001	-1.2657164E+002	-4.5266530E-001	-7.166203693110083E-004
6.1154248E+003	2.2184071E-001	-4.6172968E-004	2.2184119E-001	1.1925279E-001	1.369268211705639E+001	-1.0058888E-003	-2.3877909E+000	-5.6364504E+004	-2.4417260E-001	1.000000000000000E+000	9	1.0236360E-002	4.6142738E-002	0	-1.032195498556499E-002	4.5077195E+000	-9.3821725E-003	4.5077291E+000	-1.1925279E-001	-2.4417728E+002	1.1731415E+005	1.1731441E+005	-9.0119255E+001	0.0000000E+000	0.0000000E+000	0.0000000E+000	9.0119255E+001	0.0000000E+000	0.0000000E+000	0.0000000E+000	-9.0119255E+001	0.0000000E+000	0.0000000E+000	0.0000000E+000	1.1925279E-001	0.0000000E+000	0.0000000E+000	0.0000000E+000	-1.1925279E-001	-4.8045581E+002	-1.1925279E-001	-7.874541411993820E-004
4.5714629E+003	2.2250806E-001	5.2207324E-004	2.2250867E-001	-1.3443351E-001	1.503070108727843E+001	-9.8569540E-004	-2.3374166E+000	6.6685820E+004	3.6711532E-001	1.000000000000000E+000	9	1.0180846E-002	4.5754828E-002	0	-1.120075169470016E-002	4.4941945E+000	1.0544781E-002	4.4942069E+000	1.3443351E-001	3.6710556E+002	1.5646486E+005	1.5646530E+005	-8.9865570E+001	0.0000000E+000	0.0000000E+000	0.0000000E+000	8.9865570E+001	0.0000000E+000	0.0000000E+000	0.0000000E+000	-8.9865570E+001	0.0000000E+000	0.0000000E+000	0.0000000E+000	-1.3443351E-001	0.0000000E+000	0.0000000E+000	0.0000000E+000	1.3443351E-001	4.2620084E+002	1.3443351E-001	-8.787967091351753E-004
3.4210947E+003	2.2310254E-001	1.1504337E-003	2.2310551E-001	-2.9544446E-001	1.614669962027983E+001	-9.7993924E-004	-2.3470960E+000	4.0438352E+004	1.0752168E+000	1.000000000000000E+000	9	1.0764360E-002	4.8247848E-002	0	-1.194683663481226E-002	4.4821248E+000	2.3112185E-002	4.4821844E+000	2.9544446E-001	1.0752030E+003	2.0851580E+005	2.0851856E+005	-8.9704559E+001	0.0000000E+000	0.0000000E+000	0.0000000E+000	8.9704559E+001	0.0000000E+000	0.0000000E+000	0.0000000E+000	-8.9704559E+001	0.0000000E+000	0.0000000E+000	0.0000000E+000	-2.9544446E-001	0.0000000E+000	0.0000000E+000	0.0000000E+000	2.9544446E-001	1.9392908E+002	2.9544446E-001	-7.460849401120916E-004
2.5675354E+003	2.2360660E-001	1.6481995E-003	2.2361268E-001	-4.2231831E-001	1.748396867045085E+001	-9.8685035E-004	-2.3558619E+000	3.7609184E+004	2.0432458E+000	1.000000000000000E+000	9	1.0196105E-002	4.5597166E-002	0	-1.284567384733803E-002	4.4718966E+000	3.2962255E-002	4.4720182E+000	4.2231831E-001	2.0432417E+003	2.7720141E+005	2.7720894E+005	-8.9577682E+001	0.0000000E+000	0.0000000E+000	0.0000000E+000	8.9577682E+001	0.0000000E+000	0.0000000E+000	0.0000000E+000	-8.9577682E+001	0.0000000E+000	0.0000000E+000	0.0000000E+000	-4.2231831E-001	0.0000000E+000	0.0000000E+000	0.0000000E+000	4.2231831E-001	1.3566719E+002	4.2231831E-001	-8.988372125257743E-004
1.9131631E+003	2.2428377E-001	1.8375068E-003	2.2429129E-001	-4.6940100E-001	1.859993304344243E+001	-9.9186145E-004	-2.3467605E+000	4.5272992E+004	3.0385911E+000	1.000000000000000E+000	9	1.0396935E-002	4.6354607E-002	0	-1.355173160940326E-002	4.4583383E+000	3.6526170E-002	4.4584880E+000	4.6940100E-001	3.0385750E+003	3.7088663E+005	3.7089906E+005	-8.9530602E+001	0.0000000E+000	0.0000000E+000	0.0000000E+000	8.9530602E+001	0.0000000E+000	0.0000000E+000	0.0000000E+000	-8.9530602E+001	0.0000000E+000	0.0000000E+000	0.0000000E+000	-4.6940100E-001	0.0000000E+000	0.0000000E+000	0.0000000E+000	4.6940100E-001	1.2205875E+002	4.6940100E-001	-7.060577620652299E-004
1.4304576E+003	2.2482760E-001	2.0610823E-003	2.2483705E-001	-5.2523804E-001	1.971569069646648E+001	-9.8021864E-004	-2.3321946E+000	5.3982105E+004	4.5363307E+000	1.000000000000000E+000	9	1.0507040E-002	4.6731800E-002	0	-1.430989260015140E-002	4.4474788E+000	4.0771771E-002	4.4476657E+000	5.2523804E-001	4.5363306E+003	4.9483341E+005	4.9485419E+005	-8.9474762E+001	0.0000000E+000	0.0000000E+000	0.0000000E+000	8.9474762E+001	0.0000000E+000	0.0000000E+000	0.0000000E+000	-8.9474762E+001	0.0000000E+000	0.0000000E+000	0.0000000E+000	-5.2523804E-001	0.0000000E+000	0.0000000E+000	0.0000000E+000	5.2523804E-001	1.0908231E+002	5.2523804E-001	-7.581609907481406E-004
1.0689734E+003	2.2527683E-001	2.0736570E-003	2.2528636E-001	-5.2738863E-001	2.083193066946114E+001	-9.8714849E-004	-2.3432915E+000	7.1798648E+004	6.0830355E+000	1.000000000000000E+000	9	1.0565901E-002	4.6899870E-002	0	-1.507533977136864E-002	4.4386072E+000	4.0857058E-002	4.4387951E+000	5.2738863E-001	6.0830454E+003	6.6084550E+005	6.6087350E+005	-8.9472610E+001	0.0000000E+000	0.0000000E+000	0.0000000E+000	8.9472610E+001	0.0000000E+000	0.0000000E+000	0.0000000E+000	-8.9472610E+001	0.0000000E+000	0.0000000E+000	0.0000000E+000	-5.2738863E-001	0.0000000E+000	0.0000000E+000	0.0000000E+000	5.2738863E-001	1.0863746E+002	5.2738863E-001	-7.654471712172442E-004
8.0025592E+002	2.2578739E-001	2.1799994E-003	2.2579791E-001	-5.5317920E-001	2.194769096247910E+001	-9.8875049E-004	-2.3515909E+000	9.1229406E+004	8.5036974E+000	1.000000000000000E+000	9	1.0602668E-002	4.6956450E-002	0	-1.578714193042761E-002	4.4285326E+000	4.2757917E-002	4.4287391E+000	5.5317920E-001	8.5036611E+003	8.8074681E+005	8.8078788E+005	-8.9446823E+001	0.0000000E+000	0.0000000E+000	0.0000000E+000	8.9446823E+001	0.0000000E+000	0.0000000E+000	0.0000000E+000	-8.9446823E+001	0.0000000E+000	0.0000000E+000	0.0000000E+000	-5.5317920E-001	0.0000000E+000	0.0000000E+000	0.0000000E+000	5.5317920E-001	1.0357223E+002	5.5317920E-001	-7.118021590589631E-004
5.9789539E+002	2.2629899E-001	2.3803667E-003	2.2631150E-001	-6.0265374E-001	2.306844229568378E+001	-9.8802405E-004	-2.3417249E+000	1.1182813E+005	1.2371591E+001	1.000000000000000E+000	9	1.0619448E-002	4.6924032E-002	0	-1.647674941211815E-002	4.4184437E+000	4.6476196E-002	4.4186883E+000	6.0265374E-001	1.2371586E+004	1.1761543E+006	1.1762194E+006	-8.9397346E+001	0.0000000E+000	0.0000000E+000	0.0000000E+000	8.9397346E+001	0.0000000E+000	0.0000000E+000	0.0000000E+000	-8.9397346E+001	0.0000000E+000	0.0000000E+000	0.0000000E+000	-6.0265374E-001	0.0000000E+000	0.0000000E+000	0.0000000E+000	6.0265374E-001	9.5068962E+001	6.0265374E-001	-6.896074816905400E-004
4.4743402E+002	2.2687824E-001	2.3247791E-003	2.2689015E-001	-5.8707863E-001	2.417868120178173E+001	-9.8357175E-004	-2.3538101E+000	1.5300636E+005	1.6063551E+001	1.000000000000000E+000	9	1.0629314E-002	4.6847843E-002	0	-1.721192343332722E-002	4.4071879E+000	4.5159634E-002	4.4074192E+000	5.8707863E-001	1.6063640E+004	1.5676630E+006	1.5677453E+006	-8.9412918E+001	0.0000000E+000	0.0000000E+000	0.0000000E+000	8.9412918E+001	0.0000000E+000	0.0000000E+000	0.0000000E+000	-8.9412918E+001	0.0000000E+000	0.0000000E+000	0.0000000E+000	-5.8707863E-001	0.0000000E+000	0.0000000E+000	0.0000000E+000	5.8707863E-001	9.7591316E+001	5.8707863E-001	-7.351740212090709E-004
3.3467871E+002	2.2713162E-001	2.4269989E-003	2.2714458E-001	-6.1220670E-001	2.529495544143720E+001	-9.7535661E-004	-2.3410721E+000	1.9593970E+005	2.2369530E+001	1.000000000000000E+000	9	1.0633170E-002	4.6812341E-002	0	-1.792781548910423E-002	4.4022307E+000	4.7039725E-002	4.4024820E+000	6.1220670E-001	2.2369486E+004	2.0934610E+006	2.0935805E+006	-8.9387794E+001	0.0000000E+000	0.0000000E+000	0.0000000E+000	8.9387794E+001	0.0000000E+000	0.0000000E+000	0.0000000E+000	-8.9387794E+001	0.0000000E+000	0.0000000E+000	0.0000000E+000	-6.1220670E-001	0.0000000E+000	0.0000000E+000	0.0000000E+000	6.1220670E-001	9.3585381E+001	6.1220670E-001	-7.158920557770072E-004
2.5008002E+002	2.2725259E-001	2.6170150E-003	2.2726765E-001	-6.5978259E-001	2.641066816113016E+001	-9.8493171E-004	-2.3640304E+000	2.4318395E+005	3.2245724E+001	1.000000000000000E+000	9	1.0633080E-002	4.6786599E-002	0	-1.869539077752291E-002	4.3998065E+000	5.0667677E-002	4.4000983E+000	6.5978259E-001	3.2245715E+004	2.8001075E+006	2.8002933E+006	-8.9340218E+001	0.0000000E+000	0.0000000E+000	0.0000000E+000	8.9340218E+001	0.0000000E+000	0.0000000E+000	0.0000000E+000	-8.9340218E+001	0.0000000E+000	0.0000000E+000	0.0000000E+000	-6.5978259E-001	0.0000000E+000	0.0000000E+000	0.0000000E+000	6.5978259E-001	8.6836563E+001	6.5978259E-001	-7.675752884186808E-004
1.8697441E+002	2.2768293E-001	2.8087655E-003	2.2770026E-001	-7.0678222E-001	2.751665256033084E+001	-9.8074018E-004	-2.3632097E+000	3.0305572E+005	4.6113316E+001	1.000000000000000E+000	9	1.0638842E-002	4.6723012E-002	0	-1.947664595558826E-002	4.3914042E+000	5.4173693E-002	4.3917384E+000	7.0678222E-001	4.6113145E+004	3.7380180E+006	3.7383025E+006	-8.9293221E+001	0.0000000E+000	0.0000000E+000	0.0000000E+000	8.9293221E+001	0.0000000E+000	0.0000000E+000	0.0000000E+000	-8.9293221E+001	0.0000000E+000	0.0000000E+000	0.0000000E+000	-7.0678222E-001	0.0000000E+000	0.0000000E+000	0.0000000E+000	7.0678222E-001	8.1061569E+001	7.0678222E-001	-7.812551780653487E-004
