EC-Lab ASCII FILE
Nb header lines : 65                          

Potentio Electrochemical Impedance Spectroscopy

Run on channel : 15 (SN 19485)
User : 
Electrode connection : standard
Potential control : Ewe
Ewe ctrl range : min = -1.00 V, max = 1.00 V
Ewe,I filtering : <None>
Safety Limits :
	Do not start on E overload
Channel : Floating
Acquisition started on : 03/27/2024 16:11:02.884
Loaded Setting File :  C:\Data\mathias\GoldElectrode\240327-CVEIS-5mM_DiCaFerrocene-1M_NaCl-2000RPM-Ag_AgCl_BLF8-Au_RDE.mps
Saved on :
	File : 240327-CVEIS-5mM_DiCaFerrocene-1M_NaCl-ReNeutralized-453p5mVvsRef-2000RPM-Ag_AgCl_BLF8-Au_RDE_02_PEIS_C15.mpr
	Directory : C:\Data\mathias\GoldElectrode\
	Host : 192.168.0.1
Device : VMP-300 (SN 0826)
Address : USB
EC-Lab for windows v11.52 (software)
Internet server v11.52 (firmware)
Command interpretor v11.52 (firmware)
Electrode material : 
Initial state : 
Electrolyte : 
Comments : 
Cable : special
Electrode surface area : 0.001 cm²
Characteristic mass : 0.001 g
Equivalent Weight : 0.000 g/eq.
Density : 0.000 g/cm3
Volume (V) : 0.001 cm³
Cycle Definition : Charge/Discharge alternance
Mode                Multi sine          
E (V)               0.4535              
vs.                 Ref                 
tE (h:m:s)          0:00:30.0000        
record              0                   
dI                  0.000               
unit dI             mA                  
dt (s)              0.000               
fi                  400.000             
unit fi             kHz                 
ff                  100.000             
unit ff             mHz                 
Nd                  10                  
Points              per decade          
spacing             Logarithmic         
Va (mV)             14.1                
pw                  0.10                
Na                  3                   
corr                0                   
E range min (V)     -1.000              
E range max (V)     1.000               
I Range             Auto                
Bandwidth           8                   
nc cycles           2                   
goto Ns'            0                   
nr cycles           0                   
inc. cycle          1                   

freq/Hz	Re(Z)/Ohm	-Im(Z)/Ohm	|Z|/Ohm	Phase(Z)/deg	time/s	<Ewe>/V	<I>/mA	Cs/µF	Cp/µF	cycle number	I Range	|Ewe|/V	|I|/A	Ns	(Q-Qo)/mA.h	Re(Y)/Ohm-1	Im(Y)/Ohm-1	|Y|/Ohm-1	Phase(Y)/deg	Re(C)/nF	Im(C)/nF	|C|/nF	Phase(C)/deg	Re(M)	Im(M)	|M|	Phase(M)/deg	Re(Permittivity)	Im(Permittivity)	|Permittivity|	Phase(Permittivity)/deg	Re(Resistivity)/Ohm.cm	Im(Resistivity)/Ohm.cm	|Resistivity|/Ohm.cm	Phase(Resistivity)/deg	Re(Conductivity)/mS/cm	Im(Conductivity)/mS/cm	|Conductivity|/mS/cm	Phase(Conductivity)/deg	Tan(Delta)	Loss Angle(Delta)/deg	dq/mA.h	
3.9999628E+005	1.0984140E+001	2.9669249E+000	1.1377785E+001	-1.5115442E+001	1.831706817130616E+002	4.5334029E-001	1.3613509E-001	1.3410890E-001	9.1191698E-003	1.000000000000000E+000	38	1.3447423E-002	1.1819017E-003	0	1.294300897671316E-003	8.4849767E-002	2.2918761E-002	8.7890573E-002	1.5115442E+001	9.1191683E+000	3.3760963E+001	3.4970871E+001	-7.4884560E+001	0.0000000E+000	0.0000000E+000	0.0000000E+000	7.4884560E+001	0.0000000E+000	0.0000000E+000	0.0000000E+000	-7.4884560E+001	0.0000000E+000	0.0000000E+000	0.0000000E+000	-1.5115442E+001	0.0000000E+000	0.0000000E+000	0.0000000E+000	1.5115442E+001	3.7021971E+000	7.4884560E+001	1.294300897671316E-003
3.1770525E+005	1.1104827E+001	2.4652522E+000	1.1375176E+001	-1.2516579E+001	1.837216772059037E+002	4.5338812E-001	1.3565284E-001	2.0320500E-001	9.5442282E-003	1.000000000000000E+000	38	1.4442958E-002	1.2696909E-003	0	1.314772060219030E-003	8.5821383E-002	1.9052196E-002	8.7910727E-002	1.2516579E+001	9.5442286E+000	4.2992355E+001	4.4039017E+001	-7.7483421E+001	0.0000000E+000	0.0000000E+000	0.0000000E+000	7.7483421E+001	0.0000000E+000	0.0000000E+000	0.0000000E+000	-7.7483421E+001	0.0000000E+000	0.0000000E+000	0.0000000E+000	-1.2516579E+001	0.0000000E+000	0.0000000E+000	0.0000000E+000	1.2516579E+001	4.5045400E+000	7.7483421E+001	2.047116254771399E-005
2.5234747E+005	1.1169565E+001	2.1036549E+000	1.1365938E+001	-1.0666038E+001	1.842726801387325E+002	4.5336092E-001	1.3605502E-001	2.9981041E-001	1.0270347E-002	1.000000000000000E+000	38	1.4553837E-002	1.2804782E-003	0	1.336617807966631E-003	8.6462080E-002	1.6284104E-002	8.7982178E-002	1.0666038E+001	1.0270348E+001	5.4531429E+001	5.5490150E+001	-7.9333961E+001	0.0000000E+000	0.0000000E+000	0.0000000E+000	7.9333961E+001	0.0000000E+000	0.0000000E+000	0.0000000E+000	-7.9333961E+001	0.0000000E+000	0.0000000E+000	0.0000000E+000	-1.0666038E+001	0.0000000E+000	0.0000000E+000	0.0000000E+000	1.0666038E+001	5.3095999E+000	7.9333961E+001	2.184574774760075E-005
2.0043423E+005	1.1248227E+001	1.8094150E+000	1.1392831E+001	-9.1384392E+000	1.848236796849233E+002	4.5334393E-001	1.3676256E-001	4.3884388E-001	1.1069376E-002	1.000000000000000E+000	38	1.4564946E-002	1.2784308E-003	0	1.359700763455527E-003	8.6660422E-002	1.3940388E-002	8.7774500E-002	9.1384392E+000	1.1069380E+001	6.8812767E+001	6.9697403E+001	-8.0861557E+001	0.0000000E+000	0.0000000E+000	0.0000000E+000	8.0861557E+001	0.0000000E+000	0.0000000E+000	0.0000000E+000	-8.0861557E+001	0.0000000E+000	0.0000000E+000	0.0000000E+000	-9.1384392E+000	0.0000000E+000	0.0000000E+000	0.0000000E+000	9.1384392E+000	6.2164993E+000	8.0861557E+001	2.308295548889634E-005
1.5920056E+005	1.1306355E+001	1.6546715E+000	1.1426794E+001	-8.3260612E+000	1.853746863510751E+002	4.5337245E-001	1.3676442E-001	6.0417640E-001	1.2668889E-002	1.000000000000000E+000	38	1.4578118E-002	1.2757838E-003	0	1.379574403004326E-003	8.6591221E-002	1.2672520E-002	8.7513611E-002	8.3260612E+000	1.2668896E+001	8.6566414E+001	8.7488541E+001	-8.1673935E+001	0.0000000E+000	0.0000000E+000	0.0000000E+000	8.1673935E+001	0.0000000E+000	0.0000000E+000	0.0000000E+000	-8.1673935E+001	0.0000000E+000	0.0000000E+000	0.0000000E+000	-8.3260612E+000	0.0000000E+000	0.0000000E+000	0.0000000E+000	8.3260612E+000	6.8329906E+000	8.1673935E+001	1.987363954879880E-005
1.2644745E+005	1.1337353E+001	1.5524559E+000	1.1443151E+001	-7.7971807E+000	1.859256782172888E+002	4.5336628E-001	1.3668808E-001	8.1075710E-001	1.4922380E-002	1.000000000000000E+000	38	1.4525574E-002	1.2693685E-003	0	1.400002742267188E-003	8.6580575E-002	1.1855723E-002	8.7388523E-002	7.7971807E+000	1.4922379E+001	1.0897591E+002	1.0999285E+002	-8.2202820E+001	0.0000000E+000	0.0000000E+000	0.0000000E+000	8.2202820E+001	0.0000000E+000	0.0000000E+000	0.0000000E+000	-8.2202820E+001	0.0000000E+000	0.0000000E+000	0.0000000E+000	-7.7971807E+000	0.0000000E+000	0.0000000E+000	0.0000000E+000	7.7971807E+000	7.3028502E+000	8.2202820E+001	2.042833926286158E-005
1.0043052E+005	1.1387641E+001	1.5255855E+000	1.1489377E+001	-7.6303988E+000	1.864766828301072E+002	4.5337716E-001	1.3710329E-001	1.0387664E+000	1.8314624E-002	1.000000000000000E+000	38	1.4521480E-002	1.2639049E-003	0	1.420187979698184E-003	8.6266227E-002	1.1556960E-002	8.7036923E-002	7.6303988E+000	1.8314632E+001	1.3670840E+002	1.3792975E+002	-8.2369598E+001	0.0000000E+000	0.0000000E+000	0.0000000E+000	8.2369598E+001	0.0000000E+000	0.0000000E+000	0.0000000E+000	-8.2369598E+001	0.0000000E+000	0.0000000E+000	0.0000000E+000	-7.6303988E+000	0.0000000E+000	0.0000000E+000	0.0000000E+000	7.6303988E+000	7.4644394E+000	8.2369598E+001	2.018523743099656E-005
7.9767297E+004	1.1456015E+001	1.5528041E+000	1.1560773E+001	-7.7191057E+000	1.870276849629299E+002	4.5337069E-001	1.3652982E-001	1.2849274E+000	2.3181321E-002	1.000000000000000E+000	38	1.4516735E-002	1.2556890E-003	0	1.440962442701534E-003	8.5715592E-002	1.1618309E-002	8.6499408E-002	7.7191057E+000	2.3181330E+001	1.7102322E+002	1.7258713E+002	-8.2280891E+001	0.0000000E+000	0.0000000E+000	0.0000000E+000	8.2280891E+001	0.0000000E+000	0.0000000E+000	0.0000000E+000	-8.2280891E+001	0.0000000E+000	0.0000000E+000	0.0000000E+000	-7.7191057E+000	0.0000000E+000	0.0000000E+000	0.0000000E+000	7.7191057E+000	7.3776302E+000	8.2280891E+001	2.077446300334930E-005
6.3362902E+004	1.1543145E+001	1.6457171E+000	1.1659871E+001	-8.1140318E+000	1.875786822157970E+002	4.5338330E-001	1.3722804E-001	1.5262648E+000	3.0405544E-002	1.000000000000000E+000	38	1.4537271E-002	1.2467781E-003	0	1.462520236990660E-003	8.4905669E-002	1.2105081E-002	8.5764244E-002	8.1140318E+000	3.0405533E+001	2.1326605E+002	2.1542262E+002	-8.1885971E+001	0.0000000E+000	0.0000000E+000	0.0000000E+000	8.1885971E+001	0.0000000E+000	0.0000000E+000	0.0000000E+000	-8.1885971E+001	0.0000000E+000	0.0000000E+000	0.0000000E+000	-8.1140318E+000	0.0000000E+000	0.0000000E+000	0.0000000E+000	8.1140318E+000	7.0140519E+000	8.1885971E+001	2.155779428912661E-005
5.0326602E+004	1.1657711E+001	1.8016074E+000	1.1796102E+001	-8.7851124E+000	1.881296964819485E+002	4.5339411E-001	1.3717963E-001	1.7553445E+000	4.0945452E-002	1.000000000000000E+000	38	1.4532096E-002	1.2319406E-003	0	1.485286940844329E-003	8.3779216E-002	1.2947418E-002	8.4773771E-002	8.7851124E+000	4.0945450E+001	2.6494690E+002	2.6809213E+002	-8.1214890E+001	0.0000000E+000	0.0000000E+000	0.0000000E+000	8.1214890E+001	0.0000000E+000	0.0000000E+000	0.0000000E+000	-8.1214890E+001	0.0000000E+000	0.0000000E+000	0.0000000E+000	-8.7851124E+000	0.0000000E+000	0.0000000E+000	0.0000000E+000	8.7851124E+000	6.4707279E+000	8.1214890E+001	2.276670385366829E-005
3.9971793E+004	1.1769906E+001	2.0147247E+000	1.1941097E+001	-9.7135162E+000	1.886806880281365E+002	4.5338017E-001	1.3774753E-001	1.9762905E+000	5.6259226E-002	1.000000000000000E+000	38	1.4545556E-002	1.2181088E-003	0	1.505211816549527E-003	8.2543813E-002	1.4129515E-002	8.3744399E-002	9.7135162E+000	5.6259220E+001	3.2866315E+002	3.3344348E+002	-8.0286484E+001	0.0000000E+000	0.0000000E+000	0.0000000E+000	8.0286484E+001	0.0000000E+000	0.0000000E+000	0.0000000E+000	-8.0286484E+001	0.0000000E+000	0.0000000E+000	0.0000000E+000	-9.7135162E+000	0.0000000E+000	0.0000000E+000	0.0000000E+000	9.7135162E+000	5.8419423E+000	8.0286484E+001	1.992487570519883E-005
3.1751037E+004	1.1936290E+001	2.2944984E+000	1.2154823E+001	-1.0881167E+001	1.892316799209511E+002	4.5338091E-001	1.3714053E-001	2.1846125E+000	7.7848934E-002	1.000000000000000E+000	38	1.4501578E-002	1.1930719E-003	0	1.527340520482562E-003	8.0792688E-002	1.5530680E-002	8.2271867E-002	1.0881167E+001	7.7848915E+001	4.0498065E+002	4.1239517E+002	-7.9118835E+001	0.0000000E+000	0.0000000E+000	0.0000000E+000	7.9118835E+001	0.0000000E+000	0.0000000E+000	0.0000000E+000	-7.9118835E+001	0.0000000E+000	0.0000000E+000	0.0000000E+000	-1.0881167E+001	0.0000000E+000	0.0000000E+000	0.0000000E+000	1.0881167E+001	5.2021346E+000	7.9118835E+001	2.212870393303464E-005
2.5218971E+004	1.2119759E+001	2.6159644E+000	1.2398864E+001	-1.2180036E+001	1.897826774138084E+002	4.5339277E-001	1.3655961E-001	2.4124646E+000	1.0738926E-001	1.000000000000000E+000	38	1.4508064E-002	1.1701124E-003	0	1.547849082144411E-003	7.8837015E-002	1.7016415E-002	8.0652550E-002	1.2180036E+001	1.0738927E+002	4.9753421E+002	5.0899188E+002	-7.7819962E+001	0.0000000E+000	0.0000000E+000	0.0000000E+000	7.7819962E+001	0.0000000E+000	0.0000000E+000	0.0000000E+000	-7.7819962E+001	0.0000000E+000	0.0000000E+000	0.0000000E+000	-1.2180036E+001	0.0000000E+000	0.0000000E+000	0.0000000E+000	1.2180036E+001	4.6329985E+000	7.7819962E+001	2.050856166184857E-005
2.0032287E+004	1.2341105E+001	3.0397866E+000	1.2709963E+001	-1.3837301E+001	1.903346761066641E+002	4.5337558E-001	1.3682027E-001	2.6136444E+000	1.4950101E-001	1.000000000000000E+000	38	1.4429845E-002	1.1353176E-003	0	1.568599450935733E-003	7.6395094E-002	1.8817179E-002	7.8678437E-002	1.3837301E+001	1.4950101E+002	6.0695294E+002	6.2509393E+002	-7.6162697E+001	0.0000000E+000	0.0000000E+000	0.0000000E+000	7.6162697E+001	0.0000000E+000	0.0000000E+000	0.0000000E+000	-7.6162697E+001	0.0000000E+000	0.0000000E+000	0.0000000E+000	-1.3837301E+001	0.0000000E+000	0.0000000E+000	0.0000000E+000	1.3837301E+001	4.0598588E+000	7.6162697E+001	2.075036879132185E-005
1.5912637E+004	1.2602942E+001	3.5377073E+000	1.3090055E+001	-1.5679689E+001	1.908856959195400E+002	4.5338711E-001	1.3703254E-001	2.8271971E+000	2.0649853E-001	1.000000000000000E+000	38	1.4372978E-002	1.0980075E-003	0	1.590935947150584E-003	7.3551074E-002	2.0646144E-002	7.6393872E-002	1.5679689E+001	2.0649852E+002	7.3564288E+002	7.6407599E+002	-7.4320313E+001	0.0000000E+000	0.0000000E+000	0.0000000E+000	7.4320313E+001	0.0000000E+000	0.0000000E+000	0.0000000E+000	-7.4320313E+001	0.0000000E+000	0.0000000E+000	0.0000000E+000	-1.5679689E+001	0.0000000E+000	0.0000000E+000	0.0000000E+000	1.5679689E+001	3.5624604E+000	7.4320313E+001	2.233649621485130E-005
1.2637324E+004	1.2922100E+001	4.1320786E+000	1.3566678E+001	-1.7732632E+001	1.914366897857108E+002	4.5336041E-001	1.3714983E-001	3.0478699E+000	2.8273955E-001	1.000000000000000E+000	38	1.4357794E-002	1.0583132E-003	0	1.613158271355758E-003	7.0207909E-002	2.2450268E-002	7.3710009E-002	1.7732632E+001	2.8273962E+002	8.8420117E+002	9.2830676E+002	-7.2267365E+001	0.0000000E+000	0.0000000E+000	0.0000000E+000	7.2267365E+001	0.0000000E+000	0.0000000E+000	0.0000000E+000	-7.2267365E+001	0.0000000E+000	0.0000000E+000	0.0000000E+000	-1.7732632E+001	0.0000000E+000	0.0000000E+000	0.0000000E+000	1.7732632E+001	3.1272638E+000	7.2267365E+001	2.222232420517434E-005
1.0039345E+004	1.3296936E+001	4.8342037E+000	1.4148429E+001	-1.9979126E+001	1.919886773852340E+002	4.5337695E-001	1.3689288E-001	3.2793655E+000	3.8284528E-001	1.000000000000000E+000	38	1.4172596E-002	1.0017081E-003	0	1.632554809205098E-003	6.6425547E-002	2.4149520E-002	7.0679225E-002	1.9979126E+001	3.8284528E+002	1.0530522E+003	1.1204863E+003	-7.0020874E+001	0.0000000E+000	0.0000000E+000	0.0000000E+000	7.0020874E+001	0.0000000E+000	0.0000000E+000	0.0000000E+000	-7.0020874E+001	0.0000000E+000	0.0000000E+000	0.0000000E+000	-1.9979126E+001	0.0000000E+000	0.0000000E+000	0.0000000E+000	1.9979126E+001	2.7505949E+000	7.0020874E+001	1.939653784934002E-005
7.9676660E+003	1.3776821E+001	5.6835384E+000	1.4903134E+001	-2.2418280E+001	1.926188224285597E+002	4.5324495E-001	1.3565657E-001	3.5145540E+000	5.1115495E-001	1.000000000000000E+000	38	1.4447226E-002	9.6940855E-004	0	1.654763677289004E-003	6.2028859E-002	2.5589606E-002	6.7099981E-002	2.2418280E+001	5.1115503E+002	1.2390328E+003	1.3403290E+003	-6.7581718E+001	0.0000000E+000	0.0000000E+000	0.0000000E+000	6.7581718E+001	0.0000000E+000	0.0000000E+000	0.0000000E+000	-6.7581718E+001	0.0000000E+000	0.0000000E+000	0.0000000E+000	-2.2418280E+001	0.0000000E+000	0.0000000E+000	0.0000000E+000	2.2418280E+001	2.4239867E+000	6.7581718E+001	2.220886808390631E-005
6.3326284E+003	1.4367743E+001	6.6670489E+000	1.5839241E+001	-2.4892668E+001	1.931911175757123E+002	4.5325476E-001	1.3701391E-001	3.7696629E+000	6.6788399E-001	1.000000000000000E+000	38	1.5230109E-002	9.6154283E-004	0	1.676600117664383E-003	5.7269022E-002	2.6574487E-002	6.3134335E-002	2.4892668E+001	6.6788403E+002	1.4393151E+003	1.5867252E+003	-6.5107330E+001	0.0000000E+000	0.0000000E+000	0.0000000E+000	6.5107330E+001	0.0000000E+000	0.0000000E+000	0.0000000E+000	-6.5107330E+001	0.0000000E+000	0.0000000E+000	0.0000000E+000	-2.4892668E+001	0.0000000E+000	0.0000000E+000	0.0000000E+000	2.4892668E+001	2.1550379E+000	6.5107330E+001	2.183644037537865E-005
5.0283892E+003	1.5093813E+001	7.7877073E+000	1.6984451E+001	-2.7291634E+001	1.940950322586577E+002	4.5321980E-001	1.3593957E-001	4.0642614E+000	8.5447198E-001	1.000000000000000E+000	38	1.4238887E-002	8.3834841E-004	0	1.710001796190892E-003	5.2323397E-002	2.6996443E-002	5.8877379E-002	2.7291634E+001	8.5447192E+002	1.6561024E+003	1.8635443E+003	-6.2708366E+001	0.0000000E+000	0.0000000E+000	0.0000000E+000	6.2708366E+001	0.0000000E+000	0.0000000E+000	0.0000000E+000	-6.2708366E+001	0.0000000E+000	0.0000000E+000	0.0000000E+000	-2.7291634E+001	0.0000000E+000	0.0000000E+000	0.0000000E+000	2.7291634E+001	1.9381588E+000	6.2708366E+001	3.340167852650903E-005
3.9937197E+003	1.5909717E+001	9.0824289E+000	1.8319651E+001	-2.9720882E+001	1.947780264244357E+002	4.5325714E-001	1.3621329E-001	4.3877363E+000	1.0784752E+000	1.000000000000000E+000	38	1.4353954E-002	7.8352774E-004	0	1.736096343135778E-003	4.7405429E-002	2.7062483E-002	5.4586194E-002	2.9720882E+001	1.0784752E+003	1.8891682E+003	2.1753311E+003	-6.0279118E+001	0.0000000E+000	0.0000000E+000	0.0000000E+000	6.0279118E+001	0.0000000E+000	0.0000000E+000	0.0000000E+000	-6.0279118E+001	0.0000000E+000	0.0000000E+000	0.0000000E+000	-2.9720882E+001	0.0000000E+000	0.0000000E+000	0.0000000E+000	2.9720882E+001	1.7517029E+000	6.0279114E+001	2.609454694488603E-005
3.1719580E+003	1.6919754E+001	1.0587122E+001	1.9959089E+001	-3.2035263E+001	1.954621366435895E+002	4.5324379E-001	1.3637713E-001	4.7393064E+000	1.3334882E+000	1.000000000000000E+000	38	1.4372271E-002	7.2008651E-004	0	1.761226170483440E-003	4.2472970E-002	2.6576418E-002	5.0102487E-002	3.2035263E+001	1.3334880E+003	2.1311072E+003	2.5139229E+003	-5.7964737E+001	0.0000000E+000	0.0000000E+000	0.0000000E+000	5.7964737E+001	0.0000000E+000	0.0000000E+000	0.0000000E+000	-5.7964737E+001	0.0000000E+000	0.0000000E+000	0.0000000E+000	-3.2035263E+001	0.0000000E+000	0.0000000E+000	0.0000000E+000	3.2035263E+001	1.5981448E+000	5.7964737E+001	2.512982734766155E-005
2.5191904E+003	1.8185743E+001	1.2282825E+001	2.1945137E+001	-3.4035473E+001	1.961450109960279E+002	4.5324787E-001	1.3610156E-001	5.1435251E+000	1.6113164E+000	1.000000000000000E+000	38	1.4326665E-002	6.5284007E-004	0	1.786271739472664E-003	3.7761953E-002	2.5504788E-002	4.5568183E-002	3.4035473E+001	1.6113164E+003	2.3856875E+003	2.8788618E+003	-5.5964527E+001	0.0000000E+000	0.0000000E+000	0.0000000E+000	5.5964527E+001	0.0000000E+000	0.0000000E+000	0.0000000E+000	-5.5964527E+001	0.0000000E+000	0.0000000E+000	0.0000000E+000	-3.4035473E+001	0.0000000E+000	0.0000000E+000	0.0000000E+000	3.4035473E+001	1.4805831E+000	5.5964523E+001	2.504556898922446E-005
2.0019188E+003	1.9719122E+001	1.4196482E+001	2.4297815E+001	-3.5751427E+001	1.968287602551572E+002	4.5324555E-001	1.3632685E-001	5.6000633E+000	1.9117010E+000	1.000000000000000E+000	38	1.4265065E-002	5.8709248E-004	0	1.812343727962159E-003	3.3400510E-002	2.4046190E-002	4.1155964E-002	3.5751427E+001	1.9117009E+003	2.6553806E+003	3.2719485E+003	-5.4248573E+001	0.0000000E+000	0.0000000E+000	0.0000000E+000	5.4248573E+001	0.0000000E+000	0.0000000E+000	0.0000000E+000	-5.4248573E+001	0.0000000E+000	0.0000000E+000	0.0000000E+000	-3.5751427E+001	0.0000000E+000	0.0000000E+000	0.0000000E+000	3.5751427E+001	1.3890147E+000	5.4248573E+001	2.607198848949503E-005
1.5894919E+003	2.1589901E+001	1.6304710E+001	2.7054897E+001	-3.7060131E+001	1.975130130876787E+002	4.5324877E-001	1.3635477E-001	6.1411357E+000	2.2304018E+000	1.000000000000000E+000	38	1.4199427E-002	5.2483758E-004	0	1.837533991837945E-003	2.9495711E-002	2.2275183E-002	3.6961883E-002	3.7060131E+001	2.2304019E+003	2.9533892E+003	3.7009729E+003	-5.2939869E+001	0.0000000E+000	0.0000000E+000	0.0000000E+000	5.2939869E+001	0.0000000E+000	0.0000000E+000	0.0000000E+000	-5.2939869E+001	0.0000000E+000	0.0000000E+000	0.0000000E+000	-3.7060131E+001	0.0000000E+000	0.0000000E+000	0.0000000E+000	3.7060131E+001	1.3241512E+000	5.2939865E+001	2.519026387578604E-005
1.2629777E+003	2.3737364E+001	1.8594950E+001	3.0153517E+001	-3.8073799E+001	1.981982821602141E+002	4.5325062E-001	1.3590045E-001	6.7768750E+000	2.5771728E+000	1.000000000000000E+000	38	1.4106408E-002	4.6781966E-004	0	1.862842393284120E-003	2.6106974E-002	2.0451210E-002	3.3163626E-002	3.8073799E+001	2.5771726E+003	3.2898872E+003	4.1791357E+003	-5.1926201E+001	0.0000000E+000	0.0000000E+000	0.0000000E+000	5.1926201E+001	0.0000000E+000	0.0000000E+000	0.0000000E+000	-5.1926201E+001	0.0000000E+000	0.0000000E+000	0.0000000E+000	-3.8073799E+001	0.0000000E+000	0.0000000E+000	0.0000000E+000	3.8073799E+001	1.2765490E+000	5.1926208E+001	2.530840144617506E-005
