EC-Lab ASCII FILE
Nb header lines : 65                          

Potentio Electrochemical Impedance Spectroscopy

Run on channel : 15 (SN 19485)
User : 
Electrode connection : standard
Potential control : Ewe
Ewe ctrl range : min = -1.00 V, max = 1.00 V
Ewe,I filtering : <None>
Safety Limits :
	Do not start on E overload
Channel : Floating
Acquisition started on : 03/27/2024 12:38:41.023
Loaded Setting File :  C:\Data\mathias\GoldElectrode\240322-CVEIS-5mM_Fe2Fe3-1M_H2SO4-0000RPM-Ag_AgCl_BLF8-GC_RDE.mps
Saved on :
	File : 240327-CVEIS-5mM_DiCaFerrocene-1M_NaCl-0000RPM-Ag_AgCl_BLF8-Au_RDE_02_PEIS_C15.mpr
	Directory : C:\Data\mathias\GoldElectrode\
	Host : 192.168.0.1
Device : VMP-300 (SN 0826)
Address : USB
EC-Lab for windows v11.52 (software)
Internet server v11.52 (firmware)
Command interpretor v11.52 (firmware)
Electrode material : 
Initial state : 
Electrolyte : 
Comments : 
Cable : special
Electrode surface area : 0.001 cm²
Characteristic mass : 0.001 g
Equivalent Weight : 0.000 g/eq.
Density : 0.000 g/cm3
Volume (V) : 0.001 cm³
Cycle Definition : Charge/Discharge alternance
Mode                Single sine         
E (V)               0.0000              
vs.                 Eoc                 
tE (h:m:s)          0:00:0.0000         
record              0                   
dI                  0.000               
unit dI             mA                  
dt (s)              0.000               
fi                  400.000             
unit fi             kHz                 
ff                  100.000             
unit ff             mHz                 
Nd                  10                  
Points              per decade          
spacing             Logarithmic         
Va (mV)             5.0                 
pw                  0.10                
Na                  3                   
corr                0                   
E range min (V)     -1.000              
E range max (V)     1.000               
I Range             Auto                
Bandwidth           8                   
nc cycles           2                   
goto Ns'            0                   
nr cycles           0                   
inc. cycle          1                   

freq/Hz	Re(Z)/Ohm	-Im(Z)/Ohm	|Z|/Ohm	Phase(Z)/deg	time/s	<Ewe>/V	<I>/mA	Cs/µF	Cp/µF	cycle number	I Range	|Ewe|/V	|I|/A	Ns	(Q-Qo)/mA.h	Re(Y)/Ohm-1	Im(Y)/Ohm-1	|Y|/Ohm-1	Phase(Y)/deg	Re(C)/nF	Im(C)/nF	|C|/nF	Phase(C)/deg	Re(M)	Im(M)	|M|	Phase(M)/deg	Re(Permittivity)	Im(Permittivity)	|Permittivity|	Phase(Permittivity)/deg	Re(Resistivity)/Ohm.cm	Im(Resistivity)/Ohm.cm	|Resistivity|/Ohm.cm	Phase(Resistivity)/deg	Re(Conductivity)/mS/cm	Im(Conductivity)/mS/cm	|Conductivity|/mS/cm	Phase(Conductivity)/deg	Tan(Delta)	Loss Angle(Delta)/deg	dq/mA.h	
3.9999628E+005	1.0950254E+001	2.6703002E+000	1.1271139E+001	-1.3704523E+001	1.431370767746848E+002	2.3754459E-002	-7.7925464E-003	1.4900611E-001	8.3635114E-003	1.000000000000000E+000	38	4.9235374E-003	4.3682696E-004	0	-2.681380259099064E-006	8.6196296E-002	2.1019600E-002	8.8722177E-002	1.3704523E+001	8.3635101E+000	3.4296734E+001	3.5301762E+001	-7.6295479E+001	0.0000000E+000	0.0000000E+000	0.0000000E+000	7.6295479E+001	0.0000000E+000	0.0000000E+000	0.0000000E+000	-7.6295479E+001	0.0000000E+000	0.0000000E+000	0.0000000E+000	-1.3704523E+001	0.0000000E+000	0.0000000E+000	0.0000000E+000	1.3704523E+001	4.1007576E+000	7.6295479E+001	-2.681380259099064E-006
3.1770525E+005	1.0981444E+001	2.2178526E+000	1.1203169E+001	-1.1418074E+001	1.436890859209379E+002	2.3784472E-002	1.4687713E-003	2.2587235E-001	8.8521065E-003	1.000000000000000E+000	38	5.1415656E-003	4.5893851E-004	0	-2.756265728303131E-006	8.7493882E-002	1.7670585E-002	8.9260459E-002	1.1418074E+001	8.8521090E+000	4.3830200E+001	4.4715168E+001	-7.8581924E+001	0.0000000E+000	0.0000000E+000	0.0000000E+000	7.8581924E+001	0.0000000E+000	0.0000000E+000	0.0000000E+000	-7.8581924E+001	0.0000000E+000	0.0000000E+000	0.0000000E+000	-1.1418074E+001	0.0000000E+000	0.0000000E+000	0.0000000E+000	1.1418074E+001	4.9513860E+000	7.8581924E+001	-7.488546920406721E-008
2.5234747E+005	1.0992903E+001	1.9468756E+000	1.1163970E+001	-1.0043115E+001	1.442400801337935E+002	2.3759194E-002	9.4929151E-004	3.2395375E-001	9.8519465E-003	1.000000000000000E+000	38	5.1438753E-003	4.6075683E-004	0	-3.353194978772485E-006	8.8201307E-002	1.5620714E-002	8.9573868E-002	1.0043115E+001	9.8519468E+000	5.5628357E+001	5.6494026E+001	-7.9956886E+001	0.0000000E+000	0.0000000E+000	0.0000000E+000	7.9956886E+001	0.0000000E+000	0.0000000E+000	0.0000000E+000	-7.9956886E+001	0.0000000E+000	0.0000000E+000	0.0000000E+000	-1.0043115E+001	0.0000000E+000	0.0000000E+000	0.0000000E+000	1.0043115E+001	5.6464334E+000	7.9956886E+001	-5.969292504693538E-007
2.0043423E+005	1.1083200E+001	1.7005432E+000	1.1212902E+001	-8.7231092E+000	1.447910864799196E+002	2.3779364E-002	8.7109016E-004	4.6693948E-001	1.0739891E-002	1.000000000000000E+000	38	5.1764660E-003	4.6165264E-004	0	-3.077760246335351E-006	8.8151380E-002	1.3525446E-002	8.9182980E-002	8.7231092E+000	1.0739887E+001	6.9996674E+001	7.0815811E+001	-8.1276894E+001	0.0000000E+000	0.0000000E+000	0.0000000E+000	8.1276894E+001	0.0000000E+000	0.0000000E+000	0.0000000E+000	-8.1276894E+001	0.0000000E+000	0.0000000E+000	0.0000000E+000	-8.7231092E+000	0.0000000E+000	0.0000000E+000	0.0000000E+000	8.7231092E+000	6.5174475E+000	8.1276894E+001	2.754347324371339E-007
1.5920056E+005	1.1128058E+001	1.5975093E+000	1.1242141E+001	-8.1693878E+000	1.453420959460927E+002	2.3779998E-002	1.3570549E-003	6.2579507E-001	1.2636328E-002	1.000000000000000E+000	38	5.1848311E-003	4.6119606E-004	0	-2.886646738656257E-006	8.8048384E-002	1.2639949E-002	8.8951029E-002	8.1693878E+000	1.2636327E+001	8.8023148E+001	8.8925537E+001	-8.1830612E+001	0.0000000E+000	0.0000000E+000	0.0000000E+000	8.1830612E+001	0.0000000E+000	0.0000000E+000	0.0000000E+000	-8.1830612E+001	0.0000000E+000	0.0000000E+000	0.0000000E+000	-8.1693878E+000	0.0000000E+000	0.0000000E+000	0.0000000E+000	8.1693878E+000	6.9658804E+000	8.1830612E+001	1.911135076790944E-007
1.2644745E+005	1.1188793E+001	1.5479033E+000	1.1295358E+001	-7.8765359E+000	1.458930773322500E+002	2.3788422E-002	1.5749016E-003	8.1314170E-001	1.5270523E-002	1.000000000000000E+000	38	5.1654233E-003	4.5730497E-004	0	-2.920258513100837E-006	8.7696709E-002	1.2132321E-002	8.8531949E-002	7.8765359E+000	1.5270518E+001	1.1038075E+002	1.1143204E+002	-8.2123466E+001	0.0000000E+000	0.0000000E+000	0.0000000E+000	8.2123466E+001	0.0000000E+000	0.0000000E+000	0.0000000E+000	-8.2123466E+001	0.0000000E+000	0.0000000E+000	0.0000000E+000	-7.8765359E+000	0.0000000E+000	0.0000000E+000	0.0000000E+000	7.8765359E+000	7.2283540E+000	8.2123466E+001	-3.361177444458020E-008
1.0043052E+005	1.1236869E+001	1.5633290E+000	1.1345097E+001	-7.9204326E+000	1.464440769584762E+002	2.3779886E-002	7.1282586E-004	1.0136874E+000	1.9248124E-002	1.000000000000000E+000	38	5.1380503E-003	4.5288730E-004	0	-2.058190008834370E-006	8.7302946E-002	1.2146019E-002	8.8143803E-002	7.9204326E+000	1.9248125E+001	1.3835132E+002	1.3968385E+002	-8.2079567E+001	0.0000000E+000	0.0000000E+000	0.0000000E+000	8.2079567E+001	0.0000000E+000	0.0000000E+000	0.0000000E+000	-8.2079567E+001	0.0000000E+000	0.0000000E+000	0.0000000E+000	-7.9204326E+000	0.0000000E+000	0.0000000E+000	0.0000000E+000	7.9204326E+000	7.1877828E+000	8.2079567E+001	8.620685042664667E-007
7.9767297E+004	1.1256474E+001	1.6351172E+000	1.1374612E+001	-8.2649870E+000	1.469950739179767E+002	2.3765253E-002	1.1392090E-003	1.2202431E+000	2.5215697E-002	1.000000000000000E+000	38	5.1247030E-003	4.5053873E-004	0	-2.704270899909008E-006	8.7001987E-002	1.2637923E-002	8.7915085E-002	8.2649870E+000	2.5215689E+001	1.7358989E+002	1.7541174E+002	-8.1735016E+001	0.0000000E+000	0.0000000E+000	0.0000000E+000	8.1735016E+001	0.0000000E+000	0.0000000E+000	0.0000000E+000	-8.1735016E+001	0.0000000E+000	0.0000000E+000	0.0000000E+000	-8.2649870E+000	0.0000000E+000	0.0000000E+000	0.0000000E+000	8.2649870E+000	6.8842001E+000	8.1735016E+001	-6.460808910746383E-007
6.3362902E+004	1.1408716E+001	1.7731339E+000	1.1545684E+001	-8.8341885E+000	1.475460970374552E+002	2.3744579E-002	1.2211346E-003	1.4165881E+000	3.3410832E-002	1.000000000000000E+000	38	5.1647513E-003	4.4733178E-004	0	-2.566632953568236E-006	8.5584968E-002	1.3301550E-002	8.6612456E-002	8.8341885E+000	3.3410839E+001	2.1497231E+002	2.1755316E+002	-8.1165810E+001	0.0000000E+000	0.0000000E+000	0.0000000E+000	8.1165810E+001	0.0000000E+000	0.0000000E+000	0.0000000E+000	-8.1165810E+001	0.0000000E+000	0.0000000E+000	0.0000000E+000	-8.8341885E+000	0.0000000E+000	0.0000000E+000	0.0000000E+000	8.8341885E+000	6.4342103E+000	8.1165810E+001	1.376379463407728E-007
5.0326602E+004	1.1522500E+001	1.8852580E+000	1.1675710E+001	-9.2921371E+000	1.480970954102959E+002	2.3774704E-002	7.0537813E-004	1.6774583E+000	4.3734755E-002	1.000000000000000E+000	38	5.1212888E-003	4.3862764E-004	0	-2.578577549706501E-006	8.4524013E-002	1.3829428E-002	8.5647896E-002	9.2921371E+000	4.3734764E+001	2.6730231E+002	2.7085651E+002	-8.0707863E+001	0.0000000E+000	0.0000000E+000	0.0000000E+000	8.0707863E+001	0.0000000E+000	0.0000000E+000	0.0000000E+000	-8.0707863E+001	0.0000000E+000	0.0000000E+000	0.0000000E+000	-9.2921371E+000	0.0000000E+000	0.0000000E+000	0.0000000E+000	9.2921371E+000	6.1118956E+000	8.0707863E+001	-1.194459613826525E-008
3.9971793E+004	1.1656576E+001	2.1299074E+000	1.1849568E+001	-1.0354939E+001	1.486480787964683E+002	2.3750750E-002	1.0777648E-003	1.8694152E+000	6.0397942E-002	1.000000000000000E+000	38	5.1539736E-003	4.3495031E-004	0	-1.496664108223841E-006	8.3016790E-002	1.5168954E-002	8.4391259E-002	1.0354939E+001	6.0397957E+001	3.3054642E+002	3.3601910E+002	-7.9645058E+001	0.0000000E+000	0.0000000E+000	0.0000000E+000	7.9645058E+001	0.0000000E+000	0.0000000E+000	0.0000000E+000	-7.9645058E+001	0.0000000E+000	0.0000000E+000	0.0000000E+000	-1.0354939E+001	0.0000000E+000	0.0000000E+000	0.0000000E+000	1.0354939E+001	5.4728088E+000	7.9645058E+001	1.081913441482660E-006
3.1751037E+004	1.1825678E+001	2.5067368E+000	1.2088440E+001	-1.1968063E+001	1.491990781559871E+002	2.3777928E-002	1.1634133E-003	1.9996477E+000	8.5986532E-002	1.000000000000000E+000	38	5.1357336E-003	4.2484669E-004	0	-1.479682105187951E-006	8.0925524E-002	1.7154111E-002	8.2723662E-002	1.1968063E+001	8.5986534E+001	4.0564655E+002	4.1465985E+002	-7.8031937E+001	0.0000000E+000	0.0000000E+000	0.0000000E+000	7.8031937E+001	0.0000000E+000	0.0000000E+000	0.0000000E+000	-7.8031937E+001	0.0000000E+000	0.0000000E+000	0.0000000E+000	-1.1968063E+001	0.0000000E+000	0.0000000E+000	0.0000000E+000	1.1968063E+001	4.7175589E+000	7.8031937E+001	1.698200303589032E-008
2.5218971E+004	1.1936418E+001	2.9117298E+000	1.2286425E+001	-1.3708812E+001	1.497500748487801E+002	2.3754310E-002	5.7317899E-004	2.1674132E+000	1.2172865E-001	1.000000000000000E+000	38	5.0999159E-003	4.1508544E-004	0	-1.206028316660296E-006	7.9072043E-002	1.9288570E-002	8.1390642E-002	1.3708812E+001	1.2172863E+002	4.9901746E+002	5.1364996E+002	-7.6291191E+001	0.0000000E+000	0.0000000E+000	0.0000000E+000	7.6291191E+001	0.0000000E+000	0.0000000E+000	0.0000000E+000	-7.6291191E+001	0.0000000E+000	0.0000000E+000	0.0000000E+000	-1.3708812E+001	0.0000000E+000	0.0000000E+000	0.0000000E+000	1.3708812E+001	4.0994248E+000	7.6291191E+001	2.736537885276550E-007
2.0032287E+004	1.2169413E+001	3.4585404E+000	1.2651328E+001	-1.5865121E+001	1.503010949283052E+002	2.3783091E-002	5.6200637E-004	2.2971890E+000	1.7167625E-001	1.000000000000000E+000	38	5.1272227E-003	4.0527151E-004	0	-9.812292959577462E-007	7.6032169E-002	2.1608301E-002	7.9043083E-002	1.5865121E+001	1.7167624E+002	6.0406958E+002	6.2799109E+002	-7.4134880E+001	0.0000000E+000	0.0000000E+000	0.0000000E+000	7.4134880E+001	0.0000000E+000	0.0000000E+000	0.0000000E+000	-7.4134880E+001	0.0000000E+000	0.0000000E+000	0.0000000E+000	-1.5865121E+001	0.0000000E+000	0.0000000E+000	0.0000000E+000	1.5865121E+001	3.5186555E+000	7.4134880E+001	2.247990207025497E-007
1.5912637E+004	1.2401998E+001	4.0152273E+000	1.3035781E+001	-1.7939699E+001	1.508520820478007E+002	2.3760183E-002	-3.5406661E-004	2.4909663E+000	2.3632737E-001	1.000000000000000E+000	38	5.1224395E-003	3.9295226E-004	0	-5.408402587171521E-007	7.2982296E-002	2.3628496E-002	7.6711938E-002	1.7939699E+001	2.3632736E+002	7.2995404E+002	7.6725714E+002	-7.2060303E+001	0.0000000E+000	0.0000000E+000	0.0000000E+000	7.2060303E+001	0.0000000E+000	0.0000000E+000	0.0000000E+000	-7.2060303E+001	0.0000000E+000	0.0000000E+000	0.0000000E+000	-1.7939699E+001	0.0000000E+000	0.0000000E+000	0.0000000E+000	1.7939699E+001	3.0887411E+000	7.2060303E+001	4.403890372405941E-007
1.2637324E+004	1.2697355E+001	4.7222004E+000	1.3547029E+001	-2.0400381E+001	1.514030951140012E+002	2.3771627E-002	5.6945218E-004	2.6669853E+000	3.2405689E-001	1.000000000000000E+000	38	5.0979597E-003	3.7631567E-004	0	-2.726880777922310E-007	6.9187097E-002	2.5730975E-002	7.3816918E-002	2.0400381E+001	3.2405692E+002	8.7134497E+002	9.2965314E+002	-6.9599617E+001	0.0000000E+000	0.0000000E+000	0.0000000E+000	6.9599617E+001	0.0000000E+000	0.0000000E+000	0.0000000E+000	-6.9599617E+001	0.0000000E+000	0.0000000E+000	0.0000000E+000	-2.0400381E+001	0.0000000E+000	0.0000000E+000	0.0000000E+000	2.0400381E+001	2.6888642E+000	6.9599617E+001	2.681521809249211E-007
1.0039345E+004	1.2934179E+001	5.5789771E+000	1.4086092E+001	-2.3332275E+001	1.519540935934783E+002	2.3792338E-002	1.0777593E-003	2.8415821E+000	4.4574687E-001	1.000000000000000E+000	38	5.0349860E-003	3.5744379E-004	0	-4.432516370891082E-007	6.5186523E-002	2.8117293E-002	7.0992008E-002	2.3332275E+001	4.4574689E+002	1.0334099E+003	1.1254449E+003	-6.6667725E+001	0.0000000E+000	0.0000000E+000	0.0000000E+000	6.6667725E+001	0.0000000E+000	0.0000000E+000	0.0000000E+000	-6.6667725E+001	0.0000000E+000	0.0000000E+000	0.0000000E+000	-2.3332275E+001	0.0000000E+000	0.0000000E+000	0.0000000E+000	2.3332275E+001	2.3183782E+000	6.6667725E+001	-1.705635592968772E-007
7.9676660E+003	1.3359600E+001	6.6623793E+000	1.4928704E+001	-2.6505249E+001	1.525842181034786E+002	2.3652794E-002	5.0986931E-004	2.9981937E+000	5.9713721E-001	1.000000000000000E+000	38	5.1987320E-003	3.4823731E-004	0	-6.116898771447268E-007	5.9944484E-002	2.9894074E-002	6.6985048E-002	2.6505249E+001	5.9713721E+002	1.1973972E+003	1.3380332E+003	-6.3494751E+001	0.0000000E+000	0.0000000E+000	0.0000000E+000	6.3494751E+001	0.0000000E+000	0.0000000E+000	0.0000000E+000	-6.3494751E+001	0.0000000E+000	0.0000000E+000	0.0000000E+000	-2.6505249E+001	0.0000000E+000	0.0000000E+000	0.0000000E+000	2.6505249E+001	2.0052297E+000	6.3494751E+001	-1.684382400556186E-007
6.3326284E+003	1.3773039E+001	7.9990964E+000	1.5927402E+001	-3.0147133E+001	1.531565254372981E+002	2.3636725E-002	6.0482742E-004	3.1419206E+000	7.9247785E-001	1.000000000000000E+000	38	5.4650023E-003	3.4311949E-004	0	-4.927396053208213E-007	5.4292500E-002	3.1531960E-002	6.2784873E-002	3.0147133E+001	7.9247778E+002	1.3645077E+003	1.5779424E+003	-5.9852867E+001	0.0000000E+000	0.0000000E+000	0.0000000E+000	5.9852867E+001	0.0000000E+000	0.0000000E+000	0.0000000E+000	-5.9852867E+001	0.0000000E+000	0.0000000E+000	0.0000000E+000	-3.0147133E+001	0.0000000E+000	0.0000000E+000	0.0000000E+000	3.0147133E+001	1.7218243E+000	5.9852867E+001	1.189502718239055E-007
5.0283892E+003	1.4229249E+001	9.6413765E+000	1.7188009E+001	-3.4120564E+001	1.540603975335835E+002	2.3651451E-002	1.1038240E-003	3.2828588E+000	1.0329496E+000	1.000000000000000E+000	38	4.9498761E-003	2.8798427E-004	0	-4.494778303425038E-007	4.8164919E-002	3.2635316E-002	5.8180094E-002	3.4120564E+001	1.0329496E+003	1.5244812E+003	1.8414744E+003	-5.5879436E+001	0.0000000E+000	0.0000000E+000	0.0000000E+000	5.5879436E+001	0.0000000E+000	0.0000000E+000	0.0000000E+000	-5.5879436E+001	0.0000000E+000	0.0000000E+000	0.0000000E+000	-3.4120564E+001	0.0000000E+000	0.0000000E+000	0.0000000E+000	3.4120564E+001	1.4758525E+000	5.5879440E+001	4.326177497831750E-008
3.9937197E+003	1.4909333E+001	1.1586480E+001	1.8882128E+001	-3.7851826E+001	1.547434268993529E+002	2.3645375E-002	9.6790242E-004	3.4394660E+000	1.2950670E+000	1.000000000000000E+000	38	5.0029745E-003	2.6495819E-004	0	-1.303754922155349E-007	4.1817334E-002	3.2497477E-002	5.2960131E-002	3.7851826E+001	1.2950669E+003	1.6664755E+003	2.1105305E+003	-5.2148174E+001	0.0000000E+000	0.0000000E+000	0.0000000E+000	5.2148174E+001	0.0000000E+000	0.0000000E+000	0.0000000E+000	-5.2148174E+001	0.0000000E+000	0.0000000E+000	0.0000000E+000	-3.7851826E+001	0.0000000E+000	0.0000000E+000	0.0000000E+000	3.7851826E+001	1.2867872E+000	5.2148178E+001	3.191023381269689E-007
3.1719580E+003	1.5439704E+001	1.3994102E+001	2.0837931E+001	-4.2188255E+001	1.554275584251591E+002	2.3697494E-002	1.2788449E-003	3.5854828E+000	1.6170691E+000	1.000000000000000E+000	38	4.9585830E-003	2.3795948E-004	0	-7.917314022739042E-008	3.5557382E-002	3.2228187E-002	4.7989409E-002	4.2188255E+001	1.6170691E+003	1.7841135E+003	2.4078982E+003	-4.7811745E+001	0.0000000E+000	0.0000000E+000	0.0000000E+000	4.7811745E+001	0.0000000E+000	0.0000000E+000	0.0000000E+000	-4.7811745E+001	0.0000000E+000	0.0000000E+000	0.0000000E+000	-4.2188255E+001	0.0000000E+000	0.0000000E+000	0.0000000E+000	4.2188255E+001	1.1033008E+000	4.7811737E+001	5.120235198814448E-008
2.5191904E+003	1.6298920E+001	1.6750534E+001	2.3371675E+001	-4.5782887E+001	1.561104098442884E+002	2.3676615E-002	1.1578182E-003	3.7716420E+000	1.9373500E+000	1.000000000000000E+000	38	4.9089063E-003	2.1003657E-004	0	1.802131796001858E-008	2.9838648E-002	3.0665424E-002	4.2786833E-002	4.5782887E+001	1.9373502E+003	1.8851169E+003	2.7031448E+003	-4.4217113E+001	0.0000000E+000	0.0000000E+000	0.0000000E+000	4.4217113E+001	0.0000000E+000	0.0000000E+000	0.0000000E+000	-4.4217113E+001	0.0000000E+000	0.0000000E+000	0.0000000E+000	-4.5782887E+001	0.0000000E+000	0.0000000E+000	0.0000000E+000	4.5782887E+001	9.7303879E-001	4.4217117E+001	9.719445818740900E-008
2.0019188E+003	1.7272696E+001	2.0495474E+001	2.6803181E+001	-4.9877266E+001	1.567931855033530E+002	2.3629287E-002	4.9683056E-004	3.8789637E+000	2.2680831E+000	1.000000000000000E+000	38	4.8887935E-003	1.8239602E-004	0	2.387325033919802E-007	2.4042934E-002	2.8528919E-002	3.7309006E-002	4.9877266E+001	2.2680833E+003	1.9114420E+003	2.9661106E+003	-4.0122734E+001	0.0000000E+000	0.0000000E+000	0.0000000E+000	4.0122734E+001	0.0000000E+000	0.0000000E+000	0.0000000E+000	-4.0122734E+001	0.0000000E+000	0.0000000E+000	0.0000000E+000	-4.9877266E+001	0.0000000E+000	0.0000000E+000	0.0000000E+000	4.9877266E+001	8.4275657E-001	4.0122742E+001	2.207111854319616E-007
1.5894919E+003	1.8616688E+001	2.4804831E+001	3.1013880E+001	-5.3110794E+001	1.574764287625003E+002	2.3638831E-002	-1.9953352E-004	4.0366912E+000	2.5821762E+000	1.000000000000000E+000	38	4.8634084E-003	1.5681393E-004	0	1.764654429454014E-007	1.9354869E-002	2.5788382E-002	3.2243628E-002	5.3110794E+001	2.5821763E+003	1.9379921E+003	3.2285364E+003	-3.6889206E+001	0.0000000E+000	0.0000000E+000	0.0000000E+000	3.6889206E+001	0.0000000E+000	0.0000000E+000	0.0000000E+000	-3.6889206E+001	0.0000000E+000	0.0000000E+000	0.0000000E+000	-5.3110794E+001	0.0000000E+000	0.0000000E+000	0.0000000E+000	5.3110794E+001	7.5052673E-001	3.6889206E+001	-6.226706044657879E-008
1.2629777E+003	2.0081545E+001	3.0300924E+001	3.6351265E+001	-5.6466087E+001	1.584146760870499E+002	2.3651116E-002	-5.4636523E-005	4.1588054E+000	2.8896236E+000	1.000000000000000E+000	39	5.3639580E-003	1.4755904E-004	0	3.920592694541685E-008	1.5197008E-002	2.2930674E-002	2.7509360E-002	5.6466087E+001	2.8896238E+003	1.9150609E+003	3.4666099E+003	-3.3533913E+001	0.0000000E+000	0.0000000E+000	0.0000000E+000	3.3533913E+001	0.0000000E+000	0.0000000E+000	0.0000000E+000	-3.3533913E+001	0.0000000E+000	0.0000000E+000	0.0000000E+000	-5.6466087E+001	0.0000000E+000	0.0000000E+000	0.0000000E+000	5.6466087E+001	6.6273701E-001	3.3533905E+001	-1.372595159999845E-007
