EC-Lab ASCII FILE
Nb header lines : 65                          

Potentio Electrochemical Impedance Spectroscopy

Run on channel : 15 (SN 19485)
User : 
Electrode connection : standard
Potential control : Ewe
Ewe ctrl range : min = -1.00 V, max = 1.00 V
Ewe,I filtering : <None>
Safety Limits :
	Do not start on E overload
Channel : Floating
Acquisition started on : 03/27/2024 15:36:45.743
Loaded Setting File :  C:\Data\mathias\GoldElectrode\240327-CVEIS-5mM_DiCaFerrocene-1M_NaCl-453p5mVvsRef-2000RPM-Ag_AgCl_BLF8-Au_RDE_02_PEIS_C15.mpr
Saved on :
	File : 240327-CVEIS-5mM_DiCaFerrocene-1M_NaCl-ReNeutralized-453p5mVvsRef-2000RPM-Ag_AgCl_BLF8-Au_RDE_PEIS_C15.mpr
	Directory : C:\Data\mathias\GoldElectrode\
	Host : 192.168.0.1
Device : VMP-300 (SN 0826)
Address : USB
EC-Lab for windows v11.52 (software)
Internet server v11.52 (firmware)
Command interpretor v11.52 (firmware)
Electrode material : 
Initial state : 
Electrolyte : 
Comments : 
Cable : special
Electrode surface area : 0.001 cm²
Characteristic mass : 0.001 g
Equivalent Weight : 0.000 g/eq.
Density : 0.000 g/cm3
Volume (V) : 0.001 cm³
Cycle Definition : Charge/Discharge alternance
Mode                Multi sine          
E (V)               0.4535              
vs.                 Ref                 
tE (h:m:s)          0:00:0.0000         
record              0                   
dI                  0.000               
unit dI             mA                  
dt (s)              0.000               
fi                  400.000             
unit fi             kHz                 
ff                  100.000             
unit ff             mHz                 
Nd                  10                  
Points              per decade          
spacing             Logarithmic         
Va (mV)             5.0                 
pw                  0.10                
Na                  3                   
corr                0                   
E range min (V)     -1.000              
E range max (V)     1.000               
I Range             Auto                
Bandwidth           8                   
nc cycles           2                   
goto Ns'            0                   
nr cycles           0                   
inc. cycle          1                   

freq/Hz	Re(Z)/Ohm	-Im(Z)/Ohm	|Z|/Ohm	Phase(Z)/deg	time/s	<Ewe>/V	<I>/mA	Cs/µF	Cp/µF	cycle number	I Range	|Ewe|/V	|I|/A	Ns	(Q-Qo)/mA.h	Re(Y)/Ohm-1	Im(Y)/Ohm-1	|Y|/Ohm-1	Phase(Y)/deg	Re(C)/nF	Im(C)/nF	|C|/nF	Phase(C)/deg	Re(M)	Im(M)	|M|	Phase(M)/deg	Re(Permittivity)	Im(Permittivity)	|Permittivity|	Phase(Permittivity)/deg	Re(Resistivity)/Ohm.cm	Im(Resistivity)/Ohm.cm	|Resistivity|/Ohm.cm	Phase(Resistivity)/deg	Re(Conductivity)/mS/cm	Im(Conductivity)/mS/cm	|Conductivity|/mS/cm	Phase(Conductivity)/deg	Tan(Delta)	Loss Angle(Delta)/deg	dq/mA.h	
3.9999628E+005	1.3267555E+001	3.4324617E+000	1.3704372E+001	-1.4505013E+001	2.185475757083623E+000	4.5338202E-001	1.7062470E-002	1.1592002E-001	7.2719618E-003	1.000000000000000E+000	38	4.9675694E-003	3.6248061E-004	0	1.875803709390715E-005	7.0643567E-002	1.8276263E-002	7.2969414E-002	1.4505013E+001	7.2719617E+000	2.8108444E+001	2.9033878E+001	-7.5494987E+001	0.0000000E+000	0.0000000E+000	0.0000000E+000	7.5494987E+001	0.0000000E+000	0.0000000E+000	0.0000000E+000	-7.5494987E+001	0.0000000E+000	0.0000000E+000	0.0000000E+000	-1.4505013E+001	0.0000000E+000	0.0000000E+000	0.0000000E+000	1.4505013E+001	3.8653178E+000	7.5494987E+001	1.875803709390715E-005
3.1770525E+005	1.3424769E+001	2.8372643E+000	1.3721315E+001	-1.1933594E+001	2.736477916623699E+000	4.5338798E-001	1.3912078E-002	1.7656147E-001	7.5492538E-003	1.000000000000000E+000	38	5.1652421E-003	3.7643927E-004	0	2.058567322942286E-005	7.1304232E-002	1.5069828E-002	7.2879307E-002	1.1933594E+001	7.5492544E+000	3.5719971E+001	3.6509007E+001	-7.8066406E+001	0.0000000E+000	0.0000000E+000	0.0000000E+000	7.8066406E+001	0.0000000E+000	0.0000000E+000	0.0000000E+000	-7.8066406E+001	0.0000000E+000	0.0000000E+000	0.0000000E+000	-1.1933594E+001	0.0000000E+000	0.0000000E+000	0.0000000E+000	1.1933594E+001	4.7315893E+000	7.8066406E+001	1.827636135515705E-006
2.5234747E+005	1.3508244E+001	2.4218035E+000	1.3723621E+001	-1.0164198E+001	3.287491782772122E+000	4.5338395E-001	1.1599555E-002	2.6042476E-001	8.1100333E-003	1.000000000000000E+000	38	5.1839398E-003	3.7773847E-004	0	2.237494576485834E-005	7.1723498E-002	1.2858830E-002	7.2867066E-002	1.0164198E+001	8.1100349E+000	4.5235836E+001	4.5957085E+001	-7.9835800E+001	0.0000000E+000	0.0000000E+000	0.0000000E+000	7.9835800E+001	0.0000000E+000	0.0000000E+000	0.0000000E+000	-7.9835800E+001	0.0000000E+000	0.0000000E+000	0.0000000E+000	-1.0164198E+001	0.0000000E+000	0.0000000E+000	0.0000000E+000	1.0164198E+001	5.5777621E+000	7.9835800E+001	1.789272535435482E-006
2.0043423E+005	1.3584532E+001	2.1341357E+000	1.3751147E+001	-8.9282179E+000	3.838492875598604E+000	4.5335236E-001	1.0849195E-002	3.7207133E-001	8.9617418E-003	1.000000000000000E+000	38	5.1671313E-003	3.7576002E-004	0	2.366155991436972E-005	7.1840085E-002	1.1286108E-002	7.2721206E-002	8.9282179E+000	8.9617395E+000	5.7044666E+001	5.7744324E+001	-8.1071785E+001	0.0000000E+000	0.0000000E+000	0.0000000E+000	8.1071785E+001	0.0000000E+000	0.0000000E+000	0.0000000E+000	-8.1071785E+001	0.0000000E+000	0.0000000E+000	0.0000000E+000	-8.9282179E+000	0.0000000E+000	0.0000000E+000	0.0000000E+000	8.9282179E+000	6.3653550E+000	8.1071785E+001	1.286614149511375E-006
1.5920056E+005	1.3657012E+001	1.9535155E+000	1.3796021E+001	-8.1404371E+000	4.389495195151540E+000	4.5338175E-001	9.2237256E-003	5.1175094E-001	1.0260882E-002	1.000000000000000E+000	38	5.1635532E-003	3.7427843E-004	0	2.474782625039774E-005	7.1754307E-002	1.0263822E-002	7.2484665E-002	8.1404371E+000	1.0260878E+001	7.1733742E+001	7.2463890E+001	-8.1859566E+001	0.0000000E+000	0.0000000E+000	0.0000000E+000	8.1859566E+001	0.0000000E+000	0.0000000E+000	0.0000000E+000	-8.1859566E+001	0.0000000E+000	0.0000000E+000	0.0000000E+000	-8.1404371E+000	0.0000000E+000	0.0000000E+000	0.0000000E+000	8.1404371E+000	6.9909921E+000	8.1859566E+001	1.086266336028027E-006
1.2644745E+005	1.3744867E+001	1.8421454E+000	1.3867764E+001	-7.6335349E+000	4.940501274628332E+000	4.5339933E-001	8.3020674E-003	6.8326026E-001	1.2056497E-002	1.000000000000000E+000	38	5.1532472E-003	3.7159902E-004	0	2.624563742650854E-005	7.1470648E-002	9.5787998E-003	7.2109684E-002	7.6335349E+000	1.2056501E+001	8.9957581E+001	9.0761917E+001	-8.2366463E+001	0.0000000E+000	0.0000000E+000	0.0000000E+000	8.2366463E+001	0.0000000E+000	0.0000000E+000	0.0000000E+000	-8.2366463E+001	0.0000000E+000	0.0000000E+000	0.0000000E+000	-7.6335349E+000	0.0000000E+000	0.0000000E+000	0.0000000E+000	7.6335349E+000	7.4613366E+000	8.2366463E+001	1.497811176110795E-006
1.0043052E+005	1.3824228E+001	1.8731930E+000	1.3950561E+001	-7.7166224E+000	5.491478314128472E+000	4.5335284E-001	7.7192825E-003	8.4600300E-001	1.5252942E-002	1.000000000000000E+000	38	5.1474129E-003	3.6897534E-004	0	2.775347098400137E-005	7.1032576E-002	9.6249664E-003	7.1681708E-002	7.7166224E+000	1.5252941E+001	1.1256723E+002	1.1359592E+002	-8.2283379E+001	0.0000000E+000	0.0000000E+000	0.0000000E+000	8.2283379E+001	0.0000000E+000	0.0000000E+000	0.0000000E+000	-8.2283379E+001	0.0000000E+000	0.0000000E+000	0.0000000E+000	-7.7166224E+000	0.0000000E+000	0.0000000E+000	0.0000000E+000	7.7166224E+000	7.3800340E+000	8.2283379E+001	1.507833557492833E-006
7.9767297E+004	1.3932323E+001	1.8835620E+000	1.4059069E+001	-7.6993461E+000	6.042500606999965E+000	4.5338467E-001	7.5181928E-003	1.0592911E+000	1.9013500E-002	1.000000000000000E+000	38	5.1785442E-003	3.6834192E-004	0	2.889102482236871E-005	7.0487224E-002	9.5294276E-003	7.1128465E-002	7.6993461E+000	1.9013508E+001	1.4063898E+002	1.4191841E+002	-8.2300652E+001	0.0000000E+000	0.0000000E+000	0.0000000E+000	8.2300652E+001	0.0000000E+000	0.0000000E+000	0.0000000E+000	-8.2300652E+001	0.0000000E+000	0.0000000E+000	0.0000000E+000	-7.6993461E+000	0.0000000E+000	0.0000000E+000	0.0000000E+000	7.6993461E+000	7.3967953E+000	8.2300652E+001	1.137553838367342E-006
6.3362902E+004	1.4008329E+001	2.0191197E+000	1.4153096E+001	-8.2019577E+000	6.594495966535760E+000	4.5336670E-001	6.5369532E-003	1.2440076E+000	2.5318865E-002	1.000000000000000E+000	38	5.1839789E-003	3.6627878E-004	0	2.985640992664655E-005	6.9933206E-002	1.0079968E-002	7.0655920E-002	8.2019577E+000	2.5318865E+001	1.7565823E+002	1.7747354E+002	-8.1798042E+001	0.0000000E+000	0.0000000E+000	0.0000000E+000	8.1798042E+001	0.0000000E+000	0.0000000E+000	0.0000000E+000	-8.1798042E+001	0.0000000E+000	0.0000000E+000	0.0000000E+000	-8.2019577E+000	0.0000000E+000	0.0000000E+000	0.0000000E+000	8.2019577E+000	6.9378400E+000	8.1798042E+001	9.653851042778313E-007
5.0326602E+004	1.4162892E+001	2.2226934E+000	1.4336244E+001	-8.9191246E+000	7.145484179345658E+000	4.5335737E-001	6.9447169E-003	1.4227971E+000	3.4200411E-002	1.000000000000000E+000	38	5.0965548E-003	3.5550140E-004	0	3.087829010074104E-005	6.8909839E-002	1.0814559E-002	6.9753282E-002	8.9191246E+000	3.4200428E+001	2.1792334E+002	2.2059068E+002	-8.1080872E+001	0.0000000E+000	0.0000000E+000	0.0000000E+000	8.1080872E+001	0.0000000E+000	0.0000000E+000	0.0000000E+000	-8.1080872E+001	0.0000000E+000	0.0000000E+000	0.0000000E+000	-8.9191246E+000	0.0000000E+000	0.0000000E+000	0.0000000E+000	8.9191246E+000	6.3719501E+000	8.1080872E+001	1.021880174094496E-006
3.9971793E+004	1.4358979E+001	2.4955072E+000	1.4574219E+001	-9.8591967E+000	7.696485938882688E+000	4.5335355E-001	6.5928102E-003	1.5955398E+000	4.6779413E-002	1.000000000000000E+000	38	5.1527326E-003	3.5355121E-004	0	3.188652325080410E-005	6.7600980E-002	1.1748658E-002	6.8614312E-002	9.8591967E+000	4.6779423E+001	2.6916556E+002	2.7320032E+002	-8.0140800E+001	0.0000000E+000	0.0000000E+000	0.0000000E+000	8.0140800E+001	0.0000000E+000	0.0000000E+000	0.0000000E+000	-8.0140800E+001	0.0000000E+000	0.0000000E+000	0.0000000E+000	-9.8591967E+000	0.0000000E+000	0.0000000E+000	0.0000000E+000	9.8591967E+000	5.7539320E+000	8.0140800E+001	1.008233150063059E-006
3.1751037E+004	1.4615012E+001	2.7914031E+000	1.4879197E+001	-1.0813013E+001	8.247485938394675E+000	4.5337784E-001	6.1310506E-003	1.7957242E+000	6.3201264E-002	1.000000000000000E+000	38	5.1843072E-003	3.4842655E-004	0	3.249362076046721E-005	6.6014625E-002	1.2608503E-002	6.7207925E-002	1.0813013E+001	6.3201256E+001	3.3090433E+002	3.3688583E+002	-7.9186989E+001	0.0000000E+000	0.0000000E+000	0.0000000E+000	7.9186989E+001	0.0000000E+000	0.0000000E+000	0.0000000E+000	-7.9186989E+001	0.0000000E+000	0.0000000E+000	0.0000000E+000	-1.0813013E+001	0.0000000E+000	0.0000000E+000	0.0000000E+000	1.0813013E+001	5.2357225E+000	7.9186989E+001	6.070975096631140E-007
2.5218971E+004	1.4898113E+001	3.1766918E+000	1.5233028E+001	-1.2036791E+001	8.798481297882972E+000	4.5335591E-001	5.1870490E-003	1.9866331E+000	8.6396337E-002	1.000000000000000E+000	38	5.1403083E-003	3.3744494E-004	0	3.323985548521482E-005	6.4203508E-002	1.3689972E-002	6.5646827E-002	1.2036791E+001	8.6396332E+001	4.0518332E+002	4.1429199E+002	-7.7963211E+001	0.0000000E+000	0.0000000E+000	0.0000000E+000	7.7963211E+001	0.0000000E+000	0.0000000E+000	0.0000000E+000	-7.7963211E+001	0.0000000E+000	0.0000000E+000	0.0000000E+000	-1.2036791E+001	0.0000000E+000	0.0000000E+000	0.0000000E+000	1.2036791E+001	4.6898203E+000	7.7963211E+001	7.462347247476098E-007
2.0032287E+004	1.5180077E+001	3.6050730E+000	1.5602284E+001	-1.3359521E+001	9.349495164031396E+000	4.5334437E-001	5.5147493E-003	2.2038171E+000	1.1765958E-001	1.000000000000000E+000	38	5.1190574E-003	3.2809665E-004	0	3.402955539638383E-005	6.2358778E-002	1.4809407E-002	6.4093180E-002	1.3359521E+001	1.1765957E+002	4.9543558E+002	5.0921527E+002	-7.6640480E+001	0.0000000E+000	0.0000000E+000	0.0000000E+000	7.6640480E+001	0.0000000E+000	0.0000000E+000	0.0000000E+000	-7.6640480E+001	0.0000000E+000	0.0000000E+000	0.0000000E+000	-1.3359521E+001	0.0000000E+000	0.0000000E+000	0.0000000E+000	1.3359521E+001	4.2107544E+000	7.6640480E+001	7.896999111690089E-007
1.5912637E+004	1.5651640E+001	4.1582470E+000	1.6194593E+001	-1.4878349E+001	9.900481003540335E+000	4.5335135E-001	5.4886816E-003	2.4052913E+000	1.5857990E-001	1.000000000000000E+000	38	5.0768591E-003	3.1349098E-004	0	3.489411123109716E-005	5.9678756E-002	1.5855145E-002	6.1749004E-002	1.4878349E+001	1.5857990E+002	5.9689471E+002	6.1760089E+002	-7.5121651E+001	0.0000000E+000	0.0000000E+000	0.0000000E+000	7.5121651E+001	0.0000000E+000	0.0000000E+000	0.0000000E+000	-7.5121651E+001	0.0000000E+000	0.0000000E+000	0.0000000E+000	-1.4878349E+001	0.0000000E+000	0.0000000E+000	0.0000000E+000	1.4878349E+001	3.7639995E+000	7.5121651E+001	8.645558347133295E-007
1.2637324E+004	1.6049927E+001	4.7298312E+000	1.6732347E+001	-1.6419975E+001	1.045147692304454E+001	4.5333466E-001	5.6916326E-003	2.6626825E+000	2.1276340E-001	1.000000000000000E+000	38	5.0829146E-003	3.0377772E-004	0	3.615064227634866E-005	5.7327013E-002	1.6893977E-002	5.9764478E-002	1.6419975E+001	2.1276338E+002	7.2197858E+002	7.5267609E+002	-7.3580025E+001	0.0000000E+000	0.0000000E+000	0.0000000E+000	7.3580025E+001	0.0000000E+000	0.0000000E+000	0.0000000E+000	-7.3580025E+001	0.0000000E+000	0.0000000E+000	0.0000000E+000	-1.6419975E+001	0.0000000E+000	0.0000000E+000	0.0000000E+000	1.6419975E+001	3.3933403E+000	7.3580025E+001	1.256531045251497E-006
1.0039345E+004	1.6593170E+001	5.5308146E+000	1.7490660E+001	-1.8434196E+001	1.086748856949271E+001	4.5336643E-001	5.0231982E-003	2.8663266E+000	2.8661010E-001	1.000000000000000E+000	38	5.4055173E-003	3.0905165E-004	0	3.644962368305682E-005	5.4239661E-002	1.8079095E-002	5.7173371E-002	1.8434196E+001	2.8661011E+002	8.5986798E+002	9.0637646E+002	-7.1565804E+001	0.0000000E+000	0.0000000E+000	0.0000000E+000	7.1565804E+001	0.0000000E+000	0.0000000E+000	0.0000000E+000	-7.1565804E+001	0.0000000E+000	0.0000000E+000	0.0000000E+000	-1.8434196E+001	0.0000000E+000	0.0000000E+000	0.0000000E+000	1.8434196E+001	3.0001314E+000	7.1565804E+001	2.989814067081616E-007
7.9676660E+003	1.7190371E+001	6.3799338E+000	1.8336096E+001	-2.0361610E+001	1.149661819942048E+001	4.5322394E-001	5.3006248E-003	3.1309264E+000	3.7904561E-001	1.000000000000000E+000	38	5.0927391E-003	2.7774391E-004	0	3.786265004615658E-005	5.1129494E-002	1.8975902E-002	5.4537237E-002	2.0361610E+001	3.7904559E+002	1.0213169E+003	1.0893868E+003	-6.9638390E+001	0.0000000E+000	0.0000000E+000	0.0000000E+000	6.9638390E+001	0.0000000E+000	0.0000000E+000	0.0000000E+000	-6.9638390E+001	0.0000000E+000	0.0000000E+000	0.0000000E+000	-2.0361610E+001	0.0000000E+000	0.0000000E+000	0.0000000E+000	2.0361610E+001	2.6944435E+000	6.9638390E+001	1.413026363099761E-006
6.3326284E+003	1.8060547E+001	7.3076615E+000	1.9482948E+001	-2.2029249E+001	1.206992078662734E+001	4.5323244E-001	4.6359133E-003	3.4392023E+000	4.8384380E-001	1.000000000000000E+000	38	5.3293202E-003	2.7353768E-004	0	3.883402391653443E-005	4.7579683E-002	1.9251700E-002	5.1326934E-002	2.2029249E+001	4.8384387E+002	1.1957976E+003	1.2899755E+003	-6.7970749E+001	0.0000000E+000	0.0000000E+000	0.0000000E+000	6.7970749E+001	0.0000000E+000	0.0000000E+000	0.0000000E+000	-6.7970749E+001	0.0000000E+000	0.0000000E+000	0.0000000E+000	-2.2029249E+001	0.0000000E+000	0.0000000E+000	0.0000000E+000	2.2029249E+001	2.4714537E+000	6.7970749E+001	9.713738703778479E-007
5.0283892E+003	1.8926466E+001	8.3615017E+000	2.0691202E+001	-2.3835308E+001	1.275579959254537E+001	4.5326161E-001	4.8723794E-003	3.7853580E+000	6.1816454E-001	1.000000000000000E+000	38	5.4356852E-003	2.6270514E-004	0	3.954700317041109E-005	4.4207714E-002	1.9530477E-002	4.8329718E-002	2.3835308E+001	6.1816467E+002	1.3992307E+003	1.5296974E+003	-6.6164688E+001	0.0000000E+000	0.0000000E+000	0.0000000E+000	6.6164688E+001	0.0000000E+000	0.0000000E+000	0.0000000E+000	-6.6164688E+001	0.0000000E+000	0.0000000E+000	0.0000000E+000	-2.3835308E+001	0.0000000E+000	0.0000000E+000	0.0000000E+000	2.3835308E+001	2.2635248E+000	6.6164688E+001	7.129792538766594E-007
3.9937197E+003	1.9981924E+001	9.5670834E+000	2.2154150E+001	-2.5584488E+001	1.343981306503701E+001	4.5323682E-001	4.4497200E-003	4.1654601E+000	7.7680480E-001	1.000000000000000E+000	38	5.4793041E-003	2.4732630E-004	0	4.016212054443491E-005	4.0712439E-002	1.9492581E-002	4.5138270E-002	2.5584488E+001	7.7680481E+002	1.6224438E+003	1.7988190E+003	-6.4415512E+001	0.0000000E+000	0.0000000E+000	0.0000000E+000	6.4415512E+001	0.0000000E+000	0.0000000E+000	0.0000000E+000	-6.4415512E+001	0.0000000E+000	0.0000000E+000	0.0000000E+000	-2.5584488E+001	0.0000000E+000	0.0000000E+000	0.0000000E+000	2.5584488E+001	2.0886118E+000	6.4415512E+001	6.151173740238168E-007
3.1719580E+003	2.1122490E+001	1.0978433E+001	2.3805159E+001	-2.7463194E+001	1.412394851085264E+001	4.5322520E-001	4.9822330E-003	4.5703807E+000	9.7205508E-001	1.000000000000000E+000	38	5.4745977E-003	2.2997527E-004	0	4.118415306266009E-005	3.7273742E-002	1.9373059E-002	4.2007703E-002	2.7463194E+001	9.7205511E+002	1.8702327E+003	2.1077622E+003	-6.2536804E+001	0.0000000E+000	0.0000000E+000	0.0000000E+000	6.2536804E+001	0.0000000E+000	0.0000000E+000	0.0000000E+000	-6.2536804E+001	0.0000000E+000	0.0000000E+000	0.0000000E+000	-2.7463194E+001	0.0000000E+000	0.0000000E+000	0.0000000E+000	2.7463194E+001	1.9239987E+000	6.2536804E+001	1.022032518225185E-006
2.5191904E+003	2.2527487E+001	1.2352022E+001	2.5691635E+001	-2.8736351E+001	1.480682798329508E+001	4.5323589E-001	3.8892766E-003	5.1147108E+000	1.1822619E+000	1.000000000000000E+000	38	5.4626609E-003	2.1262410E-004	0	4.213347715433257E-005	3.4129448E-002	1.8713480E-002	3.8923174E-002	2.8736351E+001	1.1822618E+003	2.1561968E+003	2.4590500E+003	-6.1263649E+001	0.0000000E+000	0.0000000E+000	0.0000000E+000	6.1263649E+001	0.0000000E+000	0.0000000E+000	0.0000000E+000	-6.1263649E+001	0.0000000E+000	0.0000000E+000	0.0000000E+000	-2.8736351E+001	0.0000000E+000	0.0000000E+000	0.0000000E+000	2.8736351E+001	1.8237894E+000	6.1263649E+001	9.493240916724787E-007
2.0019188E+003	2.4193634E+001	1.4189622E+001	2.8047768E+001	-3.0391722E+001	1.549057340240688E+001	4.5321485E-001	4.5260577E-003	5.6027708E+000	1.4339958E+000	1.000000000000000E+000	38	5.4440908E-003	1.9410068E-004	0	4.278418102427976E-005	3.0754203E-002	1.8037412E-002	3.5653461E-002	3.0391722E+001	1.4339960E+003	2.4449961E+003	2.8344929E+003	-5.9608276E+001	0.0000000E+000	0.0000000E+000	0.0000000E+000	5.9608276E+001	0.0000000E+000	0.0000000E+000	0.0000000E+000	-5.9608276E+001	0.0000000E+000	0.0000000E+000	0.0000000E+000	-3.0391722E+001	0.0000000E+000	0.0000000E+000	0.0000000E+000	3.0391722E+001	1.7050232E+000	5.9608276E+001	6.507038699471860E-007
1.5894919E+003	2.6301832E+001	1.5716259E+001	3.0639633E+001	-3.0859785E+001	1.617383226155653E+001	4.5323613E-001	3.9041711E-003	6.3710737E+000	1.6762695E+000	1.000000000000000E+000	38	5.4354495E-003	1.7739930E-004	0	4.374983579463090E-005	2.8016821E-002	1.6741024E-002	3.2637466E-002	3.0859785E+001	1.6762695E+003	2.8053086E+003	3.2679712E+003	-5.9140213E+001	0.0000000E+000	0.0000000E+000	0.0000000E+000	5.9140213E+001	0.0000000E+000	0.0000000E+000	0.0000000E+000	-5.9140213E+001	0.0000000E+000	0.0000000E+000	0.0000000E+000	-3.0859785E+001	0.0000000E+000	0.0000000E+000	0.0000000E+000	3.0859785E+001	1.6735429E+000	5.9140213E+001	9.656547703511468E-007
1.2629777E+003	2.8581730E+001	1.7755676E+001	3.3647873E+001	-3.1849571E+001	1.733408956995117E+001	4.5320526E-001	1.0564132E-002	7.0972037E+000	1.9762708E+000	1.000000000000000E+000	39	5.0827628E-003	1.5105748E-004	0	4.668253382573635E-005	2.5244879E-002	1.5682742E-002	2.9719561E-002	3.1849571E+001	1.9762708E+003	3.1812495E+003	3.7451294E+003	-5.8150429E+001	0.0000000E+000	0.0000000E+000	0.0000000E+000	5.8150429E+001	0.0000000E+000	0.0000000E+000	0.0000000E+000	-5.8150429E+001	0.0000000E+000	0.0000000E+000	0.0000000E+000	-3.1849571E+001	0.0000000E+000	0.0000000E+000	0.0000000E+000	3.1849571E+001	1.6097236E+000	5.8150429E+001	2.932698031105450E-006
