EC-Lab ASCII FILE
Nb header lines : 66                          

Potentio Electrochemical Impedance Spectroscopy

Run on channel : 15 (SN 19485)
User : 
Electrode connection : standard
Potential control : Ewe
Ewe ctrl range : min = -1.00 V, max = 1.00 V
Ewe,I filtering : <None>
Safety Limits :
	Do not start on E overload
Channel : Floating
Acquisition started on : 04/05/2024 14:02:43.389
Loaded Setting File :  NONE
Saved on :
	File : 240405-EIS-50mM_FeCl2FeCl3-1M_HCl-30mLmin-LowFreq_20ppd_C15.mpr
	Directory : C:\Data\mathias\IRFB\
	Host : 192.168.0.1
Device : VMP-300 (SN 0826)
Address : USB
EC-Lab for windows v11.52 (software)
Internet server v11.52 (firmware)
Command interpretor v11.52 (firmware)
Electrode material : 
Initial state : 
Electrolyte : 
Comments : 
Cable : special
Electrode surface area : 0.001 cm²
Characteristic mass : 0.001 g
Equivalent Weight : 0.000 g/eq.
Density : 0.000 g/cm3
Volume (V) : 0.001 cm³
Record EIS quality indicators
Cycle Definition : Charge/Discharge alternance
Mode                Single sine         
E (V)               0.0000              
vs.                 Eoc                 
tE (h:m:s)          0:00:0.0000         
record              0                   
dI                  0.000               
unit dI             mA                  
dt (s)              0.000               
fi                  300.000             
unit fi             kHz                 
ff                  25.000              
unit ff             mHz                 
Nd                  20                  
Points              per decade          
spacing             Logarithmic         
Va (mV)             5.0                 
pw                  0.10                
Na                  3                   
corr                0                   
E range min (V)     -1.000              
E range max (V)     1.000               
I Range             Auto                
Bandwidth           8                   
nc cycles           2                   
goto Ns'            0                   
nr cycles           0                   
inc. cycle          0                   

freq/Hz	Re(Z)/Ohm	-Im(Z)/Ohm	|Z|/Ohm	Phase(Z)/deg	time/s	<Ewe>/V	<I>/mA	Cs/µF	Cp/µF	cycle number	I Range	|Ewe|/V	|I|/A	Ns	(Q-Qo)/mA.h	THD Ewe/%	NSD Ewe/%	NSR Ewe/%	|Ewe h2|/V	|Ewe h3|/V	|Ewe h4|/V	|Ewe h5|/V	|Ewe h6|/V	|Ewe h7|/V	THD I/%	NSD I/%	NSR I/%	|I h2|/A	|I h3|/A	|I h4|/A	|I h5|/A	|I h6|/A	|I h7|/A	Re(Y)/Ohm-1	Im(Y)/Ohm-1	|Y|/Ohm-1	Phase(Y)/deg	Re(C)/nF	Im(C)/nF	|C|/nF	Phase(C)/deg	Re(M)	Im(M)	|M|	Phase(M)/deg	Re(Permittivity)	Im(Permittivity)	|Permittivity|	Phase(Permittivity)/deg	Re(Resistivity)/Ohm.cm	Im(Resistivity)/Ohm.cm	|Resistivity|/Ohm.cm	Phase(Resistivity)/deg	Re(Conductivity)/mS/cm	Im(Conductivity)/mS/cm	|Conductivity|/mS/cm	Phase(Conductivity)/deg	Tan(Delta)	Loss Angle(Delta)/deg	dq/mA.h	
3.0000184E+005	4.4390801E-002	-4.8528269E-002	6.5768808E-002	4.7549561E+001	1.822494379855925E+000	-7.0736387E-005	-4.4423494E-001	-1.0932045E+001	-5.9518375E+000	1.000000000000000E+000	37	1.4535558E-003	2.2100991E-002	0	-1.985216095497211E-004	-1	-1	-1	0	0	0	0	0	0	-1	-1	-1	0	0	0	0	0	0	1.0262497E+001	-1.1219018E+001	1.5204776E+001	-4.7549561E+001	-5.9518374E+003	5.4443906E+003	8.0663350E+003	-1.3754956E+002	0.0000000E+000	0.0000000E+000	0.0000000E+000	1.3754956E+002	0.0000000E+000	0.0000000E+000	0.0000000E+000	-1.3754956E+002	0.0000000E+000	0.0000000E+000	0.0000000E+000	4.7549561E+001	0.0000000E+000	0.0000000E+000	0.0000000E+000	-4.7549561E+001	9.1474110E-001	4.2450439E+001	-1.985216095497211E-004
2.6746216E+005	4.6879660E-002	-4.2683680E-002	6.3400306E-002	4.2317696E+001	2.969501074374421E+000	-7.5471129E-005	-4.4254124E-001	-1.3941065E+001	-6.3188338E+000	1.000000000000000E+000	37	1.6826527E-003	2.6540136E-002	0	-3.235976706218078E-004	-1	-1	-1	0	0	0	0	0	0	-1	-1	-1	0	0	0	0	0	0	1.1662770E+001	-1.0618891E+001	1.5772795E+001	-4.2317696E+001	-6.3188330E+003	6.9400020E+003	9.3856953E+003	-1.3231769E+002	0.0000000E+000	0.0000000E+000	0.0000000E+000	1.3231769E+002	0.0000000E+000	0.0000000E+000	0.0000000E+000	-1.3231769E+002	0.0000000E+000	0.0000000E+000	0.0000000E+000	4.2317696E+001	0.0000000E+000	0.0000000E+000	0.0000000E+000	-4.2317696E+001	1.0983042E+000	4.7682304E+001	-1.250760610720867E-004
2.3845753E+005	4.9110632E-002	-3.7905715E-002	6.2037870E-002	3.7662518E+001	4.116479048825568E+000	-7.6496355E-005	-3.9057842E-001	-1.7607771E+001	-6.5735507E+000	1.000000000000000E+000	37	1.9685961E-003	3.1732168E-002	0	-4.985095127069701E-004	-1	-1	-1	0	0	0	0	0	0	-1	-1	-1	0	0	0	0	0	0	1.2760325E+001	-9.8489723E+000	1.6119186E+001	-3.7662518E+001	-6.5735513E+003	8.5166895E+003	1.0758512E+004	-1.2766252E+002	0.0000000E+000	0.0000000E+000	0.0000000E+000	1.2766252E+002	0.0000000E+000	0.0000000E+000	0.0000000E+000	-1.2766252E+002	0.0000000E+000	0.0000000E+000	0.0000000E+000	3.7662518E+001	0.0000000E+000	0.0000000E+000	0.0000000E+000	-3.7662518E+001	1.2955997E+000	5.2337482E+001	-1.749118420851624E-004
2.1259836E+005	5.0628498E-002	-3.3358496E-002	6.0630307E-002	3.3380398E+001	5.263497343315976E+000	-7.4035772E-005	-3.7952301E-001	-2.2441597E+001	-6.7933993E+000	1.000000000000000E+000	37	2.2918694E-003	3.7800722E-002	0	-5.409356349814269E-004	-1	-1	-1	0	0	0	0	0	0	-1	-1	-1	0	0	0	0	0	0	1.3772587E+001	-9.0745888E+000	1.6493402E+001	-3.3380398E+001	-6.7934004E+003	1.0310404E+004	1.2347256E+004	-1.2338040E+002	0.0000000E+000	0.0000000E+000	0.0000000E+000	1.2338040E+002	0.0000000E+000	0.0000000E+000	0.0000000E+000	-1.2338040E+002	0.0000000E+000	0.0000000E+000	0.0000000E+000	3.3380398E+001	0.0000000E+000	0.0000000E+000	0.0000000E+000	-3.3380398E+001	1.5177093E+000	5.6619602E+001	-4.242612227445676E-005
1.8954127E+005	5.1701847E-002	-2.9449742E-002	5.9500996E-002	2.9666147E+001	6.412478064565221E+000	-7.5377895E-005	-3.8663244E-001	-2.8512472E+001	-6.9847264E+000	1.000000000000000E+000	37	2.6722399E-003	4.4910844E-002	0	-6.900263519609967E-004	-1	-1	-1	0	0	0	0	0	0	-1	-1	-1	0	0	0	0	0	0	1.4603522E+001	-8.3182707E+000	1.6806442E+001	-2.9666147E+001	-6.9847251E+003	1.2262356E+004	1.4112114E+004	-1.1966615E+002	0.0000000E+000	0.0000000E+000	0.0000000E+000	1.1966615E+002	0.0000000E+000	0.0000000E+000	0.0000000E+000	-1.1966615E+002	0.0000000E+000	0.0000000E+000	0.0000000E+000	2.9666147E+001	0.0000000E+000	0.0000000E+000	0.0000000E+000	-2.9666147E+001	1.7555959E+000	6.0333855E+001	-1.490907169795698E-004
1.6898938E+005	5.2649114E-002	-2.5720032E-002	5.8595642E-002	2.6036335E+001	7.559475505695445E+000	-7.8360397E-005	-3.9744544E-001	-3.6617546E+001	-7.0550747E+000	1.000000000000000E+000	37	3.1118095E-003	5.3106502E-002	0	-8.652918186631674E-004	-1	-1	-1	0	0	0	0	0	0	-1	-1	-1	0	0	0	0	0	0	1.5334176E+001	-7.4910188E+000	1.7066116E+001	-2.6036335E+001	-7.0550737E+003	1.4441795E+004	1.6072943E+004	-1.1603633E+002	0.0000000E+000	0.0000000E+000	0.0000000E+000	1.1603633E+002	0.0000000E+000	0.0000000E+000	0.0000000E+000	-1.1603633E+002	0.0000000E+000	0.0000000E+000	0.0000000E+000	2.6036335E+001	0.0000000E+000	0.0000000E+000	0.0000000E+000	-2.6036335E+001	2.0470080E+000	6.3963665E+001	-1.752654667021707E-004
1.5066434E+005	5.3438712E-002	-2.2494230E-002	5.7980049E-002	2.2827934E+001	8.706487933493918E+000	-7.0717702E-005	-4.1618690E-001	-4.6961124E+001	-7.0684409E+000	1.000000000000000E+000	37	3.6252327E-003	6.2525518E-002	0	-1.098893657798568E-003	-1	-1	-1	0	0	0	0	0	0	-1	-1	-1	0	0	0	0	0	0	1.5896401E+001	-6.6913533E+000	1.7247313E+001	-2.2827934E+001	-7.0684404E+003	1.6792232E+004	1.8219273E+004	-1.1282793E+002	0.0000000E+000	0.0000000E+000	0.0000000E+000	1.1282793E+002	0.0000000E+000	0.0000000E+000	0.0000000E+000	-1.1282793E+002	0.0000000E+000	0.0000000E+000	0.0000000E+000	2.2827934E+001	0.0000000E+000	0.0000000E+000	0.0000000E+000	-2.2827934E+001	2.3756630E+000	6.7172066E+001	-2.336018391354009E-004
1.3432489E+005	5.3907756E-002	-1.9663855E-002	5.7382170E-002	2.0040380E+001	9.854485774674686E+000	-7.9255115E-005	-4.4326568E-001	-6.0255257E+001	-7.0758457E+000	1.000000000000000E+000	37	4.2068949E-003	7.3313624E-002	0	-1.352259676520609E-003	-1	-1	-1	0	0	0	0	0	0	-1	-1	-1	0	0	0	0	0	0	1.6371834E+001	-5.9719300E+000	1.7427015E+001	-2.0040380E+001	-7.0758457E+003	1.9398176E+004	2.0648410E+004	-1.1004038E+002	0.0000000E+000	0.0000000E+000	0.0000000E+000	1.1004038E+002	0.0000000E+000	0.0000000E+000	0.0000000E+000	-1.1004038E+002	0.0000000E+000	0.0000000E+000	0.0000000E+000	2.0040380E+001	0.0000000E+000	0.0000000E+000	0.0000000E+000	-2.0040380E+001	2.7414641E+000	6.9959618E+001	-2.533660187220409E-004
1.1975765E+005	5.4375134E-002	-1.6835902E-002	5.6921899E-002	1.7203833E+001	1.086749211614369E+001	-7.2507159E-005	-4.2757601E-001	-7.8936981E+001	-6.9054899E+000	1.000000000000000E+000	37	4.8686797E-003	8.5532628E-002	0	-1.408265842623595E-003	-1	-1	-1	0	0	0	0	0	0	-1	-1	-1	0	0	0	0	0	0	1.6781916E+001	-5.1961012E+000	1.7567930E+001	-1.7203833E+001	-6.9054907E+003	2.2302752E+004	2.3347346E+004	-1.0720383E+002	0.0000000E+000	0.0000000E+000	0.0000000E+000	1.0720383E+002	0.0000000E+000	0.0000000E+000	0.0000000E+000	-1.0720383E+002	0.0000000E+000	0.0000000E+000	0.0000000E+000	1.7203833E+001	0.0000000E+000	0.0000000E+000	0.0000000E+000	-1.7203833E+001	3.2297132E+000	7.2796165E+001	-5.600616610298547E-005
1.0676774E+005	5.4982539E-002	-1.4431560E-002	5.6844961E-002	1.4706982E+001	1.201649945075042E+001	-7.5992968E-005	-4.2381653E-001	-1.0329202E+002	-6.6574731E+000	1.000000000000000E+000	37	5.0780787E-003	8.9332081E-002	0	-1.553575433595313E-003	-1	-1	-1	0	0	0	0	0	0	-1	-1	-1	0	0	0	0	0	0	1.7015348E+001	-4.4661093E+000	1.7591709E+001	-1.4706982E+001	-6.6574741E+003	2.5364184E+004	2.6223344E+004	-1.0470699E+002	0.0000000E+000	0.0000000E+000	0.0000000E+000	1.0470699E+002	0.0000000E+000	0.0000000E+000	0.0000000E+000	-1.0470699E+002	0.0000000E+000	0.0000000E+000	0.0000000E+000	1.4706982E+001	0.0000000E+000	0.0000000E+000	0.0000000E+000	-1.4706982E+001	3.8098817E+000	7.5293015E+001	-1.453095909717183E-004
9.5188172E+004	5.5399660E-002	-1.2225595E-002	5.6732595E-002	1.2444574E+001	1.316448166526970E+001	-7.3122297E-005	-3.8947865E-001	-1.3676253E+002	-6.3509960E+000	1.000000000000000E+000	37	5.0965548E-003	8.9834683E-002	0	-1.854178039550781E-003	4.0311342E-001	3.1926107E-001	7.4103775E+000	7.3058818E-006	1.2417081E-005	6.4751134E-006	7.4220193E-006	8.5648671E-006	4.3056434E-006	1.2927258E-001	3.7285175E-002	2.6936224E-001	1.8854062E-005	1.1374511E-004	5.8198530E-006	1.8623729E-006	2.9178284E-006	3.5965440E-006	1.7212414E+001	-3.7984350E+000	1.7626551E+001	-1.2444574E+001	-6.3509951E+003	2.8779215E+004	2.9471652E+004	-1.0244457E+002	0.0000000E+000	0.0000000E+000	0.0000000E+000	1.0244457E+002	0.0000000E+000	0.0000000E+000	0.0000000E+000	-1.0244457E+002	0.0000000E+000	0.0000000E+000	0.0000000E+000	1.2444574E+001	0.0000000E+000	0.0000000E+000	0.0000000E+000	-1.2444574E+001	4.5314488E+000	7.7555428E+001	-3.006026059554682E-004
8.4870469E+004	5.5651378E-002	-1.0379726E-002	5.6611083E-002	1.0565036E+001	1.431248854644946E+001	-7.5787924E-005	-4.1722804E-001	-1.8066652E+002	-6.0736041E+000	1.000000000000000E+000	37	5.1154564E-003	9.0361394E-002	0	-1.767440292372265E-003	4.3226784E-001	5.5878764E-001	7.2035198E+000	9.4718716E-006	1.4684705E-005	4.9767486E-006	4.7676140E-006	8.8420202E-006	6.4814571E-006	1.3783181E-001	7.6990440E-003	2.5879017E-001	1.7574774E-005	1.2274177E-004	5.8406404E-006	4.3536238E-006	6.0806847E-006	5.3209028E-006	1.7364927E+001	-3.2387912E+000	1.7664385E+001	-1.0565036E+001	-6.0736025E+003	3.2563906E+004	3.3125469E+004	-1.0056503E+002	0.0000000E+000	0.0000000E+000	0.0000000E+000	1.0056503E+002	0.0000000E+000	0.0000000E+000	0.0000000E+000	-1.0056503E+002	0.0000000E+000	0.0000000E+000	0.0000000E+000	1.0565036E+001	0.0000000E+000	0.0000000E+000	0.0000000E+000	-1.0565036E+001	5.3615460E+000	7.9434967E+001	8.673774717851647E-005
7.5666195E+004	5.5972174E-002	-8.4575107E-003	5.6607541E-002	8.5925093E+000	1.546047678761533E+001	-6.2702144E-005	-4.0568912E-001	-2.4869994E+002	-5.5515242E+000	1.000000000000000E+000	37	5.0966507E-003	9.0034835E-002	0	-1.732180138768421E-003	3.9424375E-001	1.9551325E-001	7.2954516E+000	4.2511679E-006	8.0491172E-006	9.6266067E-006	4.8308439E-006	1.0894503E-005	7.4010404E-006	1.4716955E-001	9.1919238E-003	2.5958440E-001	1.8158074E-005	1.3050638E-004	4.0008872E-006	5.7528177E-006	6.5728727E-006	4.2214492E-006	1.7467213E+001	-2.6393316E+000	1.7665491E+001	-8.5925093E+000	-5.5515215E+003	3.6740227E+004	3.7157281E+004	-9.8592506E+001	0.0000000E+000	0.0000000E+000	0.0000000E+000	9.8592506E+001	0.0000000E+000	0.0000000E+000	0.0000000E+000	-9.8592506E+001	0.0000000E+000	0.0000000E+000	0.0000000E+000	8.5925093E+000	0.0000000E+000	0.0000000E+000	0.0000000E+000	-8.5925093E+000	6.6180434E+000	8.1407494E+001	3.526015360384347E-005
6.7454719E+004	5.6315627E-002	-6.8598422E-003	5.6731891E-002	6.9450202E+000	1.660848566881032E+001	-6.7772417E-005	-3.7687895E-001	-3.4394870E+002	-5.0288353E+000	1.000000000000000E+000	37	5.1050708E-003	8.9985907E-002	0	-1.842808856683473E-003	4.5306256E-001	1.5153579E-001	7.3239417E+000	9.1925940E-006	1.3833222E-005	7.9563215E-006	6.6443058E-006	8.5636884E-006	7.3303622E-006	1.6115510E-001	4.3014314E-002	2.5694135E-001	3.0996605E-005	1.4076909E-004	1.0088006E-005	5.7112779E-006	2.3101338E-006	5.2633609E-006	1.7497437E+001	-2.1313736E+000	1.7626770E+001	-6.9450202E+000	-5.0288369E+003	4.1284043E+004	4.1589199E+004	-9.6945023E+001	0.0000000E+000	0.0000000E+000	0.0000000E+000	9.6945023E+001	0.0000000E+000	0.0000000E+000	0.0000000E+000	-9.6945023E+001	0.0000000E+000	0.0000000E+000	0.0000000E+000	6.9450202E+000	0.0000000E+000	0.0000000E+000	0.0000000E+000	-6.9450202E+000	8.2094641E+000	8.3054977E+001	-1.106287179150516E-004
6.0143262E+004	5.6566324E-002	-5.2035893E-003	5.6805160E-002	5.2559004E+000	1.775648785670637E+001	-6.2254760E-005	-3.6379525E-001	-5.0854587E+002	-4.2673731E+000	1.000000000000000E+000	37	5.0972034E-003	8.9731343E-002	0	-1.834405440579686E-003	3.6078465E-001	1.7463623E-001	7.3186607E+000	5.8466908E-006	1.0115648E-005	4.3985810E-006	6.6150733E-006	8.6985665E-006	5.7098750E-006	1.6306753E-001	3.0103907E-002	2.5928214E-001	1.5817042E-005	1.4453774E-004	1.0067604E-005	6.5786139E-006	5.3265589E-006	5.2614782E-006	1.7530018E+001	-1.6126029E+000	1.7604034E+001	-5.2559004E+000	-4.2673701E+003	4.6389051E+004	4.6584918E+004	-9.5255898E+001	0.0000000E+000	0.0000000E+000	0.0000000E+000	9.5255898E+001	0.0000000E+000	0.0000000E+000	0.0000000E+000	-9.5255898E+001	0.0000000E+000	0.0000000E+000	0.0000000E+000	5.2559004E+000	0.0000000E+000	0.0000000E+000	0.0000000E+000	-5.2559004E+000	1.0870636E+001	8.4744102E+001	8.403416103786986E-006
5.3620473E+004	5.6861646E-002	-3.6732361E-003	5.6980167E-002	3.6961453E+000	1.890448556453339E+001	-6.6411645E-005	-3.6746159E-001	-8.0805444E+002	-3.3580790E+000	1.000000000000000E+000	37	5.0857649E-003	8.9255005E-002	0	-1.958182746743990E-003	3.7720570E-001	2.2903408E-001	7.4556828E+000	6.2164286E-006	1.2582601E-005	4.3034534E-006	7.1974446E-006	8.4445446E-006	2.6149910E-006	1.7852446E-001	5.6233499E-003	2.6102129E-001	1.0414068E-005	1.5866221E-004	3.9121896E-006	6.2879685E-006	5.2475680E-006	3.1205825E-006	1.7513462E+001	-1.1313616E+000	1.7549967E+001	-3.6961453E+000	-3.3580781E+003	5.1983020E+004	5.2091371E+004	-9.3696144E+001	0.0000000E+000	0.0000000E+000	0.0000000E+000	9.3696144E+001	0.0000000E+000	0.0000000E+000	0.0000000E+000	-9.3696144E+001	0.0000000E+000	0.0000000E+000	0.0000000E+000	3.6961453E+000	0.0000000E+000	0.0000000E+000	0.0000000E+000	-3.6961453E+000	1.5479987E+001	8.6303856E+001	-1.237773061643042E-004
4.7802852E+004	5.7221677E-002	-2.3110970E-003	5.7268329E-002	2.3128328E+000	2.005248204575037E+001	-7.0605798E-005	-3.7996826E-001	-1.4406157E+003	-2.3461483E+000	1.000000000000000E+000	37	5.0973794E-003	8.9008696E-002	0	-1.941725220948458E-003	4.2488784E-001	1.6022253E-001	7.1182232E+000	5.5702126E-006	1.1072384E-005	5.5764935E-006	9.1776847E-006	6.3967223E-006	1.1237281E-005	1.7892478E-001	7.1363421E-003	2.5973213E-001	7.8736130E-006	1.5871042E-004	3.1028819E-006	7.6203964E-006	3.6736217E-006	4.2182787E-006	1.7447433E+001	-7.0467544E-001	1.7461658E+001	-2.3128328E+000	-2.3461514E+003	5.8089535E+004	5.8136895E+004	-9.2312836E+001	0.0000000E+000	0.0000000E+000	0.0000000E+000	9.2312836E+001	0.0000000E+000	0.0000000E+000	0.0000000E+000	-9.2312836E+001	0.0000000E+000	0.0000000E+000	0.0000000E+000	2.3128328E+000	0.0000000E+000	0.0000000E+000	0.0000000E+000	-2.3128328E+000	2.4759531E+001	8.7687164E+001	1.645752579553243E-005
4.2616168E+004	5.7579897E-002	-9.6569845E-004	5.7587996E-002	9.6084327E-001	2.119950020688702E+001	-7.0139780E-005	-3.9039060E-001	-3.8672673E+003	-1.0874852E+000	1.000000000000000E+000	37	5.0941501E-003	8.8458538E-002	0	-1.984593237393846E-003	4.1934389E-001	2.6085871E-001	7.3182826E+000	9.2515347E-006	9.3894851E-006	7.8683242E-006	7.0433030E-006	6.8583595E-006	7.8338990E-006	1.8827057E-001	1.2800991E-002	2.6090351E-001	6.1678033E-006	1.6604246E-004	3.0561077E-006	9.1410784E-006	4.3543396E-006	3.5555959E-006	1.7362289E+001	-2.9119077E-001	1.7364731E+001	-9.6084327E-001	-1.0874882E+003	6.4841449E+004	6.4850566E+004	-9.0960846E+001	0.0000000E+000	0.0000000E+000	0.0000000E+000	9.0960846E+001	0.0000000E+000	0.0000000E+000	0.0000000E+000	-9.0960846E+001	0.0000000E+000	0.0000000E+000	0.0000000E+000	9.6084327E-001	0.0000000E+000	0.0000000E+000	0.0000000E+000	-9.6084327E-001	5.9625134E+001	8.9039154E+001	-4.286801644538840E-005
3.8014031E+004	5.7930462E-002	3.0483882E-004	5.7931263E-002	-3.0149624E-001	2.235748884858913E+001	-7.9571982E-005	-4.1171911E-001	1.3734281E+004	3.8029489E-001	1.000000000000000E+000	37	5.0868327E-003	8.7808073E-002	0	-2.574996830784612E-003	0.0000000E+000	0.0000000E+000	7.1440454E+000	9.2837618E-006	1.1010668E-005	6.6610514E-006	8.8505785E-006	4.7717426E-006	7.5947992E-006	0.0000000E+000	0.0000000E+000	2.5111824E-001	2.5371744E-005	1.6143965E-004	1.6573375E-005	4.4884844E-005	4.3961747E-005	2.1151347E-005	1.7261599E+001	9.0833127E-002	1.7261837E+001	3.0149624E-001	3.8029764E+002	7.2269859E+004	7.2270859E+004	-8.9698502E+001	0.0000000E+000	0.0000000E+000	0.0000000E+000	8.9698502E+001	0.0000000E+000	0.0000000E+000	0.0000000E+000	-8.9698502E+001	0.0000000E+000	0.0000000E+000	0.0000000E+000	-3.0149624E-001	0.0000000E+000	0.0000000E+000	0.0000000E+000	3.0149624E-001	1.9003638E+002	8.9698502E+001	-5.904035933907660E-004
3.3875816E+004	5.8416117E-002	1.5176573E-003	5.8435827E-002	-1.4882160E+000	2.350949634329299E+001	-6.4640772E-005	-4.0632194E-001	3.0956841E+003	2.0880730E+000	1.000000000000000E+000	37	5.0894069E-003	8.7093949E-002	0	-2.756674563090007E-003	3.9142498E-001	1.4134245E-001	7.4180837E+000	5.7142393E-006	1.0621421E-005	8.0674972E-006	6.7396977E-006	5.4500597E-006	7.7431823E-006	1.8657939E-001	1.7045498E-002	2.6434964E-001	1.1634277E-005	1.6143562E-004	8.1019016E-006	9.8177306E-006	3.3783954E-006	4.9859887E-006	1.7107018E+001	4.4444221E-001	1.7112789E+001	1.4882160E+000	2.0880681E+003	8.0371977E+004	8.0399094E+004	-8.8511787E+001	0.0000000E+000	0.0000000E+000	0.0000000E+000	8.8511787E+001	0.0000000E+000	0.0000000E+000	0.0000000E+000	-8.8511787E+001	0.0000000E+000	0.0000000E+000	0.0000000E+000	-1.4882160E+000	0.0000000E+000	0.0000000E+000	0.0000000E+000	1.4882160E+000	3.8490978E+001	8.8511787E+001	-1.816777323053946E-004
