EC-Lab ASCII FILE
Nb header lines : 66                          

Potentio Electrochemical Impedance Spectroscopy

Run on channel : 15 (SN 19485)
User : 
Electrode connection : standard
Potential control : Ewe
Ewe ctrl range : min = -1.00 V, max = 1.00 V
Ewe,I filtering : <None>
Safety Limits :
	Do not start on E overload
Channel : Floating
Acquisition started on : 04/05/2024 11:11:59.743
Loaded Setting File :  NONE
Saved on :
	File : 240405-EIS-50mM_FeCl2FeCl3-1M_HCl-30mLmin-LowFreq_Full_C15.mpr
	Directory : C:\Data\mathias\IRFB\
	Host : 192.168.0.1
Device : VMP-300 (SN 0826)
Address : USB
EC-Lab for windows v11.52 (software)
Internet server v11.52 (firmware)
Command interpretor v11.52 (firmware)
Electrode material : 
Initial state : 
Electrolyte : 
Comments : 
Cable : special
Electrode surface area : 0.001 cm²
Characteristic mass : 0.001 g
Equivalent Weight : 0.000 g/eq.
Density : 0.000 g/cm3
Volume (V) : 0.001 cm³
Record EIS quality indicators
Cycle Definition : Charge/Discharge alternance
Mode                Single sine         
E (V)               0.0000              
vs.                 Eoc                 
tE (h:m:s)          0:00:0.0000         
record              0                   
dI                  0.000               
unit dI             mA                  
dt (s)              0.000               
fi                  920.000             
unit fi             kHz                 
ff                  25.000              
unit ff             mHz                 
Nd                  10                  
Points              per decade          
spacing             Logarithmic         
Va (mV)             5.0                 
pw                  0.10                
Na                  3                   
corr                0                   
E range min (V)     -1.000              
E range max (V)     1.000               
I Range             Auto                
Bandwidth           8                   
nc cycles           2                   
goto Ns'            0                   
nr cycles           999                 
inc. cycle          1                   

freq/Hz	Re(Z)/Ohm	-Im(Z)/Ohm	|Z|/Ohm	Phase(Z)/deg	time/s	<Ewe>/V	<I>/mA	Cs/µF	Cp/µF	cycle number	I Range	|Ewe|/V	|I|/A	Ns	(Q-Qo)/mA.h	THD Ewe/%	NSD Ewe/%	NSR Ewe/%	|Ewe h2|/V	|Ewe h3|/V	|Ewe h4|/V	|Ewe h5|/V	|Ewe h6|/V	|Ewe h7|/V	THD I/%	NSD I/%	NSR I/%	|I h2|/A	|I h3|/A	|I h4|/A	|I h5|/A	|I h6|/A	|I h7|/A	Re(Y)/Ohm-1	Im(Y)/Ohm-1	|Y|/Ohm-1	Phase(Y)/deg	Re(C)/nF	Im(C)/nF	|C|/nF	Phase(C)/deg	Re(M)	Im(M)	|M|	Phase(M)/deg	Re(Permittivity)	Im(Permittivity)	|Permittivity|	Phase(Permittivity)/deg	Re(Resistivity)/Ohm.cm	Im(Resistivity)/Ohm.cm	|Resistivity|/Ohm.cm	Phase(Resistivity)/deg	Re(Conductivity)/mS/cm	Im(Conductivity)/mS/cm	|Conductivity|/mS/cm	Phase(Conductivity)/deg	Tan(Delta)	Loss Angle(Delta)/deg	dq/mA.h	
9.2000075E+005	-1.2076917E-001	-2.8652269E-001	3.1093478E-001	1.1285540E+002	1.976480120531050E+000	-1.4093732E-004	-8.2695776E-001	-6.0377198E-001	-5.1268709E-001	1.000000000000000E+000	37	9.0543990E-004	2.9119931E-003	0	-4.216737701041986E-004	-1	-1	-1	0	0	0	0	0	0	-1	-1	-1	0	0	0	0	0	0	-1.2491584E+000	-2.9636056E+000	3.2161086E+000	-1.1285540E+002	-5.1268695E+002	-2.1609740E+002	5.5636859E+002	1.5714459E+002	0.0000000E+000	0.0000000E+000	0.0000000E+000	-1.5714459E+002	0.0000000E+000	0.0000000E+000	0.0000000E+000	1.5714459E+002	0.0000000E+000	0.0000000E+000	0.0000000E+000	1.1285540E+002	0.0000000E+000	0.0000000E+000	0.0000000E+000	-1.1285540E+002	4.2149952E-001	2.2855400E+001	-4.216737701041986E-004
7.3153575E+005	-5.2272588E-002	-1.6946244E-001	1.7734131E-001	1.0714297E+002	3.123477535002166E+000	-1.4693964E-004	-8.0334002E-001	-1.2838407E+000	-1.1722986E+000	1.000000000000000E+000	37	8.2823983E-004	4.6703154E-003	0	-6.755195257364410E-004	-1	-1	-1	0	0	0	0	0	0	-1	-1	-1	0	0	0	0	0	0	-1.6620888E+000	-5.3883228E+000	5.6388440E+000	-1.0714297E+002	-1.1722983E+003	-3.6160880E+002	1.2268025E+003	1.6285703E+002	0.0000000E+000	0.0000000E+000	0.0000000E+000	-1.6285703E+002	0.0000000E+000	0.0000000E+000	0.0000000E+000	1.6285703E+002	0.0000000E+000	0.0000000E+000	0.0000000E+000	1.0714297E+002	0.0000000E+000	0.0000000E+000	0.0000000E+000	-1.0714297E+002	3.0846119E-001	1.7142967E+001	-2.538457556322424E-004
5.8167869E+005	-3.3549028E-003	-1.1027762E-001	1.1032864E-001	9.1742531E+001	4.270484549488174E+000	-1.4720060E-004	-8.4244221E-001	-2.4811306E+000	-2.4788363E+000	1.000000000000000E+000	37	8.1663206E-004	7.4018142E-003	0	-9.309066163865436E-004	-1	-1	-1	0	0	0	0	0	0	-1	-1	-1	0	0	0	0	0	0	-2.7561489E-001	-9.0596390E+000	9.0638304E+000	-9.1742531E+001	-2.4788364E+003	-7.5411522E+001	2.4799832E+003	1.7825748E+002	0.0000000E+000	0.0000000E+000	0.0000000E+000	-1.7825748E+002	0.0000000E+000	0.0000000E+000	0.0000000E+000	1.7825748E+002	0.0000000E+000	0.0000000E+000	0.0000000E+000	9.1742531E+001	0.0000000E+000	0.0000000E+000	0.0000000E+000	-9.1742531E+001	3.0422337E-002	1.7425308E+000	-2.553870906501026E-004
4.6252413E+005	2.2744775E-002	-7.9081327E-002	8.2287185E-002	7.3954109E+001	5.417483563971473E+000	-1.5023904E-004	-8.1020743E-001	-4.3512273E+000	-4.0187898E+000	1.000000000000000E+000	37	9.0219319E-004	1.0963958E-002	0	-1.190790790753077E-003	-1	-1	-1	0	0	0	0	0	0	-1	-1	-1	0	0	0	0	0	0	3.3590550E+000	-1.1679104E+001	1.2152560E+001	-7.3954109E+001	-4.0187898E+003	1.1558542E+003	4.1817065E+003	-1.6395410E+002	0.0000000E+000	0.0000000E+000	0.0000000E+000	1.6395410E+002	0.0000000E+000	0.0000000E+000	0.0000000E+000	-1.6395410E+002	0.0000000E+000	0.0000000E+000	0.0000000E+000	7.3954109E+001	0.0000000E+000	0.0000000E+000	0.0000000E+000	-7.3954109E+001	2.8761247E-001	1.6045891E+001	-2.598841743665333E-004
3.6778131E+005	3.7362557E-002	-6.0431212E-002	7.1048521E-002	5.8272915E+001	6.564494471793296E+000	-1.4811399E-004	-7.9963607E-001	-7.1609254E+000	-5.1806192E+000	1.000000000000000E+000	37	1.1314255E-003	1.5924688E-002	0	-1.427777150241037E-003	-1	-1	-1	0	0	0	0	0	0	-1	-1	-1	0	0	0	0	0	0	7.4016147E+000	-1.1971574E+001	1.4074888E+001	-5.8272915E+001	-5.1806201E+003	3.2029998E+003	6.0908154E+003	-1.4827292E+002	0.0000000E+000	0.0000000E+000	0.0000000E+000	1.4827292E+002	0.0000000E+000	0.0000000E+000	0.0000000E+000	-1.4827292E+002	0.0000000E+000	0.0000000E+000	0.0000000E+000	5.8272915E+001	0.0000000E+000	0.0000000E+000	0.0000000E+000	-5.8272915E+001	6.1826587E-001	3.1727085E+001	-2.369863594879602E-004
2.9243988E+005	4.5218226E-002	-4.6818871E-002	6.5089896E-002	4.5996349E+001	7.712501086323755E+000	-1.3739557E-004	-7.6090580E-001	-1.1624187E+001	-6.0141926E+000	1.000000000000000E+000	37	1.4979247E-003	2.3013167E-002	0	-1.682781917367648E-003	-1	-1	-1	0	0	0	0	0	0	-1	-1	-1	0	0	0	0	0	0	1.0672996E+001	-1.1050801E+001	1.5363367E+001	-4.5996349E+001	-6.0141929E+003	5.8085781E+003	8.3612256E+003	-1.3599635E+002	0.0000000E+000	0.0000000E+000	0.0000000E+000	1.3599635E+002	0.0000000E+000	0.0000000E+000	0.0000000E+000	-1.3599635E+002	0.0000000E+000	0.0000000E+000	0.0000000E+000	4.5996349E+001	0.0000000E+000	0.0000000E+000	0.0000000E+000	-4.5996349E+001	9.6581197E-001	4.4003651E+001	-2.550047671266108E-004
2.3252858E+005	4.9635004E-002	-3.6445286E-002	6.1578345E-002	3.6288563E+001	8.859498714125948E+000	-1.4846814E-004	-8.1190038E-001	-1.8780296E+001	-6.5785341E+000	1.000000000000000E+000	37	2.0292243E-003	3.2953538E-002	0	-1.951993095321788E-003	-1	-1	-1	0	0	0	0	0	0	-1	-1	-1	0	0	0	0	0	0	1.3089771E+001	-9.6113710E+000	1.6239475E+001	-3.6288563E+001	-6.5785332E+003	8.9593369E+003	1.1115161E+004	-1.2628856E+002	0.0000000E+000	0.0000000E+000	0.0000000E+000	1.2628856E+002	0.0000000E+000	0.0000000E+000	0.0000000E+000	-1.2628856E+002	0.0000000E+000	0.0000000E+000	0.0000000E+000	3.6288563E+001	0.0000000E+000	0.0000000E+000	0.0000000E+000	-3.6288563E+001	1.3619046E+000	5.3711437E+001	-2.692111779541398E-004
1.8490202E+005	5.2305449E-002	-2.8569458E-002	5.9599277E-002	2.8643555E+001	1.000750090196379E+001	-1.4531784E-004	-8.0114275E-001	-3.0128429E+001	-6.9230666E+000	1.000000000000000E+000	37	2.7766421E-003	4.6588521E-002	0	-2.116640671991433E-003	-1	-1	-1	0	0	0	0	0	0	-1	-1	-1	0	0	0	0	0	0	1.4725327E+001	-8.0430355E+000	1.6778727E+001	-2.8643555E+001	-6.9230664E+003	1.2674868E+004	1.4442338E+004	-1.1864355E+002	0.0000000E+000	0.0000000E+000	0.0000000E+000	1.1864355E+002	0.0000000E+000	0.0000000E+000	0.0000000E+000	-1.1864355E+002	0.0000000E+000	0.0000000E+000	0.0000000E+000	2.8643555E+001	0.0000000E+000	0.0000000E+000	0.0000000E+000	-2.8643555E+001	1.8308170E+000	6.1356445E+001	-1.646475766696452E-004
1.4701789E+005	5.3749558E-002	-2.1808617E-002	5.8005437E-002	2.2084610E+001	1.115649279652280E+001	-1.4716324E-004	-8.0212867E-001	-4.9638863E+001	-7.0168252E+000	1.000000000000000E+000	37	3.7496937E-003	6.4643830E-002	0	-2.337798095037954E-003	-1	-1	-1	0	0	0	0	0	0	-1	-1	-1	0	0	0	0	0	0	1.5974875E+001	-6.4817266E+000	1.7239763E+001	-2.2084610E+001	-7.0168257E+003	1.7293682E+004	1.8662992E+004	-1.1208461E+002	0.0000000E+000	0.0000000E+000	0.0000000E+000	1.1208461E+002	0.0000000E+000	0.0000000E+000	0.0000000E+000	-1.1208461E+002	0.0000000E+000	0.0000000E+000	0.0000000E+000	2.2084610E+001	0.0000000E+000	0.0000000E+000	0.0000000E+000	-2.2084610E+001	2.4646018E+000	6.7915390E+001	-2.211574230465206E-004
1.1690915E+005	5.4762214E-002	-1.6170047E-002	5.7099655E-002	1.6450682E+001	1.216949279131950E+001	-1.3972555E-004	-7.6765978E-001	-8.4189972E+001	-6.7517438E+000	1.000000000000000E+000	37	5.0369296E-003	8.8212959E-002	0	-2.486964644032220E-003	-1	-1	-1	0	0	0	0	0	0	-1	-1	-1	0	0	0	0	0	0	1.6796316E+001	-4.9595733E+000	1.7513241E+001	-1.6450682E+001	-6.7517446E+003	2.2865762E+004	2.3841752E+004	-1.0645068E+002	0.0000000E+000	0.0000000E+000	0.0000000E+000	1.0645068E+002	0.0000000E+000	0.0000000E+000	0.0000000E+000	-1.0645068E+002	0.0000000E+000	0.0000000E+000	0.0000000E+000	1.6450682E+001	0.0000000E+000	0.0000000E+000	0.0000000E+000	-1.6450682E+001	3.3866453E+000	7.3549316E+001	-1.491665489942663E-004
9.2961328E+004	5.5710178E-002	-1.1781424E-002	5.6942303E-002	1.1940810E+001	1.331849820588832E+001	-1.5171153E-004	-7.9570687E-001	-1.4531821E+002	-6.2207904E+000	1.000000000000000E+000	37	5.2007996E-003	9.1334552E-002	0	-2.733740821591268E-003	3.3807689E-001	1.9732760E-001	6.9780793E+000	5.0776030E-006	7.3531155E-006	5.6285880E-006	7.9983074E-006	6.3508637E-006	7.9536039E-006	1.3011259E-001	1.6562769E-002	2.5199145E-001	1.4483488E-005	1.1753995E-004	6.5446779E-006	4.1866570E-006	3.6679837E-006	3.2011619E-006	1.7181635E+001	-3.6335218E+000	1.7561636E+001	-1.1940810E+001	-6.2207910E+003	2.9415910E+004	3.0066494E+004	-1.0194081E+002	0.0000000E+000	0.0000000E+000	0.0000000E+000	1.0194081E+002	0.0000000E+000	0.0000000E+000	0.0000000E+000	-1.0194081E+002	0.0000000E+000	0.0000000E+000	0.0000000E+000	1.1940810E+001	0.0000000E+000	0.0000000E+000	0.0000000E+000	-1.1940810E+001	4.7286453E+000	7.8059189E+001	-2.467761775590480E-004
7.3912563E+004	5.6318413E-002	-8.0410158E-003	5.6889556E-002	8.1256437E+000	1.446648863374139E+001	-1.4429253E-004	-7.9687941E-001	-2.6778790E+002	-5.3499250E+000	1.000000000000000E+000	37	5.2211429E-003	9.1776825E-002	0	-2.881507938044353E-003	3.8331750E-001	2.1606795E-001	7.0496964E+000	7.4899112E-006	6.4005690E-006	7.6480028E-006	7.7154637E-006	4.0150589E-006	1.0209328E-005	1.4583711E-001	2.3311093E-002	2.5995877E-001	1.5770627E-005	1.3213811E-004	5.1354577E-006	7.8818184E-006	3.3911190E-006	4.9020191E-006	1.7401445E+001	-2.4845390E+000	1.7577919E+001	-8.1256437E+000	-5.3499238E+003	3.7470309E+004	3.7850305E+004	-9.8125641E+001	0.0000000E+000	0.0000000E+000	0.0000000E+000	9.8125641E+001	0.0000000E+000	0.0000000E+000	0.0000000E+000	-9.8125641E+001	0.0000000E+000	0.0000000E+000	0.0000000E+000	8.1256437E+000	0.0000000E+000	0.0000000E+000	0.0000000E+000	-8.1256437E+000	7.0038929E+000	8.1874359E+001	-1.477671164530851E-004
5.8770039E+004	5.6928527E-002	-4.8243576E-003	5.7132579E-002	4.8439064E+000	1.561449087495566E+001	-1.4084399E-004	-7.9905701E-001	-5.6133832E+002	-4.0025430E+000	1.000000000000000E+000	37	5.2246917E-003	9.1448553E-002	0	-3.286602325670421E-003	4.5628402E-001	1.7872678E-001	7.0420074E+000	8.3508221E-006	1.5024557E-005	7.8820231E-006	6.4169067E-006	4.7400649E-006	9.4541647E-006	1.8033272E-001	5.4847877E-002	2.6064140E-001	1.3006153E-005	1.6383360E-004	3.2568721E-006	8.5700685E-006	4.8530146E-006	4.2589995E-006	1.7440636E+001	-1.4779911E+000	1.7503149E+001	-4.8439064E+000	-4.0025393E+003	4.7230922E+004	4.7400215E+004	-9.4843903E+001	0.0000000E+000	0.0000000E+000	0.0000000E+000	9.4843903E+001	0.0000000E+000	0.0000000E+000	0.0000000E+000	-9.4843903E+001	0.0000000E+000	0.0000000E+000	0.0000000E+000	4.8439064E+000	0.0000000E+000	0.0000000E+000	0.0000000E+000	-4.8439064E+000	1.1800229E+001	8.5156097E+001	-4.050943876260683E-004
4.6735824E+004	5.7619900E-002	-1.9067960E-003	5.7651442E-002	1.8953784E+000	1.676249626281788E+001	-1.4528049E-004	-7.7296400E-001	-1.7859364E+003	-1.9536831E+000	1.000000000000000E+000	37	5.1989290E-003	9.0178646E-002	0	-3.696390519201329E-003	4.1276595E-001	2.1791455E-001	7.1890826E+000	6.4574074E-006	1.0079319E-005	8.0166574E-006	6.4500528E-006	1.0428859E-005	5.8713827E-006	1.8761952E-001	1.2766272E-002	2.5404680E-001	7.2434304E-006	1.6850041E-004	3.4109246E-006	1.0435667E-005	6.5616309E-006	3.5883484E-006	1.7336130E+001	-5.7369870E-001	1.7345619E+001	-1.8953784E+000	-1.9536830E+003	5.9036746E+004	5.9069063E+004	-9.1895378E+001	0.0000000E+000	0.0000000E+000	0.0000000E+000	9.1895378E+001	0.0000000E+000	0.0000000E+000	0.0000000E+000	-9.1895378E+001	0.0000000E+000	0.0000000E+000	0.0000000E+000	1.8953784E+000	0.0000000E+000	0.0000000E+000	0.0000000E+000	-1.8953784E+000	3.0218178E+001	8.8104622E+001	-4.097881935309074E-004
3.7160402E+004	5.8419760E-002	6.3298375E-004	5.8423188E-002	-6.2078106E-001	1.791049783732160E+001	-1.5303503E-004	-7.8978860E-001	6.7662368E+003	7.9425836E-001	1.000000000000000E+000	37	5.2040536E-003	8.9075141E-002	0	-3.944498569526606E-003	4.2788297E-001	1.8854310E-001	6.9890308E+000	5.4880088E-006	1.7214677E-005	6.7971155E-006	2.0520640E-006	4.2720185E-006	8.6008095E-006	1.8947698E-001	4.3374885E-002	2.5644311E-001	4.2719726E-006	1.6815272E-004	4.7544663E-006	1.0127605E-005	3.7726206E-006	6.0701482E-006	1.7115486E+001	1.8544796E-001	1.7116491E+001	6.2078106E-001	7.9425824E+002	7.3304219E+004	7.3308523E+004	-8.9379219E+001	0.0000000E+000	0.0000000E+000	0.0000000E+000	8.9379219E+001	0.0000000E+000	0.0000000E+000	0.0000000E+000	-8.9379219E+001	0.0000000E+000	0.0000000E+000	0.0000000E+000	-6.2078106E-001	0.0000000E+000	0.0000000E+000	0.0000000E+000	6.2078106E-001	9.2292671E+001	8.9379219E+001	-2.481080503252773E-004
2.9552035E+004	5.9335340E-002	2.9493326E-003	5.9408594E-002	-2.8456118E+000	1.905848002518178E+001	-1.5749015E-004	-8.0467761E-001	1.8260347E+003	4.5004706E+000	1.000000000000000E+000	37	5.1968549E-003	8.7476484E-002	0	-4.333400949199167E-003	5.0672609E-001	1.1574011E-001	6.9562459E+000	1.1866152E-005	1.7311824E-005	8.4881012E-006	8.3269579E-006	8.3317373E-006	4.2508709E-006	1.9149232E-001	1.6074762E-002	2.6681116E-001	3.1183903E-005	1.6402621E-004	6.0258913E-006	1.0654655E-005	5.1798193E-006	2.2255454E-006	1.6811825E+001	8.3565146E-001	1.6832581E+001	2.8456118E+000	4.5004702E+003	9.0541484E+004	9.0653266E+004	-8.7154388E+001	0.0000000E+000	0.0000000E+000	0.0000000E+000	8.7154388E+001	0.0000000E+000	0.0000000E+000	0.0000000E+000	-8.7154388E+001	0.0000000E+000	0.0000000E+000	0.0000000E+000	-2.8456118E+000	0.0000000E+000	0.0000000E+000	0.0000000E+000	2.8456118E+000	2.0118227E+001	8.7154388E+001	-3.889023796725608E-004
2.3493170E+004	6.0388710E-002	5.0420961E-003	6.0598839E-002	-4.7727847E+000	2.020648079973762E+001	-1.4947464E-004	-7.9870355E-001	1.3435919E+003	9.3016720E+000	1.000000000000000E+000	37	5.1967176E-003	8.5756056E-002	0	-4.725067335285246E-003	3.3938873E-001	1.4944018E-001	7.0644836E+000	7.8351295E-006	1.0042431E-005	5.8138230E-006	5.1859861E-006	3.7563689E-006	5.9193985E-006	1.9112484E-001	6.6248984E-003	2.6646283E-001	1.5270165E-005	1.6242467E-004	9.2915852E-006	1.0805195E-005	5.2385863E-006	3.8974076E-006	1.6444746E+001	1.3730379E+000	1.6501966E+001	4.7727847E+000	9.3016650E+003	1.1140525E+005	1.1179289E+005	-8.5227219E+001	0.0000000E+000	0.0000000E+000	0.0000000E+000	8.5227219E+001	0.0000000E+000	0.0000000E+000	0.0000000E+000	-8.5227219E+001	0.0000000E+000	0.0000000E+000	0.0000000E+000	-4.7727847E+000	0.0000000E+000	0.0000000E+000	0.0000000E+000	4.7727847E+000	1.1976906E+001	8.5227219E+001	-3.916663860860795E-004
1.8677629E+004	6.1721928E-002	7.0509142E-003	6.2123358E-002	-6.5170345E+000	2.135448194757919E+001	-1.4850532E-004	-8.0149525E-001	1.2085176E+003	1.5568042E+001	1.000000000000000E+000	37	5.1957192E-003	8.3635516E-002	0	-4.948865789179586E-003	3.0570093E-001	2.2044075E-001	7.1272836E+000	4.1913108E-006	1.0361388E-005	6.3713542E-006	4.5388088E-006	5.8766896E-006	3.6677284E-006	1.9215561E-001	2.9299872E-002	2.7486396E-001	1.6848802E-005	1.5923947E-004	3.7197042E-006	1.0412874E-005	4.9861883E-006	3.4930592E-006	1.5992988E+001	1.8269875E+000	1.6097004E+001	6.5170345E+000	1.5568048E+004	1.3627872E+005	1.3716506E+005	-8.3482964E+001	0.0000000E+000	0.0000000E+000	0.0000000E+000	8.3482964E+001	0.0000000E+000	0.0000000E+000	0.0000000E+000	-8.3482964E+001	0.0000000E+000	0.0000000E+000	0.0000000E+000	-6.5170345E+000	0.0000000E+000	0.0000000E+000	0.0000000E+000	6.5170345E+000	8.7537479E+000	8.3482964E+001	-2.237984538943404E-004
1.4854886E+004	6.3124217E-002	8.9795543E-003	6.3759699E-002	-8.0961285E+000	2.250248032211675E+001	-1.5426530E-004	-8.1033564E-001	1.1931527E+003	2.3665358E+001	1.000000000000000E+000	37	5.1810783E-003	8.1259452E-002	0	-5.000582761057135E-003	4.3533841E-001	1.5194741E-001	7.2189150E+000	4.3761484E-006	1.4349058E-005	6.1326459E-006	1.1433151E-005	5.4352513E-006	7.0239198E-006	1.8127975E-001	2.0748232E-002	2.8317204E-001	1.8192683E-005	1.4584971E-004	5.3823460E-006	5.6145823E-006	1.3595026E-006	2.9951123E-006	1.5527570E+001	2.2088299E+000	1.5683888E+001	8.0961285E+000	2.3665365E+004	1.6636206E+005	1.6803686E+005	-8.1903870E+001	0.0000000E+000	0.0000000E+000	0.0000000E+000	8.1903870E+001	0.0000000E+000	0.0000000E+000	0.0000000E+000	-8.1903870E+001	0.0000000E+000	0.0000000E+000	0.0000000E+000	-8.0961285E+000	0.0000000E+000	0.0000000E+000	0.0000000E+000	8.0961285E+000	7.0297718E+000	8.1903870E+001	-5.171697187754832E-005
1.1811532E+004	6.4817369E-002	1.0775457E-002	6.5706939E-002	-9.4387217E+000	2.365150053668185E+001	-1.6129286E-004	-8.1746376E-001	1.2504841E+003	3.3630020E+001	1.000000000000000E+000	37	5.1801247E-003	7.8836799E-002	0	-5.202471977407113E-003	2.9337460E-001	1.8442900E-001	7.0736461E+000	3.3721844E-006	6.7540300E-006	3.9654979E-006	2.7288431E-006	3.2254231E-006	8.8768984E-006	1.7485909E-001	4.7584806E-002	2.9825363E-001	2.0257401E-005	1.3578986E-004	7.5813100E-006	6.6340740E-006	4.2074880E-006	4.6751024E-006	1.5013050E+001	2.4958198E+000	1.5219093E+001	9.4387217E+000	3.3630016E+004	2.0229392E+005	2.0507025E+005	-8.0561279E+001	0.0000000E+000	0.0000000E+000	0.0000000E+000	8.0561279E+001	0.0000000E+000	0.0000000E+000	0.0000000E+000	-8.0561279E+001	0.0000000E+000	0.0000000E+000	0.0000000E+000	-9.4387217E+000	0.0000000E+000	0.0000000E+000	0.0000000E+000	9.4387217E+000	6.0152779E+000	8.0561279E+001	-2.018892163499781E-004
