EC-Lab ASCII FILE
Nb header lines : 66                          

Potentio Electrochemical Impedance Spectroscopy

Run on channel : 15 (SN 19485)
User : 
Electrode connection : standard
Potential control : Ewe
Ewe ctrl range : min = -1.00 V, max = 1.00 V
Ewe,I filtering : <None>
Safety Limits :
	Do not start on E overload
Channel : Floating
Acquisition started on : 04/11/2024 10:02:50.464
Loaded Setting File :  NONE
Saved on :
	File : 240411-EIS-50mM_FeCl2FeCl3-1M_HCl-20mLmin-25mHz_20ppd_C15.mpr
	Directory : C:\Data\mathias\IRFB\
	Host : 192.168.0.1
Device : VMP-300 (SN 0826)
Address : USB
EC-Lab for windows v11.52 (software)
Internet server v11.52 (firmware)
Command interpretor v11.52 (firmware)
Electrode material : 
Initial state : 
Electrolyte : 
Comments : 
Cable : special
Electrode surface area : 0.001 cm²
Characteristic mass : 0.001 g
Equivalent Weight : 0.000 g/eq.
Density : 0.000 g/cm3
Volume (V) : 0.001 cm³
Record EIS quality indicators
Cycle Definition : Charge/Discharge alternance
Mode                Single sine         
E (V)               0.0000              
vs.                 Eoc                 
tE (h:m:s)          0:00:0.0000         
record              0                   
dI                  0.000               
unit dI             mA                  
dt (s)              0.000               
fi                  920.000             
unit fi             kHz                 
ff                  25.000              
unit ff             mHz                 
Nd                  20                  
Points              per decade          
spacing             Logarithmic         
Va (mV)             5.0                 
pw                  0.10                
Na                  3                   
corr                0                   
E range min (V)     -1.000              
E range max (V)     1.000               
I Range             Auto                
Bandwidth           8                   
nc cycles           0                   
goto Ns'            0                   
nr cycles           999                 
inc. cycle          1                   

freq/Hz	Re(Z)/Ohm	-Im(Z)/Ohm	|Z|/Ohm	Phase(Z)/deg	time/s	<Ewe>/V	<I>/mA	Cs/µF	Cp/µF	cycle number	I Range	|Ewe|/V	|I|/A	Ns	(Q-Qo)/mA.h	THD Ewe/%	NSD Ewe/%	NSR Ewe/%	|Ewe h2|/V	|Ewe h3|/V	|Ewe h4|/V	|Ewe h5|/V	|Ewe h6|/V	|Ewe h7|/V	THD I/%	NSD I/%	NSR I/%	|I h2|/A	|I h3|/A	|I h4|/A	|I h5|/A	|I h6|/A	|I h7|/A	Re(Y)/Ohm-1	Im(Y)/Ohm-1	|Y|/Ohm-1	Phase(Y)/deg	Re(C)/nF	Im(C)/nF	|C|/nF	Phase(C)/deg	Re(M)	Im(M)	|M|	Phase(M)/deg	Re(Permittivity)	Im(Permittivity)	|Permittivity|	Phase(Permittivity)/deg	Re(Resistivity)/Ohm.cm	Im(Resistivity)/Ohm.cm	|Resistivity|/Ohm.cm	Phase(Resistivity)/deg	Re(Conductivity)/mS/cm	Im(Conductivity)/mS/cm	|Conductivity|/mS/cm	Phase(Conductivity)/deg	Tan(Delta)	Loss Angle(Delta)/deg	dq/mA.h	
9.2000075E+005	-1.3032743E-001	-1.2648925E-001	1.8161710E-001	1.3585623E+002	1.977491853904212E+000	-1.3075951E-004	-4.7194776E-001	-1.3676606E+000	-6.6339493E-001	1.000000000000000E+000	37	5.4011110E-004	2.9739002E-003	0	-2.397208414912069E-004	-1	-1	-1	0	0	0	0	0	0	-1	-1	-1	0	0	0	0	0	0	-3.9511395E+000	-3.8347776E+000	5.5060897E+000	-1.3585623E+002	-6.6339496E+002	-6.8352490E+002	9.5252252E+002	1.3414377E+002	0.0000000E+000	0.0000000E+000	0.0000000E+000	-1.3414377E+002	0.0000000E+000	0.0000000E+000	0.0000000E+000	1.3414377E+002	0.0000000E+000	0.0000000E+000	0.0000000E+000	1.3585623E+002	0.0000000E+000	0.0000000E+000	0.0000000E+000	-1.3585623E+002	1.0303439E+000	4.5856232E+001	-2.397208414912069E-004
8.1975581E+005	-8.4733032E-002	-7.8567378E-002	1.1555310E-001	1.3716226E+002	3.124483055056771E+000	-1.2348963E-004	-4.5687261E-001	-2.4711175E+000	-1.1423907E+000	1.000000000000000E+000	37	4.4934251E-004	3.8886236E-003	0	-3.928437607684173E-004	-1	-1	-1	0	0	0	0	0	0	-1	-1	-1	0	0	0	0	0	0	-6.3458462E+000	-5.8840861E+000	8.6540298E+000	-1.3716226E+002	-1.1423906E+003	-1.2320409E+003	1.6801730E+003	1.3283774E+002	0.0000000E+000	0.0000000E+000	0.0000000E+000	-1.3283774E+002	0.0000000E+000	0.0000000E+000	0.0000000E+000	1.3283774E+002	0.0000000E+000	0.0000000E+000	0.0000000E+000	1.3716226E+002	0.0000000E+000	0.0000000E+000	0.0000000E+000	-1.3716226E+002	1.0784760E+000	4.7162262E+001	-1.531229192772104E-004
7.3043163E+005	-4.9024306E-002	-4.8300050E-002	6.8820618E-002	1.3542636E+002	4.272489349561511E+000	-1.2550283E-004	-4.7479519E-001	-4.5112090E+000	-2.2220354E+000	1.000000000000000E+000	37	3.5110852E-004	5.1017925E-003	0	-5.393810139585080E-004	-1	-1	-1	0	0	0	0	0	0	-1	-1	-1	0	0	0	0	0	0	-1.0350808E+001	-1.0197894E+001	1.4530529E+001	-1.3542636E+002	-2.2220359E+003	-2.2553545E+003	3.1660808E+003	1.3457364E+002	0.0000000E+000	0.0000000E+000	0.0000000E+000	-1.3457364E+002	0.0000000E+000	0.0000000E+000	0.0000000E+000	1.3457364E+002	0.0000000E+000	0.0000000E+000	0.0000000E+000	1.3542636E+002	0.0000000E+000	0.0000000E+000	0.0000000E+000	-1.3542636E+002	1.0149950E+000	4.5426361E+001	-1.465372531900907E-004
6.5084063E+005	-2.0833032E-002	-3.0319212E-002	3.6786817E-002	1.2449386E+002	5.419476444047177E+000	-1.3527056E-004	-4.5990613E-001	-8.0654306E+000	-5.4787183E+000	1.000000000000000E+000	37	2.6059628E-004	7.0839580E-003	0	-6.864361952187287E-004	-1	-1	-1	0	0	0	0	0	0	-1	-1	-1	0	0	0	0	0	0	-1.5394588E+001	-2.2404409E+001	2.7183651E+001	-1.2449386E+002	-5.4787178E+003	-3.7645549E+003	6.6474224E+003	1.4550613E+002	0.0000000E+000	0.0000000E+000	0.0000000E+000	-1.4550613E+002	0.0000000E+000	0.0000000E+000	0.0000000E+000	1.4550613E+002	0.0000000E+000	0.0000000E+000	0.0000000E+000	1.2449386E+002	0.0000000E+000	0.0000000E+000	0.0000000E+000	-1.2449386E+002	6.8712312E-001	3.4493858E+001	-1.470551812602207E-004
5.7991575E+005	1.1191320E-003	-1.8524254E-002	1.8558029E-002	8.6542709E+001	6.566480445180787E+000	-1.3282863E-004	-4.6560118E-001	-1.4815439E+001	-1.4761560E+001	1.000000000000000E+000	37	1.8492964E-004	9.9649392E-003	0	-8.332308318749484E-004	-1	-1	-1	0	0	0	0	0	0	-1	-1	-1	0	0	0	0	0	0	3.2495096E+000	-5.3786964E+001	5.3885033E+001	-8.6542709E+001	-1.4761560E+004	8.9181146E+002	1.4788475E+004	-1.7654271E+002	0.0000000E+000	0.0000000E+000	0.0000000E+000	1.7654271E+002	0.0000000E+000	0.0000000E+000	0.0000000E+000	-1.7654271E+002	0.0000000E+000	0.0000000E+000	0.0000000E+000	8.6542709E+001	0.0000000E+000	0.0000000E+000	0.0000000E+000	-8.6542709E+001	6.0414419E-002	3.4572906E+000	-1.467946366562197E-004
5.1672913E+005	1.7042549E-002	-1.3037658E-002	2.1457611E-002	3.7416218E+001	7.715500019752653E+000	-1.2794476E-004	-4.6092966E-001	-2.3624228E+001	-8.7215576E+000	1.000000000000000E+000	37	2.0321146E-004	9.4703678E-003	0	-9.644066809094511E-004	-1	-1	-1	0	0	0	0	0	0	-1	-1	-1	0	0	0	0	0	0	3.7014496E+001	-2.8316326E+001	4.6603512E+001	-3.7416218E+001	-8.7215566E+003	1.1400635E+004	1.4354095E+004	-1.2741621E+002	0.0000000E+000	0.0000000E+000	0.0000000E+000	1.2741621E+002	0.0000000E+000	0.0000000E+000	0.0000000E+000	-1.2741621E+002	0.0000000E+000	0.0000000E+000	0.0000000E+000	3.7416218E+001	0.0000000E+000	0.0000000E+000	0.0000000E+000	-3.7416218E+001	1.3071787E+000	5.2583782E+001	-1.311758490345027E-004
4.6042719E+005	2.8915113E-002	-8.4570469E-003	3.0126490E-002	1.6303061E+001	8.862498420901829E+000	-1.3146785E-004	-4.4382590E-001	-4.0873371E+001	-3.2209268E+000	1.000000000000000E+000	37	3.0958379E-004	1.0276132E-002	0	-1.121662263552037E-003	-1	-1	-1	0	0	0	0	0	0	-1	-1	-1	0	0	0	0	0	0	3.1858683E+001	-9.3179779E+000	3.3193378E+001	-1.6303061E+001	-3.2209275E+003	1.1012528E+004	1.1473890E+004	-1.0630306E+002	0.0000000E+000	0.0000000E+000	0.0000000E+000	1.0630306E+002	0.0000000E+000	0.0000000E+000	0.0000000E+000	-1.0630306E+002	0.0000000E+000	0.0000000E+000	0.0000000E+000	1.6303061E+001	0.0000000E+000	0.0000000E+000	0.0000000E+000	-1.6303061E+001	3.4190555E+000	7.3696938E+001	-1.572555826425863E-004
4.1025831E+005	3.7284557E-002	-6.2473337E-003	3.7804332E-002	9.5120163E+000	1.000948839538614E+001	-1.2908183E-004	-4.5970121E-001	-6.2096634E+001	-1.6957988E+000	1.000000000000000E+000	37	4.6877225E-004	1.2399961E-002	0	-1.265442182563400E-003	-1	-1	-1	0	0	0	0	0	0	-1	-1	-1	0	0	0	0	0	0	2.6088306E+001	-4.3713102E+000	2.6451996E+001	-9.5120163E+000	-1.6957988E+003	1.0120655E+004	1.0261744E+004	-9.9512016E+001	0.0000000E+000	0.0000000E+000	0.0000000E+000	9.9512016E+001	0.0000000E+000	0.0000000E+000	0.0000000E+000	-9.9512016E+001	0.0000000E+000	0.0000000E+000	0.0000000E+000	9.5120163E+000	0.0000000E+000	0.0000000E+000	0.0000000E+000	-9.5120163E+000	5.9680753E+000	8.0487984E+001	-1.437799190113630E-004
3.6555447E+005	4.3764349E-002	-5.3493306E-003	4.4090062E-002	6.9687138E+000	1.115849666329450E+001	-1.3012571E-004	-4.5929167E-001	-8.1389542E+001	-1.1980807E+000	1.000000000000000E+000	37	6.6689192E-004	1.5125674E-002	0	-1.422503726840226E-003	-1	-1	-1	0	0	0	0	0	0	-1	-1	-1	0	0	0	0	0	0	2.2513294E+001	-2.7518070E+000	2.2680847E+001	-6.9687138E+000	-1.1980802E+003	9.8018281E+003	9.8747773E+003	-9.6968712E+001	0.0000000E+000	0.0000000E+000	0.0000000E+000	9.6968712E+001	0.0000000E+000	0.0000000E+000	0.0000000E+000	-9.6968712E+001	0.0000000E+000	0.0000000E+000	0.0000000E+000	6.9687138E+000	0.0000000E+000	0.0000000E+000	0.0000000E+000	-6.9687138E+000	8.1812754E+000	8.3031288E+001	-1.570615442768257E-004
3.2572188E+005	4.8414323E-002	-4.3573449E-003	4.8610009E-002	5.1428304E+000	1.230548583777272E+001	-1.2434709E-004	-4.6517274E-001	-1.1213761E+002	-9.0103930E-001	1.000000000000000E+000	37	8.9763524E-004	1.8466057E-002	0	-1.574397490330118E-003	-1	-1	-1	0	0	0	0	0	0	-1	-1	-1	0	0	0	0	0	0	2.0489080E+001	-1.8440410E+000	2.0571896E+001	-5.1428304E+000	-9.0103925E+002	1.0011419E+004	1.0051885E+004	-9.5142830E+001	0.0000000E+000	0.0000000E+000	0.0000000E+000	9.5142830E+001	0.0000000E+000	0.0000000E+000	0.0000000E+000	-9.5142830E+001	0.0000000E+000	0.0000000E+000	0.0000000E+000	5.1428304E+000	0.0000000E+000	0.0000000E+000	0.0000000E+000	-5.1428304E+000	1.1110969E+001	8.4857170E+001	-1.518937634898919E-004
2.9023159E+005	5.1455192E-002	-3.1538836E-003	5.1551759E-002	3.5074873E+000	1.345249789228546E+001	-1.2252029E-004	-4.6842957E-001	-1.7387206E+002	-6.5077990E-001	1.000000000000000E+000	37	1.1618144E-003	2.2536853E-002	0	-1.734303779548862E-003	-1	-1	-1	0	0	0	0	0	0	-1	-1	-1	0	0	0	0	0	0	1.9361643E+001	-1.1867485E+000	1.9397980E+001	-3.5074873E+000	-6.5077930E+002	1.0617387E+004	1.0637313E+004	-9.3507484E+001	0.0000000E+000	0.0000000E+000	0.0000000E+000	9.3507484E+001	0.0000000E+000	0.0000000E+000	0.0000000E+000	-9.3507484E+001	0.0000000E+000	0.0000000E+000	0.0000000E+000	3.5074873E+000	0.0000000E+000	0.0000000E+000	0.0000000E+000	-3.5074873E+000	1.6314867E+001	8.6492516E+001	-1.599062892187438E-004
2.5860117E+005	5.3882793E-002	-2.4923298E-003	5.3940404E-002	2.6483088E+000	1.459949317338760E+001	-1.3335054E-004	-4.6708953E-001	-2.4693584E+002	-5.2718949E-001	1.000000000000000E+000	37	1.4710627E-003	2.7271999E-002	0	-1.886380891370794E-003	-1	-1	-1	0	0	0	0	0	0	-1	-1	-1	0	0	0	0	0	0	1.8519178E+001	-8.5659814E-001	1.8538979E+001	-2.6483088E+000	-5.2718933E+002	1.1397547E+004	1.1409732E+004	-9.2648308E+001	0.0000000E+000	0.0000000E+000	0.0000000E+000	9.2648308E+001	0.0000000E+000	0.0000000E+000	0.0000000E+000	-9.2648308E+001	0.0000000E+000	0.0000000E+000	0.0000000E+000	2.6483088E+000	0.0000000E+000	0.0000000E+000	0.0000000E+000	-2.6483088E+000	2.1619448E+001	8.7351692E+001	-1.520771118219322E-004
2.3042236E+005	5.6050632E-002	-2.1422640E-003	5.6091554E-002	2.1887887E+000	1.574848992130137E+001	-1.3185927E-004	-4.8162469E-001	-3.2242041E+002	-4.7029847E-001	1.000000000000000E+000	37	1.8430759E-003	3.2858349E-002	0	-2.019948302280158E-003	-1	-1	-1	0	0	0	0	0	0	-1	-1	-1	0	0	0	0	0	0	1.7814989E+001	-6.8089175E-001	1.7827995E+001	-2.1887887E+000	-4.7029868E+002	1.2304984E+004	1.2313969E+004	-9.2188789E+001	0.0000000E+000	0.0000000E+000	0.0000000E+000	9.2188789E+001	0.0000000E+000	0.0000000E+000	0.0000000E+000	-9.2188789E+001	0.0000000E+000	0.0000000E+000	0.0000000E+000	2.1887887E+000	0.0000000E+000	0.0000000E+000	0.0000000E+000	-2.1887887E+000	2.6164204E+001	8.7811211E+001	-1.335674109093636E-004
2.0531472E+005	5.7540040E-002	-1.3437874E-003	5.7555731E-002	1.3378397E+000	1.689548125580768E+001	-1.3948331E-004	-4.8999950E-001	-5.7685876E+002	-3.1445137E-001	1.000000000000000E+000	37	2.2618726E-003	3.9298825E-002	0	-2.180237878765290E-003	-1	-1	-1	0	0	0	0	0	0	-1	-1	-1	0	0	0	0	0	0	1.7369728E+001	-4.0565181E-001	1.7374464E+001	-1.3378397E+000	-3.1445074E+002	1.3464588E+004	1.3468259E+004	-9.1337837E+001	0.0000000E+000	0.0000000E+000	0.0000000E+000	9.1337837E+001	0.0000000E+000	0.0000000E+000	0.0000000E+000	-9.1337837E+001	0.0000000E+000	0.0000000E+000	0.0000000E+000	1.3378397E+000	0.0000000E+000	0.0000000E+000	0.0000000E+000	-1.3378397E+000	4.2819302E+001	8.8662163E+001	-1.602895764851323E-004
1.8294425E+005	5.8595702E-002	-8.6599815E-004	5.8602102E-002	8.4672469E-001	1.804247827027575E+001	-1.3383516E-004	-4.7043899E-001	-1.0045797E+003	-2.1937743E-001	1.000000000000000E+000	37	2.7527676E-003	4.6973873E-002	0	-2.234759173899889E-003	-1	-1	-1	0	0	0	0	0	0	-1	-1	-1	0	0	0	0	0	0	1.7062370E+001	-2.5216836E-001	1.7064234E+001	-8.4672469E-001	-2.1937762E+002	1.4843650E+004	1.4845271E+004	-9.0846725E+001	0.0000000E+000	0.0000000E+000	0.0000000E+000	9.0846725E+001	0.0000000E+000	0.0000000E+000	0.0000000E+000	-9.0846725E+001	0.0000000E+000	0.0000000E+000	0.0000000E+000	8.4672469E-001	0.0000000E+000	0.0000000E+000	0.0000000E+000	-8.4672469E-001	6.7662621E+001	8.9153275E+001	-5.452129513459913E-005
1.6301403E+005	5.9545361E-002	-3.6335242E-004	5.9546471E-002	3.4962088E-001	1.919049109812477E+001	-1.3575514E-004	-4.4955698E-001	-2.6869963E+003	-1.0004863E-001	1.000000000000000E+000	37	3.3064336E-003	5.5526946E-002	0	-2.409295564933783E-003	-1	-1	-1	0	0	0	0	0	0	-1	-1	-1	0	0	0	0	0	0	1.6793293E+001	-1.0247454E-001	1.6793606E+001	-3.4962088E-001	-1.0004970E+002	1.6395740E+004	1.6396045E+004	-9.0349625E+001	0.0000000E+000	0.0000000E+000	0.0000000E+000	9.0349625E+001	0.0000000E+000	0.0000000E+000	0.0000000E+000	-9.0349625E+001	0.0000000E+000	0.0000000E+000	0.0000000E+000	3.4962088E-001	0.0000000E+000	0.0000000E+000	0.0000000E+000	-3.4962088E-001	1.6387770E+002	8.9650375E+001	-1.745363910338944E-004
1.4524569E+005	6.0183316E-002	2.0897378E-004	6.0183678E-002	-1.9894662E-001	2.033849565932178E+001	-1.3679900E-004	-4.6143052E-001	5.2435459E+003	6.3219525E-002	1.000000000000000E+000	37	3.9415825E-003	6.5492548E-002	0	-2.597230482382545E-003	-1	-1	-1	0	0	0	0	0	0	-1	-1	-1	0	0	0	0	0	0	1.6615700E+001	5.7694491E-002	1.6615801E+001	1.9894662E-001	6.3218719E+001	1.8206881E+004	1.8206990E+004	-8.9801056E+001	0.0000000E+000	0.0000000E+000	0.0000000E+000	8.9801056E+001	0.0000000E+000	0.0000000E+000	0.0000000E+000	-8.9801056E+001	0.0000000E+000	0.0000000E+000	0.0000000E+000	-1.9894662E-001	0.0000000E+000	0.0000000E+000	0.0000000E+000	1.9894662E-001	2.8799457E+002	8.9801056E+001	-1.879349174487613E-004
1.2941657E+005	6.0695786E-002	8.6278620E-004	6.0701918E-002	-8.1440049E-001	2.135148941414081E+001	-1.3437567E-004	-4.5875013E-001	1.4253682E+003	2.8795764E-001	1.000000000000000E+000	37	4.6649277E-003	7.6849759E-002	0	-2.730615563295782E-003	-1	-1	-1	0	0	0	0	0	0	-1	-1	-1	0	0	0	0	0	0	1.6472281E+001	2.3415226E-001	1.6473944E+001	8.1440049E-001	2.8795737E+002	2.0257412E+004	2.0259459E+004	-8.9185600E+001	0.0000000E+000	0.0000000E+000	0.0000000E+000	8.9185600E+001	0.0000000E+000	0.0000000E+000	0.0000000E+000	-8.9185600E+001	0.0000000E+000	0.0000000E+000	0.0000000E+000	-8.1440049E-001	0.0000000E+000	0.0000000E+000	0.0000000E+000	8.1440049E-001	7.0348579E+001	8.9185600E+001	-1.333850809132368E-004
1.1532252E+005	6.1240990E-002	1.5899304E-003	6.1261624E-002	-1.4871713E+000	2.249948786865571E+001	-1.3804789E-004	-4.5309216E-001	8.6801630E+002	5.8466500E-001	1.000000000000000E+000	37	5.0497563E-003	8.2429357E-002	0	-2.975284673438304E-003	-1	-1	-1	0	0	0	0	0	0	-1	-1	-1	0	0	0	0	0	0	1.6317934E+001	4.2364404E-001	1.6323433E+001	1.4871713E+000	5.8466644E+002	2.2520145E+004	2.2527732E+004	-8.8512825E+001	0.0000000E+000	0.0000000E+000	0.0000000E+000	8.8512825E+001	0.0000000E+000	0.0000000E+000	0.0000000E+000	-8.8512825E+001	0.0000000E+000	0.0000000E+000	0.0000000E+000	-1.4871713E+000	0.0000000E+000	0.0000000E+000	0.0000000E+000	1.4871713E+000	3.8518032E+001	8.8512825E+001	-2.446691101425226E-004
1.0275015E+005	6.1787240E-002	1.9613304E-003	6.1818361E-002	-1.8181462E+000	2.364749757651589E+001	-1.2473842E-004	-4.4404706E-001	7.8974500E+002	7.9497492E-001	1.000000000000000E+000	37	5.1049436E-003	8.2579732E-002	0	-3.099010011613369E-003	-1	-1	-1	0	0	0	0	0	0	-1	-1	-1	0	0	0	0	0	0	1.6168280E+001	5.1323444E-001	1.6176424E+001	1.8181462E+000	7.9497485E+002	2.5043873E+004	2.5056488E+004	-8.8181854E+001	0.0000000E+000	0.0000000E+000	0.0000000E+000	8.8181854E+001	0.0000000E+000	0.0000000E+000	0.0000000E+000	-8.8181854E+001	0.0000000E+000	0.0000000E+000	0.0000000E+000	-1.8181462E+000	0.0000000E+000	0.0000000E+000	0.0000000E+000	1.8181462E+000	3.1502718E+001	8.8181854E+001	-1.237253381750647E-004
9.1560273E+004	6.2145393E-002	2.4593626E-003	6.2194038E-002	-2.2662597E+000	2.479647904439480E+001	-1.2967821E-004	-4.4721112E-001	7.0679010E+002	1.1051929E+000	1.000000000000000E+000	37	5.1007583E-003	8.2013622E-002	0	-3.233734394550324E-003	2.8075501E-001	1.7054683E-001	6.7766318E+000	3.9940978E-006	6.5277945E-006	3.6253471E-006	5.1215593E-006	4.7884719E-006	7.2635507E-006	1.3368575E-001	1.9339280E-002	2.4281551E-001	2.0845078E-005	1.0719119E-004	6.7356596E-006	4.3614082E-006	2.4290548E-006	2.6935049E-006	1.6066137E+001	6.3580662E-001	1.6078712E+001	2.2662597E+000	1.1051923E+003	2.7927016E+004	2.7948875E+004	-8.7733742E+001	0.0000000E+000	0.0000000E+000	0.0000000E+000	8.7733742E+001	0.0000000E+000	0.0000000E+000	0.0000000E+000	-8.7733742E+001	0.0000000E+000	0.0000000E+000	0.0000000E+000	-2.2662597E+000	0.0000000E+000	0.0000000E+000	0.0000000E+000	2.2662597E+000	2.5268902E+001	8.7733742E+001	-1.347243829369548E-004
8.1576602E+004	6.2554337E-002	2.9333390E-003	6.2623076E-002	-2.6847844E+000	2.594449197893846E+001	-1.3156093E-004	-4.3206143E-001	6.6510809E+002	1.4593114E+000	1.000000000000000E+000	37	5.1120212E-003	8.1631586E-002	0	-3.320301072585086E-003	3.4339595E-001	1.6437639E-001	6.7310071E+000	9.3850331E-006	6.0205107E-006	9.4048592E-006	3.1115630E-006	6.9149464E-006	4.6373561E-006	1.2595099E-001	4.0575974E-002	2.5017032E-001	1.9198189E-005	1.0032066E-004	6.7357764E-006	4.9886867E-006	3.9156384E-006	4.7349331E-006	1.5951027E+001	7.4798596E-001	1.5968554E+001	2.6847844E+000	1.4593112E+003	3.1120256E+004	3.1154453E+004	-8.7315216E+001	0.0000000E+000	0.0000000E+000	0.0000000E+000	8.7315216E+001	0.0000000E+000	0.0000000E+000	0.0000000E+000	-8.7315216E+001	0.0000000E+000	0.0000000E+000	0.0000000E+000	-2.6847844E+000	0.0000000E+000	0.0000000E+000	0.0000000E+000	2.6847844E+000	2.1325300E+001	8.7315216E+001	-8.656667803476218E-005
7.2687797E+004	6.2858053E-002	3.4679142E-003	6.2953644E-002	-3.1578391E+000	2.709249944679323E+001	-1.3191511E-004	-4.4490322E-001	6.3137921E+002	1.9159546E+000	1.000000000000000E+000	37	5.0947228E-003	8.0928162E-002	0	-3.461809859577980E-003	4.0959194E-001	2.2023590E-001	6.8335638E+000	6.6130056E-006	1.4734797E-005	4.1976723E-006	8.2211218E-006	4.3554764E-006	5.0524295E-006	1.3529518E-001	8.2603442E-003	2.4397504E-001	2.1926709E-005	1.0649619E-004	1.1286543E-005	2.6927485E-006	5.3877025E-006	2.6367127E-006	1.5860585E+001	8.7503737E-001	1.5884705E+001	3.1578391E+000	1.9159534E+003	3.4727844E+004	3.4780656E+004	-8.6842163E+001	0.0000000E+000	0.0000000E+000	0.0000000E+000	8.6842163E+001	0.0000000E+000	0.0000000E+000	0.0000000E+000	-8.6842163E+001	0.0000000E+000	0.0000000E+000	0.0000000E+000	-3.1578391E+000	0.0000000E+000	0.0000000E+000	0.0000000E+000	3.1578391E+000	1.8125608E+001	8.6842163E+001	-1.415087869928943E-004
