EC-Lab ASCII FILE
Nb header lines : 66                          

Potentio Electrochemical Impedance Spectroscopy

Run on channel : 15 (SN 19485)
User : 
Electrode connection : standard
Potential control : Ewe
Ewe ctrl range : min = -1.00 V, max = 1.00 V
Ewe,I filtering : <None>
Safety Limits :
	Do not start on E overload
Channel : Floating
Acquisition started on : 04/11/2024 12:29:34.554
Loaded Setting File :  NONE
Saved on :
	File : 240411-EIS-50mM_FeCl2FeCl3-1M_HCl-30mLmin_Dampened-25mHz_20ppd_C15.mpr
	Directory : C:\Data\mathias\IRFB\
	Host : 192.168.0.1
Device : VMP-300 (SN 0826)
Address : USB
EC-Lab for windows v11.52 (software)
Internet server v11.52 (firmware)
Command interpretor v11.52 (firmware)
Electrode material : 
Initial state : 
Electrolyte : 
Comments : 
Cable : special
Electrode surface area : 0.001 cm²
Characteristic mass : 0.001 g
Equivalent Weight : 0.000 g/eq.
Density : 0.000 g/cm3
Volume (V) : 0.001 cm³
Record EIS quality indicators
Cycle Definition : Charge/Discharge alternance
Mode                Single sine         
E (V)               0.0000              
vs.                 Eoc                 
tE (h:m:s)          0:00:0.0000         
record              0                   
dI                  0.000               
unit dI             mA                  
dt (s)              0.000               
fi                  920.000             
unit fi             kHz                 
ff                  25.000              
unit ff             mHz                 
Nd                  20                  
Points              per decade          
spacing             Logarithmic         
Va (mV)             5.0                 
pw                  0.10                
Na                  3                   
corr                0                   
E range min (V)     -1.000              
E range max (V)     1.000               
I Range             Auto                
Bandwidth           8                   
nc cycles           0                   
goto Ns'            0                   
nr cycles           0                   
inc. cycle          0                   

freq/Hz	Re(Z)/Ohm	-Im(Z)/Ohm	|Z|/Ohm	Phase(Z)/deg	time/s	<Ewe>/V	<I>/mA	Cs/µF	Cp/µF	cycle number	I Range	|Ewe|/V	|I|/A	Ns	(Q-Qo)/mA.h	THD Ewe/%	NSD Ewe/%	NSR Ewe/%	|Ewe h2|/V	|Ewe h3|/V	|Ewe h4|/V	|Ewe h5|/V	|Ewe h6|/V	|Ewe h7|/V	THD I/%	NSD I/%	NSR I/%	|I h2|/A	|I h3|/A	|I h4|/A	|I h5|/A	|I h6|/A	|I h7|/A	Re(Y)/Ohm-1	Im(Y)/Ohm-1	|Y|/Ohm-1	Phase(Y)/deg	Re(C)/nF	Im(C)/nF	|C|/nF	Phase(C)/deg	Re(M)	Im(M)	|M|	Phase(M)/deg	Re(Permittivity)	Im(Permittivity)	|Permittivity|	Phase(Permittivity)/deg	Re(Resistivity)/Ohm.cm	Im(Resistivity)/Ohm.cm	|Resistivity|/Ohm.cm	Phase(Resistivity)/deg	Re(Conductivity)/mS/cm	Im(Conductivity)/mS/cm	|Conductivity|/mS/cm	Phase(Conductivity)/deg	Tan(Delta)	Loss Angle(Delta)/deg	dq/mA.h	
9.2000075E+005	-1.3294882E-001	4.6492699E-003	1.3303009E-001	-1.7799716E+002	1.976480920537142E+000	-1.7993370E-004	-5.2508295E-001	3.7208935E+001	4.5448229E-002	1.000000000000000E+000	37	3.7124279E-004	2.7906678E-003	0	-2.562552837472564E-004	-1	-1	-1	0	0	0	0	0	0	-1	-1	-1	0	0	0	0	0	0	-7.5125041E+000	2.6271501E-001	7.5170965E+000	1.7799716E+002	4.5448215E+001	-1.2996208E+003	1.3004153E+003	8.7997162E+001	0.0000000E+000	0.0000000E+000	0.0000000E+000	-8.7997162E+001	0.0000000E+000	0.0000000E+000	0.0000000E+000	8.7997162E+001	0.0000000E+000	0.0000000E+000	0.0000000E+000	-1.7799716E+002	0.0000000E+000	0.0000000E+000	0.0000000E+000	1.7799716E+002	2.8595633E+001	8.7997162E+001	-2.562552837472564E-004
8.1975581E+005	-8.2361653E-002	3.5748769E-002	8.9785390E-002	-1.5653693E+002	3.123487294971710E+000	-1.6723937E-004	-5.0308442E-001	5.4309340E+000	8.6096478E-001	1.000000000000000E+000	37	3.0538894E-004	3.4013211E-003	0	-4.204450520473119E-004	-1	-1	-1	0	0	0	0	0	0	-1	-1	-1	0	0	0	0	0	0	-1.0216772E+001	4.4345517E+000	1.1137670E+001	1.5653693E+002	8.6096478E+002	-1.9835784E+003	2.1623699E+003	6.6536926E+001	0.0000000E+000	0.0000000E+000	0.0000000E+000	-6.6536926E+001	0.0000000E+000	0.0000000E+000	0.0000000E+000	6.6536926E+001	0.0000000E+000	0.0000000E+000	0.0000000E+000	-1.5653693E+002	0.0000000E+000	0.0000000E+000	0.0000000E+000	1.5653693E+002	2.3039019E+000	6.6536926E+001	-1.641897683000554E-004
7.3043163E+005	-4.2958912E-002	4.9033042E-002	6.5189779E-002	-1.3122231E+002	4.270499216130702E+000	-1.6904753E-004	-5.0314021E-001	4.4437714E+000	2.5140295E+000	1.000000000000000E+000	37	2.5748444E-004	3.9497670E-003	0	-5.793797771651815E-004	-1	-1	-1	0	0	0	0	0	0	-1	-1	-1	0	0	0	0	0	0	-1.0108676E+001	1.1537981E+001	1.5339828E+001	1.3122231E+002	2.5140295E+003	-2.2025957E+003	3.3424202E+003	4.1222305E+001	0.0000000E+000	0.0000000E+000	0.0000000E+000	-4.1222305E+001	0.0000000E+000	0.0000000E+000	0.0000000E+000	4.1222305E+001	0.0000000E+000	0.0000000E+000	0.0000000E+000	-1.3122231E+002	0.0000000E+000	0.0000000E+000	0.0000000E+000	1.3122231E+002	8.7612170E-001	4.1222305E+001	-1.589347251178696E-004
6.5084063E+005	-1.3408985E-002	5.5063933E-002	5.6673076E-002	-1.0368610E+002	5.417481163953198E+000	-1.7219780E-004	-5.0157678E-001	4.4409742E+000	4.1923656E+000	1.000000000000000E+000	37	2.6531995E-004	4.6815872E-003	0	-7.410513474490856E-004	-1	-1	-1	0	0	0	0	0	0	-1	-1	-1	0	0	0	0	0	0	-4.1748638E+000	1.7144060E+001	1.7645063E+001	1.0368610E+002	4.1923657E+003	-1.0209108E+003	4.3148799E+003	1.3686096E+001	0.0000000E+000	0.0000000E+000	0.0000000E+000	-1.3686096E+001	0.0000000E+000	0.0000000E+000	0.0000000E+000	1.3686096E+001	0.0000000E+000	0.0000000E+000	0.0000000E+000	-1.0368610E+002	0.0000000E+000	0.0000000E+000	0.0000000E+000	1.0368610E+002	2.4351665E-001	1.3686096E+001	-1.616715702839041E-004
5.7991575E+005	8.8550821E-003	5.5714082E-002	5.6413397E-002	-8.0969063E+001	6.564487271796679E+000	-1.7916944E-004	-5.1183158E-001	4.9259529E+000	4.8045831E+000	1.000000000000000E+000	37	3.3124909E-004	5.8718161E-003	0	-8.962848896208323E-004	-1	-1	-1	0	0	0	0	0	0	-1	-1	-1	0	0	0	0	0	0	2.7824552E+000	1.7506546E+001	1.7726286E+001	8.0969063E+001	4.8045830E+003	7.6363080E+002	4.8648896E+003	-9.0309372E+000	0.0000000E+000	0.0000000E+000	0.0000000E+000	9.0309372E+000	0.0000000E+000	0.0000000E+000	0.0000000E+000	-9.0309372E+000	0.0000000E+000	0.0000000E+000	0.0000000E+000	-8.0969063E+001	0.0000000E+000	0.0000000E+000	0.0000000E+000	8.0969063E+001	1.5893795E-001	9.0309448E+000	-1.552335421717467E-004
5.1672913E+005	2.5984926E-002	5.4150090E-002	6.0062040E-002	-6.4365112E+001	7.712500179623021E+000	-1.6537530E-004	-4.8696682E-001	5.6879797E+000	4.6233444E+000	1.000000000000000E+000	37	4.4412873E-004	7.3944996E-003	0	-1.071934920063605E-003	-1	-1	-1	0	0	0	0	0	0	-1	-1	-1	0	0	0	0	0	0	7.2031317E+000	1.5010633E+001	1.6649450E+001	6.4365112E+001	4.6233442E+003	2.2185977E+003	5.1281074E+003	-2.5634888E+001	0.0000000E+000	0.0000000E+000	0.0000000E+000	2.5634888E+001	0.0000000E+000	0.0000000E+000	0.0000000E+000	-2.5634888E+001	0.0000000E+000	0.0000000E+000	0.0000000E+000	-6.4365112E+001	0.0000000E+000	0.0000000E+000	0.0000000E+000	6.4365112E+001	4.7986856E-001	2.5634888E+001	-1.756500304427723E-004
4.6042719E+005	3.7935343E-002	4.9835347E-002	6.2631078E-002	-5.2721115E+001	8.859484740794869E+000	-1.6522617E-004	-5.1207346E-001	6.9362011E+000	4.3915405E+000	1.000000000000000E+000	37	5.9326686E-004	9.4724037E-003	0	-1.221357167370178E-003	-1	-1	-1	0	0	0	0	0	0	-1	-1	-1	0	0	0	0	0	0	9.6708412E+000	1.2704504E+001	1.5966515E+001	5.2721115E+001	4.3915405E+003	3.3429004E+003	5.5191133E+003	-3.7278885E+001	0.0000000E+000	0.0000000E+000	0.0000000E+000	3.7278885E+001	0.0000000E+000	0.0000000E+000	0.0000000E+000	-3.7278885E+001	0.0000000E+000	0.0000000E+000	0.0000000E+000	-5.2721115E+001	0.0000000E+000	0.0000000E+000	0.0000000E+000	5.2721115E+001	7.6121360E-001	3.7278885E+001	-1.494222473065730E-004
4.1025831E+005	4.6811126E-002	4.5422725E-002	6.5226570E-002	-4.4137589E+001	1.000648151527275E+001	-1.6636326E-004	-5.1125449E-001	8.5406227E+000	4.1417785E+000	1.000000000000000E+000	37	7.7855709E-004	1.1936196E-002	0	-1.391383123533593E-003	-1	-1	-1	0	0	0	0	0	0	-1	-1	-1	0	0	0	0	0	0	1.1002719E+001	1.0676382E+001	1.5331176E+001	4.4137589E+001	4.1417783E+003	4.2683765E+003	5.9475513E+003	-4.5862411E+001	0.0000000E+000	0.0000000E+000	0.0000000E+000	4.5862411E+001	0.0000000E+000	0.0000000E+000	0.0000000E+000	-4.5862411E+001	0.0000000E+000	0.0000000E+000	0.0000000E+000	-4.4137589E+001	0.0000000E+000	0.0000000E+000	0.0000000E+000	4.4137589E+001	1.0305662E+000	4.5862411E+001	-1.700259561634157E-004
3.6555447E+005	5.3802226E-002	4.0963717E-002	6.7621782E-002	-3.7284771E+001	1.115348567641922E+001	-1.7068788E-004	-5.1134747E-001	1.0628419E+001	3.9002655E+000	1.000000000000000E+000	37	9.9703390E-004	1.4744272E-002	0	-1.534491579425987E-003	-1	-1	-1	0	0	0	0	0	0	-1	-1	-1	0	0	0	0	0	0	1.1765950E+001	8.9583111E+000	1.4788135E+001	3.7284771E+001	3.9002654E+003	5.1226538E+003	6.4384512E+003	-5.2715229E+001	0.0000000E+000	0.0000000E+000	0.0000000E+000	5.2715229E+001	0.0000000E+000	0.0000000E+000	0.0000000E+000	-5.2715229E+001	0.0000000E+000	0.0000000E+000	0.0000000E+000	-3.7284771E+001	0.0000000E+000	0.0000000E+000	0.0000000E+000	3.7284771E+001	1.3134117E+000	5.2715225E+001	-1.431084558923936E-004
3.2572188E+005	5.8629949E-002	3.7069339E-002	6.9365747E-002	-3.2303505E+001	1.230049701090320E+001	-1.7367040E-004	-5.1990855E-001	1.3181304E+001	3.7644186E+000	1.000000000000000E+000	37	1.2573150E-003	1.8125877E-002	0	-1.689899587910209E-003	-1	-1	-1	0	0	0	0	0	0	-1	-1	-1	0	0	0	0	0	0	1.2185108E+001	7.7041488E+000	1.4416337E+001	3.2303505E+001	3.7644185E+003	5.9539146E+003	7.0441426E+003	-5.7696495E+001	0.0000000E+000	0.0000000E+000	0.0000000E+000	5.7696495E+001	0.0000000E+000	0.0000000E+000	0.0000000E+000	-5.7696495E+001	0.0000000E+000	0.0000000E+000	0.0000000E+000	-3.2303505E+001	0.0000000E+000	0.0000000E+000	0.0000000E+000	3.2303505E+001	1.5816292E+000	5.7696495E+001	-1.554080084842217E-004
2.9023159E+005	6.1736558E-002	3.3606466E-002	7.0290804E-002	-2.8561783E+001	1.344748469200567E+001	-1.7096748E-004	-5.0676876E-001	1.6317461E+001	3.7299352E+000	1.000000000000000E+000	37	1.5616805E-003	2.2217423E-002	0	-1.894178981539690E-003	-1	-1	-1	0	0	0	0	0	0	-1	-1	-1	0	0	0	0	0	0	1.2495263E+001	6.8018303E+000	1.4226612E+001	2.8561783E+001	3.7299348E+003	6.8520552E+003	7.8014790E+003	-6.1438217E+001	0.0000000E+000	0.0000000E+000	0.0000000E+000	6.1438217E+001	0.0000000E+000	0.0000000E+000	0.0000000E+000	-6.1438217E+001	0.0000000E+000	0.0000000E+000	0.0000000E+000	-2.8561783E+001	0.0000000E+000	0.0000000E+000	0.0000000E+000	2.8561783E+001	1.8370440E+000	6.1438217E+001	-2.042793936294814E-004
2.5860117E+005	6.4535454E-002	3.0526273E-002	7.1391024E-002	-2.5314877E+001	1.459547645322164E+001	-1.8006415E-004	-5.2428204E-001	2.0161177E+001	3.6861770E+000	1.000000000000000E+000	37	1.9240817E-003	2.6951311E-002	0	-2.095490746013406E-003	-1	-1	-1	0	0	0	0	0	0	-1	-1	-1	0	0	0	0	0	0	1.2662258E+001	5.9894447E+000	1.4007363E+001	2.5314877E+001	3.6861782E+003	7.7929312E+003	8.6207705E+003	-6.4685120E+001	0.0000000E+000	0.0000000E+000	0.0000000E+000	6.4685120E+001	0.0000000E+000	0.0000000E+000	0.0000000E+000	-6.4685120E+001	0.0000000E+000	0.0000000E+000	0.0000000E+000	-2.5314877E+001	0.0000000E+000	0.0000000E+000	0.0000000E+000	2.5314877E+001	2.1140954E+000	6.4685120E+001	-2.013117644737163E-004
2.3042236E+005	6.6638537E-002	2.7594736E-002	7.2126031E-002	-2.2494238E+001	1.574249576104921E+001	-1.7035232E-004	-5.2175057E-001	2.5030485E+001	3.6638501E+000	1.000000000000000E+000	37	2.3462060E-003	3.2529254E-002	0	-2.220189818670766E-003	-1	-1	-1	0	0	0	0	0	0	-1	-1	-1	0	0	0	0	0	0	1.2809772E+001	5.3044724E+000	1.3864620E+001	2.2494238E+001	3.6638501E+003	8.8478320E+003	9.5764258E+003	-6.7505760E+001	0.0000000E+000	0.0000000E+000	0.0000000E+000	6.7505760E+001	0.0000000E+000	0.0000000E+000	0.0000000E+000	-6.7505760E+001	0.0000000E+000	0.0000000E+000	0.0000000E+000	-2.2494238E+001	0.0000000E+000	0.0000000E+000	0.0000000E+000	2.2494238E+001	2.4149003E+000	6.7505760E+001	-1.246990726573600E-004
2.0531472E+005	6.8438485E-002	2.5273703E-002	7.2956055E-002	-2.0268724E+001	1.689049858888029E+001	-1.7340938E-004	-5.2534235E-001	3.0671228E+001	3.6808343E+000	1.000000000000000E+000	37	2.8432822E-003	3.8972531E-002	0	-2.334978538076704E-003	-1	-1	-1	0	0	0	0	0	0	-1	-1	-1	0	0	0	0	0	0	1.2858127E+001	4.7483878E+000	1.3706882E+001	2.0268724E+001	3.6808337E+003	9.9673047E+003	1.0625239E+004	-6.9731277E+001	0.0000000E+000	0.0000000E+000	0.0000000E+000	6.9731277E+001	0.0000000E+000	0.0000000E+000	0.0000000E+000	-6.9731277E+001	0.0000000E+000	0.0000000E+000	0.0000000E+000	-2.0268724E+001	0.0000000E+000	0.0000000E+000	0.0000000E+000	2.0268724E+001	2.7078931E+000	6.9731277E+001	-1.147887194059374E-004
1.8294425E+005	6.9581799E-002	2.3233034E-002	7.3358029E-002	-1.8463921E+001	1.803849675008678E+001	-1.7406180E-004	-5.1164430E-001	3.7445137E+001	3.7558823E+000	1.000000000000000E+000	37	3.4206191E-003	4.6629101E-002	0	-2.552970730621368E-003	-1	-1	-1	0	0	0	0	0	0	-1	-1	-1	0	0	0	0	0	0	1.2930054E+001	4.3172836E+000	1.3631773E+001	1.8463921E+001	3.7558823E+003	1.1248684E+004	1.1859154E+004	-7.1536079E+001	0.0000000E+000	0.0000000E+000	0.0000000E+000	7.1536079E+001	0.0000000E+000	0.0000000E+000	0.0000000E+000	-7.1536079E+001	0.0000000E+000	0.0000000E+000	0.0000000E+000	-1.8463921E+001	0.0000000E+000	0.0000000E+000	0.0000000E+000	1.8463921E+001	2.9949510E+000	7.1536079E+001	-2.179921925446640E-004
1.6301403E+005	7.0629671E-002	2.1571124E-002	7.3850282E-002	-1.6983280E+001	1.918648525796016E+001	-1.7504973E-004	-5.1424980E-001	4.5260815E+001	3.8615673E+000	1.000000000000000E+000	37	4.0740501E-003	5.5166345E-002	0	-2.758815899490068E-003	-1	-1	-1	0	0	0	0	0	0	-1	-1	-1	0	0	0	0	0	0	1.2950391E+001	3.9552000E+000	1.3540910E+001	1.6983280E+001	3.8615664E+003	1.2643813E+004	1.3220352E+004	-7.3016724E+001	0.0000000E+000	0.0000000E+000	0.0000000E+000	7.3016724E+001	0.0000000E+000	0.0000000E+000	0.0000000E+000	-7.3016724E+001	0.0000000E+000	0.0000000E+000	0.0000000E+000	-1.6983280E+001	0.0000000E+000	0.0000000E+000	0.0000000E+000	1.6983280E+001	3.2742693E+000	7.3016724E+001	-2.058451688687008E-004
1.4524569E+005	7.1514584E-002	2.0030184E-002	7.4266709E-002	-1.5646778E+001	2.019949247941258E+001	-1.9108072E-004	-5.4049134E-001	5.4705624E+001	3.9793620E+000	1.000000000000000E+000	37	4.8358627E-003	6.5114811E-002	0	-2.847527743407421E-003	-1	-1	-1	0	0	0	0	0	0	-1	-1	-1	0	0	0	0	0	0	1.2966007E+001	3.6315880E+000	1.3464983E+001	1.5646778E+001	3.9793611E+003	1.4207680E+004	1.4754439E+004	-7.4353226E+001	0.0000000E+000	0.0000000E+000	0.0000000E+000	7.4353226E+001	0.0000000E+000	0.0000000E+000	0.0000000E+000	-7.4353226E+001	0.0000000E+000	0.0000000E+000	0.0000000E+000	-1.5646778E+001	0.0000000E+000	0.0000000E+000	0.0000000E+000	1.5646778E+001	3.5703409E+000	7.4353226E+001	-8.871184391735310E-005
1.2941657E+005	7.2517917E-002	1.8849516E-002	7.4927650E-002	-1.4570411E+001	2.134749128061230E+001	-1.8013861E-004	-5.1227647E-001	6.5242416E+001	4.1290126E+000	1.000000000000000E+000	37	5.0647417E-003	6.7595094E-002	0	-3.140912115546978E-003	-1	-1	-1	0	0	0	0	0	0	-1	-1	-1	0	0	0	0	0	0	1.2916984E+001	3.3574996E+000	1.3346208E+001	1.4570411E+001	4.1290132E+003	1.5885150E+004	1.6413006E+004	-7.5429588E+001	0.0000000E+000	0.0000000E+000	0.0000000E+000	7.5429588E+001	0.0000000E+000	0.0000000E+000	0.0000000E+000	-7.5429588E+001	0.0000000E+000	0.0000000E+000	0.0000000E+000	-1.4570411E+001	0.0000000E+000	0.0000000E+000	0.0000000E+000	1.4570411E+001	3.8472030E+000	7.5429588E+001	-2.933843721395569E-004
1.1532252E+005	7.2990812E-002	1.7902885E-002	7.5154319E-002	-1.3781211E+001	2.249547640178935E+001	-1.7991493E-004	-5.0462723E-001	7.7087318E+001	4.3744264E+000	1.000000000000000E+000	37	5.0998605E-003	6.7858517E-002	0	-3.271595494611396E-003	-1	-1	-1	0	0	0	0	0	0	-1	-1	-1	0	0	0	0	0	0	1.2922909E+001	3.1696777E+000	1.3305955E+001	1.3781211E+001	4.3744272E+003	1.7834721E+004	1.8363357E+004	-7.6218788E+001	0.0000000E+000	0.0000000E+000	0.0000000E+000	7.6218788E+001	0.0000000E+000	0.0000000E+000	0.0000000E+000	-7.6218788E+001	0.0000000E+000	0.0000000E+000	0.0000000E+000	-1.3781211E+001	0.0000000E+000	0.0000000E+000	0.0000000E+000	1.3781211E+001	4.0770421E+000	7.6218788E+001	-1.306833790644174E-004
1.0275015E+005	7.4074775E-002	1.7123442E-002	7.6028183E-002	-1.3016105E+001	2.364348026961670E+001	-1.8858287E-004	-5.0721425E-001	9.0457916E+001	4.5885925E+000	1.000000000000000E+000	37	5.1017287E-003	6.7103125E-002	0	-3.404095741209678E-003	-1	-1	-1	0	0	0	0	0	0	-1	-1	-1	0	0	0	0	0	0	1.2815074E+001	2.9623873E+000	1.3153017E+001	1.3016105E+001	4.5885928E+003	1.9849922E+004	2.0373379E+004	-7.6983894E+001	0.0000000E+000	0.0000000E+000	0.0000000E+000	7.6983894E+001	0.0000000E+000	0.0000000E+000	0.0000000E+000	-7.6983894E+001	0.0000000E+000	0.0000000E+000	0.0000000E+000	-1.3016105E+001	0.0000000E+000	0.0000000E+000	0.0000000E+000	1.3016105E+001	4.3259277E+000	7.6983894E+001	-1.325002465982820E-004
9.1560273E+004	7.4504428E-002	1.6168620E-002	7.6238662E-002	-1.2244215E+001	2.479148243085365E+001	-1.9376498E-004	-5.1210898E-001	1.0750783E+002	4.8354340E+000	1.000000000000000E+000	37	5.0982134E-003	6.6871762E-002	0	-3.664903849653486E-003	3.3541960E-001	1.5409400E-001	6.3266511E+000	6.1352762E-006	7.7178465E-006	4.0224022E-006	7.0331575E-006	5.0920157E-006	8.5080064E-006	1.0134486E-001	1.8548155E-002	2.9264653E-001	1.4867940E-005	6.5671607E-005	4.8105376E-006	2.2719742E-006	1.9452129E-006	3.8189405E-006	1.2818333E+001	2.7817776E+000	1.3116705E+001	1.2244215E+001	4.8354351E+003	2.2281510E+004	2.2800156E+004	-7.7755783E+001	0.0000000E+000	0.0000000E+000	0.0000000E+000	7.7755783E+001	0.0000000E+000	0.0000000E+000	0.0000000E+000	-7.7755783E+001	0.0000000E+000	0.0000000E+000	0.0000000E+000	-1.2244215E+001	0.0000000E+000	0.0000000E+000	0.0000000E+000	1.2244215E+001	4.6079645E+000	7.7755783E+001	-2.608081084438081E-004
8.1576602E+004	7.5042486E-002	1.5594635E-002	7.6645724E-002	-1.1739590E+001	2.593948491205811E+001	-1.9287023E-004	-5.1795298E-001	1.2510633E+002	5.1790948E+000	1.000000000000000E+000	37	5.1014968E-003	6.6559441E-002	0	-3.698702354872392E-003	3.0201298E-001	2.1383747E-001	6.3114090E+000	6.1892611E-006	5.2619894E-006	4.6894456E-006	7.6347496E-006	3.1843174E-006	6.3394141E-006	1.0317922E-001	4.5693129E-002	2.9302260E-001	1.0892784E-005	6.7012348E-005	2.3856196E-006	4.6683981E-006	4.5511342E-006	4.8092734E-006	1.2774130E+001	2.6546016E+000	1.3047042E+001	1.1739590E+001	5.1790967E+003	2.4922170E+004	2.5454619E+004	-7.8260406E+001	0.0000000E+000	0.0000000E+000	0.0000000E+000	7.8260406E+001	0.0000000E+000	0.0000000E+000	0.0000000E+000	-7.8260406E+001	0.0000000E+000	0.0000000E+000	0.0000000E+000	-1.1739590E+001	0.0000000E+000	0.0000000E+000	0.0000000E+000	1.1739590E+001	4.8120708E+000	7.8260406E+001	-3.379850521890646E-005
7.2687797E+004	7.5661831E-002	1.5190605E-002	7.7171676E-002	-1.1352332E+001	2.708748107324936E+001	-1.8121977E-004	-4.6986148E-001	1.4413968E+002	5.5849314E+000	1.000000000000000E+000	37	5.0989916E-003	6.6073358E-002	0	-3.821343917749719E-003	3.5894042E-001	2.1627234E-001	6.3088164E+000	6.5866921E-006	1.0935451E-005	8.7787457E-006	3.9521574E-006	4.0852929E-006	6.7867800E-006	1.1189802E-001	1.0820987E-002	2.9535609E-001	1.4724389E-005	7.1980045E-005	4.4763628E-006	6.4725464E-006	3.8678845E-006	2.0281257E-006	1.2704600E+001	2.5506992E+000	1.2958122E+001	1.1352332E+001	5.5849321E+003	2.7817600E+004	2.8372703E+004	-7.8647667E+001	0.0000000E+000	0.0000000E+000	0.0000000E+000	7.8647667E+001	0.0000000E+000	0.0000000E+000	0.0000000E+000	-7.8647667E+001	0.0000000E+000	0.0000000E+000	0.0000000E+000	-1.1352332E+001	0.0000000E+000	0.0000000E+000	0.0000000E+000	1.1352332E+001	4.9808307E+000	7.8647667E+001	-1.226415628773265E-004
