EC-Lab ASCII FILE
Nb header lines : 66                          

Potentio Electrochemical Impedance Spectroscopy

Run on channel : 15 (SN 19485)
User : 
Electrode connection : standard
Potential control : Ewe
Ewe ctrl range : min = -1.00 V, max = 1.00 V
Ewe,I filtering : <None>
Safety Limits :
	Do not start on E overload
Channel : Floating
Acquisition started on : 04/11/2024 10:45:14.386
Loaded Setting File :  NONE
Saved on :
	File : 240411-EIS-50mM_FeCl2FeCl3-1M_HCl-10mLmin-25mHz_20ppd_C15.mpr
	Directory : C:\Data\mathias\IRFB\
	Host : 192.168.0.1
Device : VMP-300 (SN 0826)
Address : USB
EC-Lab for windows v11.52 (software)
Internet server v11.52 (firmware)
Command interpretor v11.52 (firmware)
Electrode material : 
Initial state : 
Electrolyte : 
Comments : 
Cable : special
Electrode surface area : 0.001 cm²
Characteristic mass : 0.001 g
Equivalent Weight : 0.000 g/eq.
Density : 0.000 g/cm3
Volume (V) : 0.001 cm³
Record EIS quality indicators
Cycle Definition : Charge/Discharge alternance
Mode                Single sine         
E (V)               0.0000              
vs.                 Eoc                 
tE (h:m:s)          0:00:0.0000         
record              0                   
dI                  0.000               
unit dI             mA                  
dt (s)              0.000               
fi                  920.000             
unit fi             kHz                 
ff                  25.000              
unit ff             mHz                 
Nd                  20                  
Points              per decade          
spacing             Logarithmic         
Va (mV)             5.0                 
pw                  0.10                
Na                  3                   
corr                0                   
E range min (V)     -1.000              
E range max (V)     1.000               
I Range             Auto                
Bandwidth           8                   
nc cycles           0                   
goto Ns'            0                   
nr cycles           0                   
inc. cycle          0                   

freq/Hz	Re(Z)/Ohm	-Im(Z)/Ohm	|Z|/Ohm	Phase(Z)/deg	time/s	<Ewe>/V	<I>/mA	Cs/µF	Cp/µF	cycle number	I Range	|Ewe|/V	|I|/A	Ns	(Q-Qo)/mA.h	THD Ewe/%	NSD Ewe/%	NSR Ewe/%	|Ewe h2|/V	|Ewe h3|/V	|Ewe h4|/V	|Ewe h5|/V	|Ewe h6|/V	|Ewe h7|/V	THD I/%	NSD I/%	NSR I/%	|I h2|/A	|I h3|/A	|I h4|/A	|I h5|/A	|I h6|/A	|I h7|/A	Re(Y)/Ohm-1	Im(Y)/Ohm-1	|Y|/Ohm-1	Phase(Y)/deg	Re(C)/nF	Im(C)/nF	|C|/nF	Phase(C)/deg	Re(M)	Im(M)	|M|	Phase(M)/deg	Re(Permittivity)	Im(Permittivity)	|Permittivity|	Phase(Permittivity)/deg	Re(Resistivity)/Ohm.cm	Im(Resistivity)/Ohm.cm	|Resistivity|/Ohm.cm	Phase(Resistivity)/deg	Re(Conductivity)/mS/cm	Im(Conductivity)/mS/cm	|Conductivity|/mS/cm	Phase(Conductivity)/deg	Tan(Delta)	Loss Angle(Delta)/deg	dq/mA.h	
9.2000075E+005	-1.3051207E-001	-1.2729344E-001	1.8231024E-001	1.3571529E+002	2.168492529628566E+000	4.8889469E-006	-1.5134008E-002	-1.3590204E+000	-6.6254574E-001	1.000000000000000E+000	37	5.4203422E-004	2.9731418E-003	0	-1.603857725387853E-005	-1	-1	-1	0	0	0	0	0	0	-1	-1	-1	0	0	0	0	0	0	-3.9267080E+000	-3.8298690E+000	5.4851556E+000	-1.3571529E+002	-6.6254572E+002	-6.7929828E+002	9.4890094E+002	1.3428471E+002	0.0000000E+000	0.0000000E+000	0.0000000E+000	-1.3428471E+002	0.0000000E+000	0.0000000E+000	0.0000000E+000	1.3428471E+002	0.0000000E+000	0.0000000E+000	0.0000000E+000	1.3571529E+002	0.0000000E+000	0.0000000E+000	0.0000000E+000	-1.3571529E+002	1.0252851E+000	4.5715286E+001	-1.603857725387853E-005
8.1975581E+005	-8.6256459E-002	-7.9985276E-002	1.1763427E-001	1.3716035E+002	3.315494557464262E+000	2.5402148E-006	-3.0897748E-002	-2.4273119E+000	-1.1222199E+000	1.000000000000000E+000	37	4.5630476E-004	3.8790123E-003	0	-2.615961549847594E-005	-1	-1	-1	0	0	0	0	0	0	-1	-1	-1	0	0	0	0	0	0	-6.2333837E+000	-5.7801933E+000	8.5009241E+000	-1.3716035E+002	-1.1222201E+003	-1.2102065E+003	1.6504478E+003	1.3283965E+002	0.0000000E+000	0.0000000E+000	0.0000000E+000	-1.3283965E+002	0.0000000E+000	0.0000000E+000	0.0000000E+000	1.3283965E+002	0.0000000E+000	0.0000000E+000	0.0000000E+000	1.3716035E+002	0.0000000E+000	0.0000000E+000	0.0000000E+000	-1.3716035E+002	1.0784042E+000	4.7160355E+001	-1.012103824459741E-005
7.3043163E+005	-5.0426651E-002	-5.0412033E-002	7.1303718E-002	1.3500830E+002	4.462493305240059E+000	-4.6923828E-006	-5.4217625E-002	-4.3222146E+000	-2.1604807E+000	1.000000000000000E+000	37	3.6210808E-004	5.0783898E-003	0	-3.770143092563376E-005	-1	-1	-1	0	0	0	0	0	0	-1	-1	-1	0	0	0	0	0	0	-9.9182653E+000	-9.9153919E+000	1.4024514E+001	-1.3500830E+002	-2.1604812E+003	-2.1611072E+003	3.0558245E+003	1.3499170E+002	0.0000000E+000	0.0000000E+000	0.0000000E+000	-1.3499170E+002	0.0000000E+000	0.0000000E+000	0.0000000E+000	1.3499170E+002	0.0000000E+000	0.0000000E+000	0.0000000E+000	1.3500830E+002	0.0000000E+000	0.0000000E+000	0.0000000E+000	-1.3500830E+002	1.0002899E+000	4.5008301E+001	-1.154181542715782E-005
6.5084063E+005	-2.0645127E-002	-3.2766189E-002	3.8727824E-002	1.2221397E+002	5.609477173100458E+000	-8.5239822E-007	-3.1195426E-002	-7.4631047E+000	-5.3422627E+000	1.000000000000000E+000	37	2.7164831E-004	7.0142932E-003	0	-5.782289334192562E-005	-1	-1	-1	0	0	0	0	0	0	-1	-1	-1	0	0	0	0	0	0	-1.3764846E+001	-2.1846392E+001	2.5821228E+001	-1.2221397E+002	-5.3422627E+003	-3.3660203E+003	6.3142588E+003	1.4778604E+002	0.0000000E+000	0.0000000E+000	0.0000000E+000	-1.4778604E+002	0.0000000E+000	0.0000000E+000	0.0000000E+000	1.4778604E+002	0.0000000E+000	0.0000000E+000	0.0000000E+000	1.2221397E+002	0.0000000E+000	0.0000000E+000	0.0000000E+000	-1.2221397E+002	6.3007408E-001	3.2213966E+001	-2.012146241629186E-005
5.7991575E+005	5.7932275E-004	-2.0418143E-002	2.0426359E-002	8.8374786E+001	6.756492480897577E+000	-1.2018185E-005	-5.9484538E-002	-1.3441231E+001	-1.3430419E+001	1.000000000000000E+000	37	1.9844140E-004	9.7149666E-003	0	-6.559460893169873E-005	-1	-1	-1	0	0	0	0	0	0	-1	-1	-1	0	0	0	0	0	0	1.3884768E+000	-4.8936657E+001	4.8956352E+001	-8.8374786E+001	-1.3430418E+004	3.8106042E+002	1.3435823E+004	-1.7837479E+002	0.0000000E+000	0.0000000E+000	0.0000000E+000	1.7837479E+002	0.0000000E+000	0.0000000E+000	0.0000000E+000	-1.7837479E+002	0.0000000E+000	0.0000000E+000	0.0000000E+000	8.8374786E+001	0.0000000E+000	0.0000000E+000	0.0000000E+000	-8.8374786E+001	2.8372940E-002	1.6252136E+000	-7.771715589773117E-006
5.1672913E+005	1.7060084E-002	-1.3715961E-002	2.1890044E-002	3.8798576E+001	7.903483468719060E+000	-3.4248174E-006	-5.4403618E-002	-2.2455925E+001	-8.8163776E+000	1.000000000000000E+000	37	2.0799291E-004	9.5017124E-003	0	-7.008494134661225E-005	-1	-1	-1	0	0	0	0	0	0	-1	-1	-1	0	0	0	0	0	0	3.5603104E+001	-2.8624176E+001	4.5682869E+001	-3.8798576E+001	-8.8163779E+003	1.0965918E+004	1.4070532E+004	-1.2879858E+002	0.0000000E+000	0.0000000E+000	0.0000000E+000	1.2879858E+002	0.0000000E+000	0.0000000E+000	0.0000000E+000	-1.2879858E+002	0.0000000E+000	0.0000000E+000	0.0000000E+000	3.8798576E+001	0.0000000E+000	0.0000000E+000	0.0000000E+000	-3.8798576E+001	1.2438126E+000	5.1201424E+001	-4.490332414913513E-006
4.6042719E+005	2.9013058E-002	-9.5772399E-003	3.0552922E-002	1.8268110E+001	9.050484536535805E+000	1.9148266E-007	-3.1865291E-002	-3.6092655E+001	-3.5464518E+000	1.000000000000000E+000	37	3.1601812E-004	1.0343303E-002	0	-7.446612219791859E-005	-1	-1	-1	0	0	0	0	0	0	-1	-1	-1	0	0	0	0	0	0	3.1080502E+001	-1.0259706E+001	3.2730095E+001	-1.8268110E+001	-3.5464521E+003	1.0743534E+004	1.1313746E+004	-1.0826811E+002	0.0000000E+000	0.0000000E+000	0.0000000E+000	1.0826811E+002	0.0000000E+000	0.0000000E+000	0.0000000E+000	-1.0826811E+002	0.0000000E+000	0.0000000E+000	0.0000000E+000	1.8268110E+001	0.0000000E+000	0.0000000E+000	0.0000000E+000	-1.8268110E+001	3.0293758E+000	7.1731888E+001	-4.381180851306340E-006
4.1025831E+005	3.7478700E-002	-6.7541031E-003	3.8082421E-002	1.0215727E+001	1.019849757771590E+001	-7.3020792E-006	-4.0891681E-002	-5.7437439E+001	-1.8066804E+000	1.000000000000000E+000	37	4.7290159E-004	1.2417844E-002	0	-8.341855637853345E-005	-1	-1	-1	0	0	0	0	0	0	-1	-1	-1	0	0	0	0	0	0	2.5842552E+001	-4.6571326E+000	2.6258835E+001	-1.0215727E+001	-1.8066805E+003	1.0025316E+004	1.0186809E+004	-1.0021573E+002	0.0000000E+000	0.0000000E+000	0.0000000E+000	1.0021573E+002	0.0000000E+000	0.0000000E+000	0.0000000E+000	-1.0021573E+002	0.0000000E+000	0.0000000E+000	0.0000000E+000	1.0215727E+001	0.0000000E+000	0.0000000E+000	0.0000000E+000	-1.0215727E+001	5.5490270E+000	7.9784271E+001	-8.952434180614860E-006
3.6555447E+005	4.3602802E-002	-5.7987673E-003	4.3986704E-002	7.5753541E+000	1.134548875220935E+001	-4.9821489E-007	-3.1995431E-002	-7.5081398E+001	-1.3048508E+000	1.000000000000000E+000	37	6.6575105E-004	1.5135280E-002	0	-7.015302945425114E-005	-1	-1	-1	0	0	0	0	0	0	-1	-1	-1	0	0	0	0	0	0	2.2535727E+001	-2.9970422E+000	2.2734142E+001	-7.5753541E+000	-1.3048511E+003	9.8115938E+003	9.8979805E+003	-9.7575356E+001	0.0000000E+000	0.0000000E+000	0.0000000E+000	9.7575356E+001	0.0000000E+000	0.0000000E+000	0.0000000E+000	-9.7575356E+001	0.0000000E+000	0.0000000E+000	0.0000000E+000	7.5753541E+000	0.0000000E+000	0.0000000E+000	0.0000000E+000	-7.5753541E+000	7.5193224E+000	8.2424644E+001	1.326552692428231E-005
3.2572188E+005	4.8116542E-002	-5.0218357E-003	4.8377894E-002	5.9582844E+000	1.249248069999157E+001	4.5246784E-007	-5.3863514E-002	-9.7299530E+001	-1.0484357E+000	1.000000000000000E+000	37	8.9333596E-004	1.8465789E-002	0	-9.464777886474298E-005	-1	-1	-1	0	0	0	0	0	0	-1	-1	-1	0	0	0	0	0	0	2.0558931E+001	-2.1456981E+000	2.0670599E+001	-5.9582844E+000	-1.0484353E+003	1.0045550E+004	1.0100113E+004	-9.5958282E+001	0.0000000E+000	0.0000000E+000	0.0000000E+000	9.5958282E+001	0.0000000E+000	0.0000000E+000	0.0000000E+000	-9.5958282E+001	0.0000000E+000	0.0000000E+000	0.0000000E+000	5.9582844E+000	0.0000000E+000	0.0000000E+000	0.0000000E+000	-5.9582844E+000	9.5814648E+000	8.4041718E+001	-2.449474941049185E-005
2.9023159E+005	5.1316530E-002	-3.7474209E-003	5.1453177E-002	4.1766453E+000	1.363949307447183E+001	-1.4776983E-005	-5.3286508E-002	-1.4633324E+002	-7.7621770E-001	1.000000000000000E+000	37	1.1595881E-003	2.2536764E-002	0	-8.335579404793680E-005	-1	-1	-1	0	0	0	0	0	0	-1	-1	-1	0	0	0	0	0	0	1.9383532E+001	-1.4154941E+000	1.9435146E+001	-4.1766453E+000	-7.7621722E+002	1.0629390E+004	1.0657693E+004	-9.4176643E+001	0.0000000E+000	0.0000000E+000	0.0000000E+000	9.4176643E+001	0.0000000E+000	0.0000000E+000	0.0000000E+000	-9.4176643E+001	0.0000000E+000	0.0000000E+000	0.0000000E+000	4.1766453E+000	0.0000000E+000	0.0000000E+000	0.0000000E+000	-4.1766453E+000	1.3693826E+001	8.5823357E+001	1.129198481680619E-005
2.5860117E+005	5.3915601E-002	-3.1869060E-003	5.4009706E-002	3.3827696E+000	1.478647686229669E+001	3.4064038E-007	-5.4738160E-002	-1.9311694E+002	-6.7238075E-001	1.000000000000000E+000	37	1.4728509E-003	2.7270116E-002	0	-1.174321363704900E-004	-1	-1	-1	0	0	0	0	0	0	-1	-1	-1	0	0	0	0	0	0	1.8482929E+001	-1.0925105E+000	1.8515190E+001	-3.3827696E+000	-6.7238019E+002	1.1375237E+004	1.1395092E+004	-9.3382767E+001	0.0000000E+000	0.0000000E+000	0.0000000E+000	9.3382767E+001	0.0000000E+000	0.0000000E+000	0.0000000E+000	-9.3382767E+001	0.0000000E+000	0.0000000E+000	0.0000000E+000	3.3827696E+000	0.0000000E+000	0.0000000E+000	0.0000000E+000	-3.3827696E+000	1.6917850E+001	8.6617233E+001	-3.407634232255320E-005
2.3042236E+005	5.5773698E-002	-2.5818909E-003	5.5833425E-002	2.6504593E+000	1.593349334344384E+001	2.3754851E-008	-5.0420012E-002	-2.6752084E+002	-5.7206434E-001	1.000000000000000E+000	37	1.8340106E-003	3.2847896E-002	0	-1.266045967503968E-004	-1	-1	-1	0	0	0	0	0	0	-1	-1	-1	0	0	0	0	0	0	1.7891258E+001	-8.2822686E-001	1.7910418E+001	-2.6504593E+000	-5.7206427E+002	1.2357663E+004	1.2370897E+004	-9.2650459E+001	0.0000000E+000	0.0000000E+000	0.0000000E+000	9.2650459E+001	0.0000000E+000	0.0000000E+000	0.0000000E+000	-9.2650459E+001	0.0000000E+000	0.0000000E+000	0.0000000E+000	2.6504593E+000	0.0000000E+000	0.0000000E+000	0.0000000E+000	-2.6504593E+000	2.1601881E+001	8.7349541E+001	-9.172460379906818E-006
2.0531472E+005	5.7406049E-002	-1.8775032E-003	5.7436742E-002	1.8732291E+000	1.708147729127086E+001	-4.2076736E-006	-5.4812077E-002	-4.1287576E+002	-4.4116512E-001	1.000000000000000E+000	37	2.2566235E-003	3.9288849E-002	0	-8.648953007885980E-005	-1	-1	-1	0	0	0	0	0	0	-1	-1	-1	0	0	0	0	0	0	1.7401154E+001	-5.6911635E-001	1.7410458E+001	-1.8732291E+000	-4.4116534E+002	1.3488950E+004	1.3496162E+004	-9.1873230E+001	0.0000000E+000	0.0000000E+000	0.0000000E+000	9.1873230E+001	0.0000000E+000	0.0000000E+000	0.0000000E+000	-9.1873230E+001	0.0000000E+000	0.0000000E+000	0.0000000E+000	1.8732291E+000	0.0000000E+000	0.0000000E+000	0.0000000E+000	-1.8732291E+000	3.0575739E+001	8.8126770E+001	4.011506667153702E-005
1.8294425E+005	5.8361426E-002	-1.3642904E-003	5.8377370E-002	1.3391353E+000	1.823048353256308E+001	-5.2142577E-006	-7.4912176E-002	-6.3766791E+002	-3.4827244E-001	1.000000000000000E+000	37	2.7411182E-003	4.6955150E-002	0	-1.921630893941555E-004	-1	-1	-1	0	0	0	0	0	0	-1	-1	-1	0	0	0	0	0	0	1.7125246E+001	-4.0032962E-001	1.7129925E+001	-1.3391353E+000	-3.4827219E+002	1.4898352E+004	1.4902422E+004	-9.1339134E+001	0.0000000E+000	0.0000000E+000	0.0000000E+000	9.1339134E+001	0.0000000E+000	0.0000000E+000	0.0000000E+000	-9.1339134E+001	0.0000000E+000	0.0000000E+000	0.0000000E+000	1.3391353E+000	0.0000000E+000	0.0000000E+000	0.0000000E+000	-1.3391353E+000	4.2777863E+001	8.8660866E+001	-1.056735593152957E-004
1.6301403E+005	5.9251983E-002	-7.2260579E-004	5.9256390E-002	6.9871432E-001	1.937849665372050E+001	-2.2130971E-006	-5.1722419E-002	-1.3511193E+003	-2.0092140E-001	1.000000000000000E+000	37	3.2890514E-003	5.5505428E-002	0	-1.591867170400090E-004	-1	-1	-1	0	0	0	0	0	0	-1	-1	-1	0	0	0	0	0	0	1.6874561E+001	-2.0579320E-001	1.6875816E+001	-6.9871432E-001	-2.0092166E+002	1.6475086E+004	1.6476311E+004	-9.0698715E+001	0.0000000E+000	0.0000000E+000	0.0000000E+000	9.0698715E+001	0.0000000E+000	0.0000000E+000	0.0000000E+000	-9.0698715E+001	0.0000000E+000	0.0000000E+000	0.0000000E+000	6.9871432E-001	0.0000000E+000	0.0000000E+000	0.0000000E+000	-6.9871432E-001	8.1997658E+001	8.9301285E+001	3.297637235414653E-005
1.4524569E+005	6.0056802E-002	3.8317572E-005	6.0056813E-002	-3.6555972E-002	2.052750054831267E+001	1.3565874E-007	-3.9419826E-002	2.8596896E+004	1.1641000E-002	1.000000000000000E+000	37	3.9311447E-003	6.5457098E-002	0	-6.824200836858816E-005	-1	-1	-1	0	0	0	0	0	0	-1	-1	-1	0	0	0	0	0	0	1.6650896E+001	1.0623641E-002	1.6650900E+001	3.6555972E-002	1.1639871E+001	1.8245445E+004	1.8245449E+004	-8.9963448E+001	0.0000000E+000	0.0000000E+000	0.0000000E+000	8.9963448E+001	0.0000000E+000	0.0000000E+000	0.0000000E+000	-8.9963448E+001	0.0000000E+000	0.0000000E+000	0.0000000E+000	-3.6555972E-002	0.0000000E+000	0.0000000E+000	0.0000000E+000	3.6555972E-002	1.5673436E+003	8.9963448E+001	9.094470867142080E-005
1.2941657E+005	6.0551301E-002	4.6336223E-004	6.0553074E-002	-4.3844116E-001	2.154048872974818E+001	9.4746820E-006	-4.8911195E-002	2.6540532E+003	1.5540983E-001	1.000000000000000E+000	37	4.6509495E-003	7.6807819E-002	0	-5.182798290914960E-005	-1	-1	-1	0	0	0	0	0	0	-1	-1	-1	0	0	0	0	0	0	1.6513954E+001	1.2637125E-001	1.6514439E+001	4.3844116E-001	1.5540884E+002	2.0308662E+004	2.0309256E+004	-8.9561562E+001	0.0000000E+000	0.0000000E+000	0.0000000E+000	8.9561562E+001	0.0000000E+000	0.0000000E+000	0.0000000E+000	-8.9561562E+001	0.0000000E+000	0.0000000E+000	0.0000000E+000	-4.3844116E-001	0.0000000E+000	0.0000000E+000	0.0000000E+000	4.3844116E-001	1.3067812E+002	8.9561562E+001	1.641402545943856E-005
1.1532252E+005	6.1144114E-002	1.2277416E-003	6.1156437E-002	-1.1503146E+000	2.255347603120026E+001	-4.5803959E-006	-4.8668981E-002	1.1240847E+003	4.5303172E-001	1.000000000000000E+000	37	5.4815928E-003	8.9632310E-002	0	-1.455723689682782E-004	-1	-1	-1	0	0	0	0	0	0	-1	-1	-1	0	0	0	0	0	0	1.6348213E+001	3.2826355E-001	1.6351509E+001	1.1503146E+000	4.5303165E+002	2.2561932E+004	2.2566480E+004	-8.8849686E+001	0.0000000E+000	0.0000000E+000	0.0000000E+000	8.8849686E+001	0.0000000E+000	0.0000000E+000	0.0000000E+000	-8.8849686E+001	0.0000000E+000	0.0000000E+000	0.0000000E+000	-1.1503146E+000	0.0000000E+000	0.0000000E+000	0.0000000E+000	1.1503146E+000	4.9802105E+001	8.8849686E+001	-9.374438605912857E-005
1.0275015E+005	6.1632264E-002	1.7664846E-003	6.1657574E-002	-1.6417441E+000	2.370148744570906E+001	-5.7361262E-006	-4.6361290E-002	8.7685510E+002	7.1973836E-001	1.000000000000000E+000	37	5.1584146E-003	8.3662301E-002	0	-3.780631660198172E-004	-1	-1	-1	0	0	0	0	0	0	-1	-1	-1	0	0	0	0	0	0	1.6211948E+001	4.6466178E-001	1.6218607E+001	1.6417441E+000	7.1973938E+002	2.5111516E+004	2.5121828E+004	-8.8358253E+001	0.0000000E+000	0.0000000E+000	0.0000000E+000	8.8358253E+001	0.0000000E+000	0.0000000E+000	0.0000000E+000	-8.8358253E+001	0.0000000E+000	0.0000000E+000	0.0000000E+000	-1.6417441E+000	0.0000000E+000	0.0000000E+000	0.0000000E+000	1.6417441E+000	3.4889782E+001	8.8358253E+001	-2.324907970515390E-004
9.1560273E+004	6.2069796E-002	2.1964740E-003	6.2108647E-002	-2.0266893E+000	2.484949579360546E+001	-4.2075899E-006	-4.1764386E-002	7.9138342E+002	9.8977154E-001	1.000000000000000E+000	37	5.1168730E-003	8.2385838E-002	0	-2.850178940842549E-004	3.1906426E-001	2.3524502E-001	6.8416438E+000	4.7979152E-006	9.7983902E-006	5.4061325E-006	6.1602873E-006	4.2230104E-006	5.2481805E-006	1.2885848E-001	2.2196906E-002	2.3906258E-001	2.5749052E-005	1.0243062E-004	7.2196231E-006	6.7787828E-006	1.0866721E-006	2.4395713E-006	1.6090746E+001	5.6940579E-001	1.6100817E+001	2.0266893E+000	9.8977075E+002	2.7969793E+004	2.7987301E+004	-8.7973312E+001	0.0000000E+000	0.0000000E+000	0.0000000E+000	8.7973312E+001	0.0000000E+000	0.0000000E+000	0.0000000E+000	-8.7973312E+001	0.0000000E+000	0.0000000E+000	0.0000000E+000	-2.0266893E+000	0.0000000E+000	0.0000000E+000	0.0000000E+000	2.0266893E+000	2.8258835E+001	8.7973312E+001	9.304527193556227E-005
8.1576602E+004	6.2445030E-002	2.7513176E-003	6.2505610E-002	-2.5228109E+000	2.599748563478352E+001	-6.2021486E-006	-4.6621911E-002	7.0911029E+002	1.3739067E+000	1.000000000000000E+000	37	5.1131877E-003	8.1803665E-002	0	-2.319983620581527E-004	3.9319465E-001	1.8592587E-001	6.8802042E+000	8.7710141E-006	1.1448720E-005	6.4638803E-006	7.3863557E-006	5.2084438E-006	7.2382477E-006	1.3567869E-001	4.1051146E-002	2.4790706E-001	2.2942833E-005	1.0796967E-004	8.3959094E-006	3.6359372E-006	3.0584524E-006	4.3820910E-006	1.5983058E+001	7.0421088E-001	1.5998564E+001	2.5228109E+000	1.3739072E+003	3.1182748E+004	3.1213000E+004	-8.7477188E+001	0.0000000E+000	0.0000000E+000	0.0000000E+000	8.7477188E+001	0.0000000E+000	0.0000000E+000	0.0000000E+000	-8.7477188E+001	0.0000000E+000	0.0000000E+000	0.0000000E+000	-2.5228109E+000	0.0000000E+000	0.0000000E+000	0.0000000E+000	2.5228109E+000	2.2696409E+001	8.7477188E+001	5.301953202610217E-005
7.2687797E+004	6.2800154E-002	3.3326615E-003	6.2888518E-002	-3.0377073E+000	2.714549600929604E+001	-5.9038953E-006	-5.1963374E-002	6.5700311E+002	1.8450456E+000	1.000000000000000E+000	37	5.1042456E-003	8.1163399E-002	0	-1.780998690111770E-004	3.7299585E-001	1.6336733E-001	6.9133964E+000	4.8339871E-006	1.3298981E-005	6.2037871E-006	6.8293343E-006	4.3545770E-006	6.2510335E-006	1.3561647E-001	5.2248533E-003	2.4481855E-001	2.4857463E-005	1.0666303E-004	7.9907331E-006	4.4815934E-006	3.4107090E-006	4.2099709E-006	1.5878811E+001	8.4265238E-001	1.5901154E+001	3.0377073E+000	1.8450437E+003	3.4767750E+004	3.4816672E+004	-8.6962296E+001	0.0000000E+000	0.0000000E+000	0.0000000E+000	8.6962296E+001	0.0000000E+000	0.0000000E+000	0.0000000E+000	-8.6962296E+001	0.0000000E+000	0.0000000E+000	0.0000000E+000	-3.0377073E+000	0.0000000E+000	0.0000000E+000	0.0000000E+000	3.0377073E+000	1.8843843E+001	8.6962296E+001	5.389849304697578E-005
