EC-Lab ASCII FILE
Nb header lines : 66                          

Potentio Electrochemical Impedance Spectroscopy

Run on channel : 15 (SN 19485)
User : 
Electrode connection : standard
Potential control : Ewe
Ewe ctrl range : min = -1.00 V, max = 1.00 V
Ewe,I filtering : <None>
Safety Limits :
	Do not start on E overload
Channel : Floating
Acquisition started on : 04/15/2024 10:35:43.840
Loaded Setting File :  NONE
Saved on :
	File : 240415-EIS-50mM_FeCl2FeCl3-1M_HCl-40mLmin_Dampened-25mHz_20ppd_C15.mpr
	Directory : C:\Data\mathias\IRFB\
	Host : 192.168.0.1
Device : VMP-300 (SN 0826)
Address : USB
EC-Lab for windows v11.52 (software)
Internet server v11.52 (firmware)
Command interpretor v11.52 (firmware)
Electrode material : 
Initial state : 
Electrolyte : 
Comments : 
Cable : special
Electrode surface area : 0.001 cm²
Characteristic mass : 0.001 g
Equivalent Weight : 0.000 g/eq.
Density : 0.000 g/cm3
Volume (V) : 0.001 cm³
Record EIS quality indicators
Cycle Definition : Charge/Discharge alternance
Mode                Single sine         
E (V)               0.0000              
vs.                 Eoc                 
tE (h:m:s)          0:00:0.0000         
record              0                   
dI                  0.000               
unit dI             mA                  
dt (s)              0.000               
fi                  920.000             
unit fi             kHz                 
ff                  25.000              
unit ff             mHz                 
Nd                  20                  
Points              per decade          
spacing             Logarithmic         
Va (mV)             5.0                 
pw                  0.10                
Na                  3                   
corr                0                   
E range min (V)     -1.000              
E range max (V)     1.000               
I Range             Auto                
Bandwidth           8                   
nc cycles           0                   
goto Ns'            0                   
nr cycles           0                   
inc. cycle          1                   

freq/Hz	Re(Z)/Ohm	-Im(Z)/Ohm	|Z|/Ohm	Phase(Z)/deg	time/s	<Ewe>/V	<I>/mA	Cs/µF	Cp/µF	cycle number	I Range	|Ewe|/V	|I|/A	Ns	(Q-Qo)/mA.h	THD Ewe/%	NSD Ewe/%	NSR Ewe/%	|Ewe h2|/V	|Ewe h3|/V	|Ewe h4|/V	|Ewe h5|/V	|Ewe h6|/V	|Ewe h7|/V	THD I/%	NSD I/%	NSR I/%	|I h2|/A	|I h3|/A	|I h4|/A	|I h5|/A	|I h6|/A	|I h7|/A	Re(Y)/Ohm-1	Im(Y)/Ohm-1	|Y|/Ohm-1	Phase(Y)/deg	Re(C)/nF	Im(C)/nF	|C|/nF	Phase(C)/deg	Re(M)	Im(M)	|M|	Phase(M)/deg	Re(Permittivity)	Im(Permittivity)	|Permittivity|	Phase(Permittivity)/deg	Re(Resistivity)/Ohm.cm	Im(Resistivity)/Ohm.cm	|Resistivity|/Ohm.cm	Phase(Resistivity)/deg	Re(Conductivity)/mS/cm	Im(Conductivity)/mS/cm	|Conductivity|/mS/cm	Phase(Conductivity)/deg	Tan(Delta)	Loss Angle(Delta)/deg	dq/mA.h	
9.2000075E+005	-1.2879451E-001	1.3833415E-002	1.2953527E-001	-1.7386954E+002	2.167498822935158E+000	-2.6762984E-005	-4.2585641E-002	1.2505543E+001	1.4262159E-001	1.000000000000000E+000	37	3.5825980E-004	2.7657317E-003	0	-2.171454667135711E-005	-1	-1	-1	0	0	0	0	0	0	-1	-1	-1	0	0	0	0	0	0	-7.6757569E+000	8.2442963E-001	7.7199049E+000	1.7386954E+002	1.4262169E+002	-1.3278628E+003	1.3355001E+003	8.3869537E+001	0.0000000E+000	0.0000000E+000	0.0000000E+000	-8.3869537E+001	0.0000000E+000	0.0000000E+000	0.0000000E+000	8.3869537E+001	0.0000000E+000	0.0000000E+000	0.0000000E+000	-1.7386954E+002	0.0000000E+000	0.0000000E+000	0.0000000E+000	1.7386954E+002	9.3103914E+000	8.3869537E+001	-2.171454667135711E-005
8.1975581E+005	-7.9572611E-002	4.2420540E-002	9.0173736E-002	-1.5193771E+002	3.314491837430978E+000	-4.4658067E-005	-6.2816098E-002	4.5767736E+000	1.0128653E+000	1.000000000000000E+000	37	3.0249992E-004	3.3546344E-003	0	-3.645526225488478E-005	-1	-1	-1	0	0	0	0	0	0	-1	-1	-1	0	0	0	0	0	0	-9.7859612E+000	5.2169418E+000	1.1089704E+001	1.5193771E+002	1.0128652E+003	-1.8999369E+003	2.1530574E+003	6.1937714E+001	0.0000000E+000	0.0000000E+000	0.0000000E+000	-6.1937714E+001	0.0000000E+000	0.0000000E+000	0.0000000E+000	6.1937714E+001	0.0000000E+000	0.0000000E+000	0.0000000E+000	-1.5193771E+002	0.0000000E+000	0.0000000E+000	0.0000000E+000	1.5193771E+002	1.8758038E+000	6.1937714E+001	-1.474071558352767E-005
7.3043163E+005	-3.9898772E-002	5.6684364E-002	6.9318317E-002	-1.2514080E+002	4.461501065205084E+000	-3.8096539E-005	-6.2555477E-002	3.8439460E+000	2.5704420E+000	1.000000000000000E+000	37	2.6971300E-004	3.8909342E-003	0	-5.921384040030858E-005	-1	-1	-1	0	0	0	0	0	0	-1	-1	-1	0	0	0	0	0	0	-8.3035440E+000	1.1796883E+001	1.4426202E+001	1.2514080E+002	2.5704421E+003	-1.8092728E+003	3.1433486E+003	3.5140800E+001	0.0000000E+000	0.0000000E+000	0.0000000E+000	-3.5140800E+001	0.0000000E+000	0.0000000E+000	0.0000000E+000	3.5140800E+001	0.0000000E+000	0.0000000E+000	0.0000000E+000	-1.2514080E+002	0.0000000E+000	0.0000000E+000	0.0000000E+000	1.2514080E+002	7.0387614E-001	3.5140808E+001	-2.275857814542380E-005
6.5084063E+005	-9.2495382E-003	6.0486294E-002	6.1189424E-002	-9.8694290E+001	5.608495626336662E+000	-3.8935370E-005	-6.4193211E-002	4.0428581E+000	3.9504788E+000	1.000000000000000E+000	37	2.8715306E-004	4.6928544E-003	0	-6.824712181076595E-005	-1	-1	-1	0	0	0	0	0	0	-1	-1	-1	0	0	0	0	0	0	-2.4703994E+000	1.6154900E+001	1.6342693E+001	9.8694290E+001	3.9504788E+003	-6.0410529E+002	3.9964016E+003	8.6942902E+000	0.0000000E+000	0.0000000E+000	0.0000000E+000	-8.6942902E+000	0.0000000E+000	0.0000000E+000	0.0000000E+000	8.6942902E+000	0.0000000E+000	0.0000000E+000	0.0000000E+000	-9.8694290E+001	0.0000000E+000	0.0000000E+000	0.0000000E+000	9.8694290E+001	1.5291958E-001	8.6942902E+000	-9.033281410457375E-006
5.7991575E+005	1.2446224E-002	6.0697366E-002	6.1960299E-002	-7.8411919E+001	6.755484640860232E+000	-4.2346619E-005	-6.3467354E-002	4.5215302E+000	4.3390841E+000	1.000000000000000E+000	37	3.6917828E-004	5.9583038E-003	0	-9.932950672191672E-005	-1	-1	-1	0	0	0	0	0	0	-1	-1	-1	0	0	0	0	0	0	3.2419815E+000	1.5810398E+001	1.6139366E+001	7.8411919E+001	4.3390840E+003	8.8974542E+002	4.4293677E+003	-1.1588081E+001	0.0000000E+000	0.0000000E+000	0.0000000E+000	1.1588081E+001	0.0000000E+000	0.0000000E+000	0.0000000E+000	-1.1588081E+001	0.0000000E+000	0.0000000E+000	0.0000000E+000	-7.8411919E+001	0.0000000E+000	0.0000000E+000	0.0000000E+000	7.8411919E+001	2.0505378E-001	1.1588074E+001	-3.108238491115076E-005
5.1672913E+005	2.9338585E-002	5.8295071E-002	6.5261535E-002	-6.3284927E+001	7.902491655346239E+000	-2.9018507E-005	-5.4701399E-002	5.2835445E+000	4.2157464E+000	1.000000000000000E+000	37	4.8857328E-004	7.4863899E-003	0	-1.234150488977838E-004	-1	-1	-1	0	0	0	0	0	0	-1	-1	-1	0	0	0	0	0	0	6.8884988E+000	1.3687284E+001	1.5322962E+001	6.3284927E+001	4.2157461E+003	2.1216892E+003	4.7195425E+003	-2.6715073E+001	0.0000000E+000	0.0000000E+000	0.0000000E+000	2.6715073E+001	0.0000000E+000	0.0000000E+000	0.0000000E+000	-2.6715073E+001	0.0000000E+000	0.0000000E+000	0.0000000E+000	-6.3284927E+001	0.0000000E+000	0.0000000E+000	0.0000000E+000	6.3284927E+001	5.0327730E-001	2.6715073E+001	-2.408554217586707E-005
4.6042719E+005	4.1096292E-002	5.3383369E-002	6.7369796E-002	-5.2409729E+001	9.049491896439577E+000	-2.5085314E-005	-4.6456527E-002	6.4752002E+000	4.0656939E+000	1.000000000000000E+000	37	6.4381654E-004	9.5564565E-003	0	-1.240507844625455E-004	-1	-1	-1	0	0	0	0	0	0	-1	-1	-1	0	0	0	0	0	0	9.0546598E+000	1.1761847E+001	1.4843447E+001	5.2409729E+001	4.0656943E+003	3.1299065E+003	5.1309048E+003	-3.7590271E+001	0.0000000E+000	0.0000000E+000	0.0000000E+000	3.7590271E+001	0.0000000E+000	0.0000000E+000	0.0000000E+000	-3.7590271E+001	0.0000000E+000	0.0000000E+000	0.0000000E+000	-5.2409729E+001	0.0000000E+000	0.0000000E+000	0.0000000E+000	5.2409729E+001	7.6983327E-001	3.7590271E+001	-6.357355647617117E-007
4.1025831E+005	4.9829293E-002	4.8144743E-002	6.9288343E-002	-4.4014961E+001	1.019649520426174E+001	-2.7434036E-005	-3.9049152E-002	8.0577517E+000	3.8903732E+000	1.000000000000000E+000	37	8.3130825E-004	1.1997808E-002	0	-1.428978976604218E-004	-1	-1	-1	0	0	0	0	0	0	-1	-1	-1	0	0	0	0	0	0	1.0379211E+001	1.0028327E+001	1.4432442E+001	4.4014961E+001	3.8903728E+003	4.0264944E+003	5.5988979E+003	-4.5985039E+001	0.0000000E+000	0.0000000E+000	0.0000000E+000	4.5985039E+001	0.0000000E+000	0.0000000E+000	0.0000000E+000	-4.5985039E+001	0.0000000E+000	0.0000000E+000	0.0000000E+000	-4.4014961E+001	0.0000000E+000	0.0000000E+000	0.0000000E+000	4.4014961E+001	1.0349892E+000	4.5985046E+001	-1.884711319787634E-005
3.6555447E+005	5.7071771E-002	4.3946341E-002	7.2031021E-002	-3.7596951E+001	1.134350117875147E+001	-3.2112846E-005	-5.3789232E-002	9.9070721E+000	3.6876662E+000	1.000000000000000E+000	37	1.0669043E-003	1.4811733E-002	0	-1.513662882958435E-004	-1	-1	-1	0	0	0	0	0	0	-1	-1	-1	0	0	0	0	0	0	1.0999735E+001	8.4700041E+000	1.3882908E+001	3.7596951E+001	3.6876663E+003	4.7890596E+003	6.0443340E+003	-5.2403049E+001	0.0000000E+000	0.0000000E+000	0.0000000E+000	5.2403049E+001	0.0000000E+000	0.0000000E+000	0.0000000E+000	-5.2403049E+001	0.0000000E+000	0.0000000E+000	0.0000000E+000	-3.7596951E+001	0.0000000E+000	0.0000000E+000	0.0000000E+000	3.7596951E+001	1.2986695E+000	5.2403046E+001	-8.468390635421689E-006
3.2572188E+005	6.1394833E-002	3.9258238E-002	7.2873414E-002	-3.2596424E+001	1.249047995326691E+001	-1.9213467E-005	-2.7993845E-002	1.2446362E+001	3.6121502E+000	1.000000000000000E+000	37	1.3247924E-003	1.8179365E-002	0	-1.417292725884666E-004	-1	-1	-1	0	0	0	0	0	0	-1	-1	-1	0	0	0	0	0	0	1.1560951E+001	7.3925204E+000	1.3722425E+001	3.2596424E+001	3.6121497E+003	5.6489380E+003	6.7050820E+003	-5.7403576E+001	0.0000000E+000	0.0000000E+000	0.0000000E+000	5.7403576E+001	0.0000000E+000	0.0000000E+000	0.0000000E+000	-5.7403576E+001	0.0000000E+000	0.0000000E+000	0.0000000E+000	-3.2596424E+001	0.0000000E+000	0.0000000E+000	0.0000000E+000	3.2596424E+001	1.5638714E+000	5.7403580E+001	9.637015707376917E-006
2.9023159E+005	6.4776689E-002	3.5564993E-002	7.3897824E-002	-2.8768545E+001	1.363748232772923E+001	-2.0667438E-005	-2.4587927E-002	1.5418877E+001	3.5713701E+000	1.000000000000000E+000	37	1.6457475E-003	2.2270581E-002	0	-1.569459559996095E-004	-1	-1	-1	0	0	0	0	0	0	-1	-1	-1	0	0	0	0	0	0	1.1861933E+001	6.5126748E+000	1.3532198E+001	2.8768545E+001	3.5713704E+003	6.5047544E+003	7.4206816E+003	-6.1231453E+001	0.0000000E+000	0.0000000E+000	0.0000000E+000	6.1231453E+001	0.0000000E+000	0.0000000E+000	0.0000000E+000	-6.1231453E+001	0.0000000E+000	0.0000000E+000	0.0000000E+000	-2.8768545E+001	0.0000000E+000	0.0000000E+000	0.0000000E+000	2.8768545E+001	1.8213609E+000	6.1231453E+001	-1.521668341114289E-005
2.5860117E+005	6.7859463E-002	3.2390900E-002	7.5193599E-002	-2.5516228E+001	1.478549558224040E+001	-2.6688376E-005	-3.0487657E-002	1.9000570E+001	3.5257452E+000	1.000000000000000E+000	37	2.0312381E-003	2.7013443E-002	0	-1.597985859790610E-004	-1	-1	-1	0	0	0	0	0	0	-1	-1	-1	0	0	0	0	0	0	1.2001863E+001	5.7287683E+000	1.3299005E+001	2.5516228E+001	3.5257451E+003	7.3864937E+003	8.1848130E+003	-6.4483772E+001	0.0000000E+000	0.0000000E+000	0.0000000E+000	6.4483772E+001	0.0000000E+000	0.0000000E+000	0.0000000E+000	-6.4483772E+001	0.0000000E+000	0.0000000E+000	0.0000000E+000	-2.5516228E+001	0.0000000E+000	0.0000000E+000	0.0000000E+000	2.5516228E+001	2.0950162E+000	6.4483772E+001	-2.852629979451491E-006
2.3042236E+005	6.9978058E-002	2.9353704E-002	7.5885236E-002	-2.2756592E+001	1.593248726337333E+001	-2.1096150E-005	-2.9165946E-002	2.3530579E+001	3.5208201E+000	1.000000000000000E+000	37	2.4732584E-003	3.2592088E-002	0	-1.327441171802865E-004	-1	-1	-1	0	0	0	0	0	0	-1	-1	-1	0	0	0	0	0	0	1.2151988E+001	5.0973954E+000	1.3177794E+001	2.2756592E+001	3.5208201E+003	8.3934951E+003	9.1020293E+003	-6.7243408E+001	0.0000000E+000	0.0000000E+000	0.0000000E+000	6.7243408E+001	0.0000000E+000	0.0000000E+000	0.0000000E+000	-6.7243408E+001	0.0000000E+000	0.0000000E+000	0.0000000E+000	-2.2756592E+001	0.0000000E+000	0.0000000E+000	0.0000000E+000	2.2756592E+001	2.3839600E+000	6.7243408E+001	2.705446879877450E-005
2.0531472E+005	7.1686395E-002	2.6872167E-002	7.6557510E-002	-2.0548878E+001	1.707948825121275E+001	-2.7378059E-005	-2.2205153E-002	2.8846781E+001	3.5540798E+000	1.000000000000000E+000	37	2.9884549E-003	3.9035425E-002	0	-1.894886248004105E-004	-1	-1	-1	0	0	0	0	0	0	-1	-1	-1	0	0	0	0	0	0	1.2230976E+001	4.5848708E+000	1.3062076E+001	2.0548878E+001	3.5540791E+003	9.4811533E+003	1.0125401E+004	-6.9451126E+001	0.0000000E+000	0.0000000E+000	0.0000000E+000	6.9451126E+001	0.0000000E+000	0.0000000E+000	0.0000000E+000	-6.9451126E+001	0.0000000E+000	0.0000000E+000	0.0000000E+000	-2.0548878E+001	0.0000000E+000	0.0000000E+000	0.0000000E+000	2.0548878E+001	2.6676819E+000	6.9451126E+001	-5.674450762012406E-005
1.8294425E+005	7.2873123E-002	2.4554068E-002	7.6898597E-002	-1.8620871E+001	1.822648678565747E+001	-2.8608338E-005	-1.8278023E-002	3.5430550E+001	3.6123347E+000	1.000000000000000E+000	37	3.5916001E-003	4.6705663E-002	0	-1.189457008797261E-004	-1	-1	-1	0	0	0	0	0	0	-1	-1	-1	0	0	0	0	0	0	1.2323400E+001	4.1522799E+000	1.3004138E+001	1.8620871E+001	3.6123352E+003	1.0720916E+004	1.1313134E+004	-7.1379128E+001	0.0000000E+000	0.0000000E+000	0.0000000E+000	7.1379128E+001	0.0000000E+000	0.0000000E+000	0.0000000E+000	-7.1379128E+001	0.0000000E+000	0.0000000E+000	0.0000000E+000	-1.8620871E+001	0.0000000E+000	0.0000000E+000	0.0000000E+000	1.8620871E+001	2.9678636E+000	7.1379128E+001	7.054292392068440E-005
1.6301403E+005	7.3852964E-002	2.2665028E-002	7.7252597E-002	-1.7060934E+001	1.937449166688020E+001	-2.4563265E-005	-5.9572728E-003	4.3076347E+001	3.7078762E+000	1.000000000000000E+000	37	4.2680437E-003	5.5247899E-002	0	-6.196373938313789E-005	-1	-1	-1	0	0	0	0	0	0	-1	-1	-1	0	0	0	0	0	0	1.2374902E+001	3.7977827E+000	1.2944549E+001	1.7060934E+001	3.7078770E+003	1.2081946E+004	1.2638108E+004	-7.2939064E+001	0.0000000E+000	0.0000000E+000	0.0000000E+000	7.2939064E+001	0.0000000E+000	0.0000000E+000	0.0000000E+000	-7.2939064E+001	0.0000000E+000	0.0000000E+000	0.0000000E+000	-1.7060934E+001	0.0000000E+000	0.0000000E+000	0.0000000E+000	1.7060934E+001	3.2584546E+000	7.2939064E+001	5.698196149658826E-005
1.4524569E+005	7.4893504E-002	2.1128146E-002	7.7816680E-002	-1.5754247E+001	2.038748667496839E+001	-2.4171795E-005	-2.1943901E-002	5.1862747E+001	3.8232517E+000	1.000000000000000E+000	37	5.0738417E-003	6.5202497E-002	0	-1.204896584944282E-004	-1	-1	-1	0	0	0	0	0	0	-1	-1	-1	0	0	0	0	0	0	1.2367980E+001	3.4891207E+000	1.2850716E+001	1.5754247E+001	3.8232522E+003	1.3552382E+004	1.4081347E+004	-7.4245750E+001	0.0000000E+000	0.0000000E+000	0.0000000E+000	7.4245750E+001	0.0000000E+000	0.0000000E+000	0.0000000E+000	-7.4245750E+001	0.0000000E+000	0.0000000E+000	0.0000000E+000	-1.5754247E+001	0.0000000E+000	0.0000000E+000	0.0000000E+000	1.5754247E+001	3.5447268E+000	7.4245750E+001	-5.852591911129033E-005
1.2941657E+005	7.5683631E-002	1.9826530E-002	7.8237481E-002	-1.4679669E+001	2.153548424949986E+001	-3.4871558E-005	-2.0883150E-002	6.2027393E+001	3.9833386E+000	1.000000000000000E+000	37	5.0970847E-003	6.5148883E-002	0	-6.932349180140429E-005	-1	-1	-1	0	0	0	0	0	0	-1	-1	-1	0	0	0	0	0	0	1.2364377E+001	3.2390447E+000	1.2781597E+001	1.4679669E+001	3.9833391E+003	1.5205563E+004	1.5718655E+004	-7.5320328E+001	0.0000000E+000	0.0000000E+000	0.0000000E+000	7.5320328E+001	0.0000000E+000	0.0000000E+000	0.0000000E+000	-7.5320328E+001	0.0000000E+000	0.0000000E+000	0.0000000E+000	-1.4679669E+001	0.0000000E+000	0.0000000E+000	0.0000000E+000	1.4679669E+001	3.8172910E+000	7.5320328E+001	5.116616669302393E-005
1.1532252E+005	7.6293662E-002	1.8815009E-002	7.8579433E-002	-1.3853453E+001	2.268349667740404E+001	-3.2168657E-005	-1.7719178E-002	7.3350243E+001	4.2052579E+000	1.000000000000000E+000	37	5.1164320E-003	6.5111592E-002	0	-5.592066974865480E-005	-1	-1	-1	0	0	0	0	0	0	-1	-1	-1	0	0	0	0	0	0	1.2355794E+001	3.0470994E+000	1.2725976E+001	1.3853453E+001	4.2052583E+003	1.7052053E+004	1.7562936E+004	-7.6146545E+001	0.0000000E+000	0.0000000E+000	0.0000000E+000	7.6146545E+001	0.0000000E+000	0.0000000E+000	0.0000000E+000	-7.6146545E+001	0.0000000E+000	0.0000000E+000	0.0000000E+000	-1.3853453E+001	0.0000000E+000	0.0000000E+000	0.0000000E+000	1.3853453E+001	4.0549364E+000	7.6146545E+001	1.340282205274949E-005
1.0275015E+005	7.7109918E-002	1.7868109E-002	7.9153068E-002	-1.3046468E+001	2.383248753196676E+001	-2.4675091E-005	-2.0380694E-002	8.6688011E+001	4.4175425E+000	1.000000000000000E+000	37	5.1192879E-003	6.4675801E-002	0	-1.054652133368783E-004	-1	-1	-1	0	0	0	0	0	0	-1	-1	-1	0	0	0	0	0	0	1.2307638E+001	2.8519578E+000	1.2633749E+001	1.3046468E+001	4.4175435E+003	1.9063926E+004	1.9569057E+004	-7.6953529E+001	0.0000000E+000	0.0000000E+000	0.0000000E+000	7.6953529E+001	0.0000000E+000	0.0000000E+000	0.0000000E+000	-7.6953529E+001	0.0000000E+000	0.0000000E+000	0.0000000E+000	-1.3046468E+001	0.0000000E+000	0.0000000E+000	0.0000000E+000	1.3046468E+001	4.3155050E+000	7.6953529E+001	-4.954454358822355E-005
9.1560273E+004	7.7743724E-002	1.6817989E-002	7.9542011E-002	-1.2206478E+001	2.498148969319300E+001	-2.7918575E-005	-1.6732883E-002	1.0335677E+002	4.6205530E+000	1.000000000000000E+000	37	5.1167146E-003	6.4327195E-002	0	3.076206084754732E-006	3.3382842E-001	2.2697616E-001	6.2569227E+000	4.9355012E-006	6.0367388E-006	5.7741086E-006	6.4040655E-006	6.8333952E-006	8.4297772E-006	1.0226330E-001	1.9583041E-002	2.9739070E-001	1.3561584E-005	6.3925239E-005	4.1454618E-006	3.1183656E-006	3.7555735E-006	3.0206677E-006	1.2287745E+001	2.6581590E+000	1.2571973E+001	1.2206478E+001	4.6205547E+003	2.1359213E+004	2.1853271E+004	-7.7793518E+001	0.0000000E+000	0.0000000E+000	0.0000000E+000	7.7793518E+001	0.0000000E+000	0.0000000E+000	0.0000000E+000	-7.7793518E+001	0.0000000E+000	0.0000000E+000	0.0000000E+000	-1.2206478E+001	0.0000000E+000	0.0000000E+000	0.0000000E+000	1.2206478E+001	4.6226530E+000	7.7793518E+001	1.085414194216331E-004
8.1576602E+004	7.8250393E-002	1.6234739E-002	7.9916775E-002	-1.1720964E+001	2.612949076105724E+001	-3.6064564E-005	-2.1329906E-002	1.2017364E+002	4.9593406E+000	1.000000000000000E+000	37	5.1068384E-003	6.3901961E-002	0	3.800709420152836E-005	3.3808804E-001	1.3245660E-001	6.2289453E+000	8.1100015E-006	5.8042988E-006	4.5023207E-006	3.2688640E-006	8.6841264E-006	5.7636516E-006	1.0928275E-001	4.0674318E-002	3.0909646E-001	1.2621389E-005	6.7759247E-005	8.4888852E-006	2.9533533E-006	2.7313502E-006	3.0438503E-006	1.2252103E+001	2.5419643E+000	1.2513018E+001	1.1720964E+001	4.9593398E+003	2.3903701E+004	2.4412742E+004	-7.8279037E+001	0.0000000E+000	0.0000000E+000	0.0000000E+000	7.8279037E+001	0.0000000E+000	0.0000000E+000	0.0000000E+000	-7.8279037E+001	0.0000000E+000	0.0000000E+000	0.0000000E+000	-1.1720964E+001	0.0000000E+000	0.0000000E+000	0.0000000E+000	1.1720964E+001	4.8199353E+000	7.8279037E+001	3.493088811677363E-005
7.2687797E+004	7.8911558E-002	1.5713753E-002	8.0460899E-002	-1.1262060E+001	2.727749254889204E+001	-3.3137974E-005	-3.3483110E-002	1.3934093E+002	5.3145781E+000	1.000000000000000E+000	37	5.0970665E-003	6.3348368E-002	0	9.781050500356489E-006	3.6711317E-001	1.5539964E-001	6.2738461E+000	5.6979775E-006	1.2774933E-005	4.3474361E-006	3.8877679E-006	5.3711278E-006	7.2210119E-006	1.1000365E-001	9.7419787E-003	3.0118275E-001	1.2464603E-005	6.8144436E-005	4.7598505E-006	5.0988569E-006	2.3623620E-006	2.2312861E-006	1.2189078E+001	2.4272258E+000	1.2428397E+001	1.1262060E+001	5.3145786E+003	2.6688824E+004	2.7212830E+004	-7.8737938E+001	0.0000000E+000	0.0000000E+000	0.0000000E+000	7.8737938E+001	0.0000000E+000	0.0000000E+000	0.0000000E+000	-7.8737938E+001	0.0000000E+000	0.0000000E+000	0.0000000E+000	-1.1262060E+001	0.0000000E+000	0.0000000E+000	0.0000000E+000	1.1262060E+001	5.0218148E+000	7.8737938E+001	-2.822604370117188E-005
