EC-Lab ASCII FILE
Nb header lines : 76                          

Potentio Electrochemical Impedance Spectroscopy

Run on channel : 1 (SN 5680)
User : 
Electrode connection : standard
Potential control : Ewe
Ewe ctrl range : min = 0.00 V, max = 5.00 V
Ewe,I filtering : 50 kHz
Safety Limits :
	Do not start on E overload
Channel : Floating
Acquisition started on : 01/21/2022 14:49:30.130
Loaded Setting File :  C:\Data\baili\Compression Ratio Tests\final\SGL 2.5 Felt ve=2\EIS_fullcell_CR10_flowthrough_C01.mpr
Saved on :
	File : EIS_fullcell_CR30_flowthrough_ve=5_C01.mpr
	Directory : C:\Data\baili\Compression Ratio Tests\final\SGL 2.5 Felt ve=2\SGL 2.5 Felt ve=other\
	Host : 192.168.0.1
Device : SP-300 (SN 0955)
Address : 192.168.0.4
EC-Lab for windows v11.36 (software)
Internet server v11.36 (firmware)
Command interpretor v11.36 (firmware)
Electrode material : 
Initial state : 
Electrolyte : 
Comments : 
Current amplifier : B-10A5V
Cable : standard
Electrode surface area : 0.001 cm²
Characteristic mass : 0.001 g
Equivalent Weight : 0.000 g/eq.
Density : 0.000 g/cm3
Volume (V) : 0.000 m³
Record Power
Cycle Definition : Charge/Discharge alternance
External device configuration :
   device type : Other
   device name : Other
   Analog OUT : 
      mode : E/V
      unit : speed/rpm
      max : 150.000 at 5.000 V
      min : 0.000 at 0.000 V
      current : 32.000
Mode                Single sine         
E (V)               0.0000              
vs.                 Eoc                 
tE (h:m:s)          0:00:0.0000         
record              0                   
dI                  0.000               
unit dI             mA                  
dt (s)              0.000               
fi                  200.000             
unit fi             kHz                 
ff                  30.000              
unit ff             mHz                 
Nd                  12                  
Points              per decade          
spacing             Logarithmic         
Va (mV)             10.0                
pw                  0.10                
Na                  3                   
corr                0                   
E range min (V)     0.000               
E range max (V)     5.000               
I Range             Auto                
Bandwidth           8                   
nc cycles           3                   
goto Ns'            0                   
nr cycles           0                   
inc. cycle          0                   

freq/Hz	Re(Z)/Ohm	-Im(Z)/Ohm	|Z|/Ohm	Phase(Z)/deg	time/s	<Ewe>/V	<I>/mA	Cs/µF	Cp/µF	cycle number	I Range	|Ewe|/V	|I|/A	Ns	(Q-Qo)/mA.h	Analog OUT/V	P/W	Re(Y)/Ohm-1	Im(Y)/Ohm-1	|Y|/Ohm-1	Phase(Y)/deg	Re(C)/nF	Im(C)/nF	|C|/nF	Phase(C)/deg	Re(M)	Im(M)	|M|	Phase(M)/deg	Re(Permittivity)	Im(Permittivity)	|Permittivity|	Phase(Permittivity)/deg	Re(Resistivity)/Ohm.cm	Im(Resistivity)/Ohm.cm	|Resistivity|/Ohm.cm	Phase(Resistivity)/deg	Re(Conductivity)/mS/cm	Im(Conductivity)/mS/cm	|Conductivity|/mS/cm	Phase(Conductivity)/deg	Tan(Delta)	Loss Angle(Delta)/deg	dq/mA.h	
1.9999814E+005	6.8360932E-002	-2.2941163E-002	7.2107658E-002	1.8551174E+001	1.783498591365060E+000	1.3932159E+000	-1.2663735E+001	-3.4687958E+001	-3.5111294E+000	1.000000000000000E+000	65	9.5963906E-003	1.3308421E-001	0	-2.034745208102796E-003	3.2000000E+001	-1.7643318E-002	1.3147562E+001	-4.4121742E+000	1.3868153E+001	-1.8551174E+001	-3.5111301E+003	1.0462595E+004	1.1036028E+004	-1.0855118E+002	0.0000000E+000	0.0000000E+000	0.0000000E+000	1.0855118E+002	0.0000000E+000	0.0000000E+000	0.0000000E+000	-1.0855118E+002	0.0000000E+000	0.0000000E+000	0.0000000E+000	1.8551174E+001	0.0000000E+000	0.0000000E+000	0.0000000E+000	-1.8551174E+001	2.9798372E+000	7.1448822E+001	-2.034745208102796E-003
1.6473055E+005	6.9483221E-002	-1.7704809E-002	7.1703404E-002	1.4295167E+001	2.356484965217533E+000	1.3932137E+000	5.2124720E+000	-5.4570103E+001	-3.3270373E+000	1.000000000000000E+000	65	1.0426403E-002	1.4541015E-001	0	-1.102235549432536E-003	3.2000000E+001	7.2620874E-003	1.3514513E+001	-3.4435921E+000	1.3946340E+001	-1.4295167E+001	-3.3270371E+003	1.3057089E+004	1.3474300E+004	-1.0429517E+002	0.0000000E+000	0.0000000E+000	0.0000000E+000	1.0429517E+002	0.0000000E+000	0.0000000E+000	0.0000000E+000	-1.0429517E+002	0.0000000E+000	0.0000000E+000	0.0000000E+000	1.4295167E+001	0.0000000E+000	0.0000000E+000	0.0000000E+000	-1.4295167E+001	3.9245393E+000	7.5704834E+001	9.325096586702600E-004
1.3568883E+005	7.0443951E-002	-1.3327715E-002	7.1693644E-002	1.0713500E+001	2.929493632429512E+000	1.3932127E+000	5.1412978E+000	-8.8007637E+001	-3.0413783E+000	1.000000000000000E+000	65	1.0546774E-002	1.4710891E-001	0	1.242366279234489E-003	3.2000000E+001	7.1629211E-003	1.3705106E+001	-2.5929513E+000	1.3948237E+001	-1.0713500E+001	-3.0413784E+003	1.6075277E+004	1.6360456E+004	-1.0071350E+002	0.0000000E+000	0.0000000E+000	0.0000000E+000	1.0071350E+002	0.0000000E+000	0.0000000E+000	0.0000000E+000	-1.0071350E+002	0.0000000E+000	0.0000000E+000	0.0000000E+000	1.0713500E+001	0.0000000E+000	0.0000000E+000	0.0000000E+000	-1.0713500E+001	5.2855234E+000	7.9286499E+001	2.344601828667025E-003
1.1175957E+005	7.1348876E-002	-9.7829588E-003	7.2016448E-002	7.8073921E+000	3.502476939669577E+000	1.3932016E+000	5.2284961E+000	-1.4556776E+002	-2.6862242E+000	1.000000000000000E+000	65	1.0577563E-002	1.4687705E-001	0	1.143033364554660E-003	3.2000000E+001	7.2843488E-003	1.3757000E+001	-1.8862828E+000	1.3885716E+001	-7.8073921E+000	-2.6862229E+003	1.9591117E+004	1.9774420E+004	-9.7807388E+001	0.0000000E+000	0.0000000E+000	0.0000000E+000	9.7807388E+001	0.0000000E+000	0.0000000E+000	0.0000000E+000	-9.7807388E+001	0.0000000E+000	0.0000000E+000	0.0000000E+000	7.8073921E+000	0.0000000E+000	0.0000000E+000	0.0000000E+000	-7.8073921E+000	7.2931795E+000	8.2192612E+001	-9.933291467982856E-005
9.2052031E+004	7.2151557E-002	-6.5558259E-003	7.2448783E-002	5.1917458E+000	4.076495206943946E+000	1.3932067E+000	5.2981787E+000	-2.6372986E+002	-2.1594939E+000	1.000000000000000E+000	65	1.0575659E-002	1.4597428E-001	0	2.362773562452859E-003	3.2000000E+001	7.3814583E-003	1.3746227E+001	-1.2490081E+000	1.3802855E+001	-5.1917458E+000	-2.1594922E+003	2.3766775E+004	2.3864682E+004	-9.5191742E+001	0.0000000E+000	0.0000000E+000	0.0000000E+000	9.5191742E+001	0.0000000E+000	0.0000000E+000	0.0000000E+000	-9.5191742E+001	0.0000000E+000	0.0000000E+000	0.0000000E+000	5.1917458E+000	0.0000000E+000	0.0000000E+000	0.0000000E+000	-5.1917458E+000	1.1005715E+001	8.4808258E+001	1.219740197898199E-003
7.5823930E+004	7.2920069E-002	-3.8832617E-003	7.3023394E-002	3.0483313E+000	4.648479180788854E+000	1.3932017E+000	5.2910991E+000	-5.4052673E+002	-1.5285740E+000	1.000000000000000E+000	65	1.0581986E-002	1.4491227E-001	0	3.683311809187186E-003	3.2000000E+001	7.3715681E-003	1.3674865E+001	-7.2823679E-001	1.3694242E+001	-3.0483313E+000	-1.5285743E+003	2.8703633E+004	2.8744305E+004	-9.3048332E+001	0.0000000E+000	0.0000000E+000	0.0000000E+000	9.3048332E+001	0.0000000E+000	0.0000000E+000	0.0000000E+000	-9.3048332E+001	0.0000000E+000	0.0000000E+000	0.0000000E+000	3.0483313E+000	0.0000000E+000	0.0000000E+000	0.0000000E+000	-3.0483313E+000	1.8778046E+001	8.6951668E+001	1.320538246734327E-003
6.2453605E+004	7.3661365E-002	-1.5664079E-003	7.3678017E-002	1.2182103E+000	5.221480887994403E+000	1.3932168E+000	5.4172373E+000	-1.6268884E+003	-7.3534584E-001	1.000000000000000E+000	65	1.0570006E-002	1.4346214E-001	0	5.185036009854741E-003	3.2000000E+001	7.5473865E-003	1.3569502E+001	-2.8855526E-001	1.3572570E+001	-1.2182103E+000	-7.3534454E+002	3.4580121E+004	3.4587938E+004	-9.1218208E+001	0.0000000E+000	0.0000000E+000	0.0000000E+000	9.1218208E+001	0.0000000E+000	0.0000000E+000	0.0000000E+000	-9.1218208E+001	0.0000000E+000	0.0000000E+000	0.0000000E+000	1.2182103E+000	0.0000000E+000	0.0000000E+000	0.0000000E+000	-1.2182103E+000	4.7025661E+001	8.8781792E+001	1.501724200667555E-003
5.1440023E+004	7.4504703E-002	5.9650181E-004	7.4507087E-002	-4.5871341E-001	5.795478888583602E+000	1.3932122E+000	5.6292682E+000	5.1868926E+003	3.3245707E-001	1.000000000000000E+000	65	1.0558110E-002	1.4170611E-001	0	5.670690302396504E-003	3.2000000E+001	7.8427652E-003	1.3421112E+001	1.0745251E-001	1.3421542E+001	4.5871341E-001	3.3245441E+002	4.1524793E+004	4.1526125E+004	-8.9541290E+001	0.0000000E+000	0.0000000E+000	0.0000000E+000	8.9541290E+001	0.0000000E+000	0.0000000E+000	0.0000000E+000	-8.9541290E+001	0.0000000E+000	0.0000000E+000	0.0000000E+000	-4.5871341E-001	0.0000000E+000	0.0000000E+000	0.0000000E+000	4.5871341E-001	1.2490273E+002	8.9541290E+001	4.856542925417628E-004
4.2374922E+004	7.5393960E-002	2.4753837E-003	7.5434588E-002	-1.8804969E+000	6.367491449083900E+000	1.3932120E+000	5.6162262E+000	1.5172903E+003	1.6338519E+000	1.000000000000000E+000	65	1.0539143E-002	1.3971235E-001	0	6.347543863155776E-003	3.2000000E+001	7.8245932E-003	1.3249379E+001	4.3501225E-001	1.3256518E+001	1.8804969E+000	1.6338488E+003	4.9763020E+004	4.9789836E+004	-8.8119507E+001	0.0000000E+000	0.0000000E+000	0.0000000E+000	8.8119507E+001	0.0000000E+000	0.0000000E+000	0.0000000E+000	-8.8119507E+001	0.0000000E+000	0.0000000E+000	0.0000000E+000	-1.8804969E+000	0.0000000E+000	0.0000000E+000	0.0000000E+000	1.8804969E+000	3.0457485E+001	8.8119507E+001	6.768535607592722E-004
3.4896449E+004	7.6463066E-002	4.2764512E-003	7.6582558E-002	-3.2011223E+000	6.941485529678175E+000	1.3932115E+000	5.6644826E+000	1.0664866E+003	3.3255436E+000	1.000000000000000E+000	65	1.0526297E-002	1.3745031E-001	0	8.020191698102487E-003	3.2000000E+001	7.8918226E-003	1.3037429E+001	7.2916162E-001	1.3057803E+001	3.2011223E+000	3.3255479E+003	5.9460816E+004	5.9553738E+004	-8.6798874E+001	0.0000000E+000	0.0000000E+000	0.0000000E+000	8.6798874E+001	0.0000000E+000	0.0000000E+000	0.0000000E+000	-8.6798874E+001	0.0000000E+000	0.0000000E+000	0.0000000E+000	-3.2011223E+000	0.0000000E+000	0.0000000E+000	0.0000000E+000	3.2011223E+000	1.7880028E+001	8.6798874E+001	1.672647834946711E-003
2.8744803E+004	7.7601805E-002	5.8488916E-003	7.7821910E-002	-4.3102655E+000	7.515478090295801E+000	1.3932114E+000	5.7751560E+000	9.4664526E+002	5.3472514E+000	1.000000000000000E+000	65	1.0505553E-002	1.3499480E-001	0	8.375583758749895E-003	3.2000000E+001	8.0460133E-003	1.2813508E+001	9.6576130E-001	1.2849852E+001	4.3102655E+000	5.3472505E+003	7.0946156E+004	7.1147383E+004	-8.5689735E+001	0.0000000E+000	0.0000000E+000	0.0000000E+000	8.5689735E+001	0.0000000E+000	0.0000000E+000	0.0000000E+000	-8.5689735E+001	0.0000000E+000	0.0000000E+000	0.0000000E+000	-4.3102655E+000	0.0000000E+000	0.0000000E+000	0.0000000E+000	4.3102655E+000	1.3267779E+001	8.5689735E+001	3.553920606474085E-004
2.3678742E+004	7.8780830E-002	7.3163919E-003	7.9119839E-002	-5.3058515E+000	8.089498864224879E+000	1.3932062E+000	5.7434821E+000	9.1868060E+002	7.8557506E+000	1.000000000000000E+000	65	1.0454594E-002	1.3213620E-001	0	9.621483428631393E-003	3.2000000E+001	8.0018556E-003	1.2584900E+001	1.1687622E+000	1.2639055E+001	5.3058515E+000	7.8557554E+003	8.4588492E+004	8.4952492E+004	-8.4694145E+001	0.0000000E+000	0.0000000E+000	0.0000000E+000	8.4694145E+001	0.0000000E+000	0.0000000E+000	0.0000000E+000	-8.4694145E+001	0.0000000E+000	0.0000000E+000	0.0000000E+000	-5.3058515E+000	0.0000000E+000	0.0000000E+000	0.0000000E+000	5.3058515E+000	1.0767716E+001	8.4694145E+001	1.245899669881497E-003
1.9503414E+004	8.0167837E-002	8.7297373E-003	8.0641739E-002	-6.2146382E+000	8.663495504792081E+000	1.3932022E+000	5.8222947E+000	9.3477765E+002	1.0954458E+001	1.000000000000000E+000	65	1.0429729E-002	1.2933412E-001	0	9.768045879551934E-003	3.2000000E+001	8.1116334E-003	1.2327652E+001	1.3423984E+000	1.2400526E+001	6.2146382E+000	1.0954459E+004	1.0059813E+005	1.0119280E+005	-8.3785362E+001	0.0000000E+000	0.0000000E+000	0.0000000E+000	8.3785362E+001	0.0000000E+000	0.0000000E+000	0.0000000E+000	-8.3785362E+001	0.0000000E+000	0.0000000E+000	0.0000000E+000	-6.2146382E+000	0.0000000E+000	0.0000000E+000	0.0000000E+000	6.2146382E+000	9.1833048E+000	8.3785362E+001	1.465624509205416E-004
1.6061090E+004	8.1723519E-002	9.9348035E-003	8.2325168E-002	-6.9312100E+000	9.236489398666890E+000	1.3932027E+000	5.7647223E+000	9.9743781E+002	1.4525769E+001	1.000000000000000E+000	65	1.0389477E-002	1.2620050E-001	0	1.185076869512556E-002	3.2000000E+001	8.0314269E-003	1.2058181E+001	1.4658651E+000	1.2146954E+001	6.9312100E+000	1.4525775E+004	1.1948872E+005	1.2036840E+005	-8.3068787E+001	0.0000000E+000	0.0000000E+000	0.0000000E+000	8.3068787E+001	0.0000000E+000	0.0000000E+000	0.0000000E+000	-8.3068787E+001	0.0000000E+000	0.0000000E+000	0.0000000E+000	-6.9312100E+000	0.0000000E+000	0.0000000E+000	0.0000000E+000	6.9312100E+000	8.2259827E+000	8.3068787E+001	2.082722815573630E-003
1.3231144E+004	8.3308510E-002	1.1091556E-002	8.4043622E-002	-7.5836658E+000	9.809499505878193E+000	1.3931975E+000	5.8137240E+000	1.0845018E+003	1.8888859E+001	1.000000000000000E+000	65	1.0338234E-002	1.2301033E-001	0	1.309905544715954E-002	3.2000000E+001	8.0996659E-003	1.1794508E+001	1.5703012E+000	1.1898582E+001	7.5836658E+000	1.8888855E+004	1.4187394E+005	1.4312583E+005	-8.2416336E+001	0.0000000E+000	0.0000000E+000	0.0000000E+000	8.2416336E+001	0.0000000E+000	0.0000000E+000	0.0000000E+000	-8.2416336E+001	0.0000000E+000	0.0000000E+000	0.0000000E+000	-7.5836658E+000	0.0000000E+000	0.0000000E+000	0.0000000E+000	7.5836658E+000	7.5109849E+000	8.2416336E+001	1.248286752033978E-003
1.0902241E+004	8.5074008E-002	1.2129573E-002	8.5934356E-002	-8.1143560E+000	1.038348041314748E+001	1.3932031E+000	5.8757682E+000	1.2035352E+003	2.3978178E+001	1.000000000000000E+000	65	1.0281222E-002	1.1964041E-001	0	1.416076628391362E-002	3.2000000E+001	8.1861382E-003	1.1520286E+001	1.6425245E+000	1.1636789E+001	8.1143560E+000	2.3978184E+004	1.6817739E+005	1.6987816E+005	-8.1885643E+001	0.0000000E+000	0.0000000E+000	0.0000000E+000	8.1885643E+001	0.0000000E+000	0.0000000E+000	0.0000000E+000	-8.1885643E+001	0.0000000E+000	0.0000000E+000	0.0000000E+000	-8.1143560E+000	0.0000000E+000	0.0000000E+000	0.0000000E+000	8.1143560E+000	7.0137677E+000	8.1885643E+001	1.061710836754076E-003
8.9747607E+003	8.6993538E-002	1.3095839E-002	8.7973729E-002	-8.5609140E+000	1.098014516153489E+001	1.3930966E+000	5.1848965E+000	1.3541411E+003	3.0007137E+001	1.000000000000000E+000	65	1.0387746E-002	1.1807781E-001	0	1.580008486495912E-002	3.2000000E+001	7.2230613E-003	1.1240380E+001	1.6921052E+000	1.1367030E+001	8.5609140E+000	3.0007137E+004	1.9933256E+005	2.0157852E+005	-8.1439087E+001	0.0000000E+000	0.0000000E+000	0.0000000E+000	8.1439087E+001	0.0000000E+000	0.0000000E+000	0.0000000E+000	-8.1439087E+001	0.0000000E+000	0.0000000E+000	0.0000000E+000	-8.5609140E+000	0.0000000E+000	0.0000000E+000	0.0000000E+000	8.5609140E+000	6.6428380E+000	8.1439087E+001	1.639318581045502E-003
7.3948726E+003	8.8828914E-002	1.3994955E-002	8.9924604E-002	-8.9533291E+000	1.166561250078212E+001	1.3931040E+000	5.2070684E+000	1.5378640E+003	3.7248077E+001	1.000000000000000E+000	65	1.0206686E-002	1.1350271E-001	0	1.669069804701540E-002	3.2000000E+001	7.2539877E-003	1.0984930E+001	1.7306707E+000	1.1120427E+001	8.9533291E+000	3.7248090E+004	2.3642138E+005	2.3933759E+005	-8.1046669E+001	0.0000000E+000	0.0000000E+000	0.0000000E+000	8.1046669E+001	0.0000000E+000	0.0000000E+000	0.0000000E+000	-8.1046669E+001	0.0000000E+000	0.0000000E+000	0.0000000E+000	-8.9533291E+000	0.0000000E+000	0.0000000E+000	0.0000000E+000	8.9533291E+000	6.3472099E+000	8.1046669E+001	8.906131820562817E-004
6.0875864E+003	9.0954602E-002	1.4790890E-002	9.2149392E-002	-9.2364941E+000	1.246744656548253E+001	1.3930949E+000	5.1435337E+000	1.7675867E+003	4.5539089E+001	1.000000000000000E+000	65	1.0151416E-002	1.1016259E-001	0	1.751855968151738E-002	3.2000000E+001	7.1654306E-003	1.0711240E+001	1.7418445E+000	1.0851944E+001	9.2364941E+000	4.5539098E+004	2.8003653E+005	2.8371513E+005	-8.0763504E+001	0.0000000E+000	0.0000000E+000	0.0000000E+000	8.0763504E+001	0.0000000E+000	0.0000000E+000	0.0000000E+000	-8.0763504E+001	0.0000000E+000	0.0000000E+000	0.0000000E+000	-9.2364941E+000	0.0000000E+000	0.0000000E+000	0.0000000E+000	9.2364941E+000	6.1493664E+000	8.0763504E+001	8.278616345019814E-004
5.0166025E+003	9.3039371E-002	1.5489616E-002	9.4319947E-002	-9.4521694E+000	1.315967123840528E+001	1.3930818E+000	5.1060834E+000	2.0481877E+003	5.5238770E+001	1.000000000000000E+000	65	1.0810219E-002	1.1461222E-001	0	1.800358636905170E-002	3.2000000E+001	7.1131918E-003	1.0458265E+001	1.7411395E+000	1.0602211E+001	9.4521694E+000	5.5238785E+004	3.3179519E+005	3.3636197E+005	-8.0547829E+001	0.0000000E+000	0.0000000E+000	0.0000000E+000	8.0547829E+001	0.0000000E+000	0.0000000E+000	0.0000000E+000	-8.0547829E+001	0.0000000E+000	0.0000000E+000	0.0000000E+000	-9.4521694E+000	0.0000000E+000	0.0000000E+000	0.0000000E+000	9.4521694E+000	6.0065641E+000	8.0547829E+001	4.850266875343172E-004
4.1313247E+003	9.5218919E-002	1.6022971E-002	9.6557640E-002	-9.5519629E+000	1.408366848229343E+001	1.3930939E+000	5.0403128E+000	2.4042949E+003	6.6206490E+001	1.000000000000000E+000	65	1.0135803E-002	1.0497154E-001	0	1.949978995136254E-002	3.2000000E+001	7.0216293E-003	1.0212920E+001	1.7185799E+000	1.0356508E+001	9.5519629E+000	6.6206500E+004	3.9344206E+005	3.9897363E+005	-8.0448036E+001	0.0000000E+000	0.0000000E+000	0.0000000E+000	8.0448036E+001	0.0000000E+000	0.0000000E+000	0.0000000E+000	-8.0448036E+001	0.0000000E+000	0.0000000E+000	0.0000000E+000	-9.5519629E+000	0.0000000E+000	0.0000000E+000	0.0000000E+000	9.5519629E+000	5.9426508E+000	8.0448036E+001	1.496203582310843E-003
3.4039094E+003	9.7627059E-002	1.6563607E-002	9.9022195E-002	-9.6292257E+000	1.477481979511504E+001	1.3931062E+000	5.1867595E+000	2.8228459E+003	7.8982697E+001	1.000000000000000E+000	65	1.0367544E-002	1.0469919E-001	0	2.000961412672450E-002	3.2000000E+001	7.2257067E-003	9.9564638E+000	1.6892341E+000	1.0098746E+001	9.6292257E+000	7.8982711E+004	4.6552953E+005	4.7218219E+005	-8.0370773E+001	0.0000000E+000	0.0000000E+000	0.0000000E+000	8.0370773E+001	0.0000000E+000	0.0000000E+000	0.0000000E+000	-8.0370773E+001	0.0000000E+000	0.0000000E+000	0.0000000E+000	-9.6292257E+000	0.0000000E+000	0.0000000E+000	0.0000000E+000	9.6292257E+000	5.8940697E+000	8.0370773E+001	5.098241753619566E-004
2.8023123E+003	9.9986151E-002	1.7010039E-002	1.0142273E-001	-9.6549482E+000	1.546597217459930E+001	1.3930937E+000	5.2368793E+000	3.3388608E+003	9.3915718E+001	1.000000000000000E+000	65	1.0482362E-002	1.0335318E-001	0	2.143152830859688E-002	3.2000000E+001	7.2954637E-003	9.7200651E+000	1.6536161E+000	9.8597221E+000	9.6549482E+000	9.3915695E+004	5.5204288E+005	5.5997456E+005	-8.0345055E+001	0.0000000E+000	0.0000000E+000	0.0000000E+000	8.0345055E+001	0.0000000E+000	0.0000000E+000	0.0000000E+000	-8.0345055E+001	0.0000000E+000	0.0000000E+000	0.0000000E+000	-9.6549482E+000	0.0000000E+000	0.0000000E+000	0.0000000E+000	9.6549482E+000	5.8780670E+000	8.0345055E+001	1.421914181872375E-003
2.3092627E+003	1.0248841E-001	1.7300829E-002	1.0393841E-001	-9.5816355E+000	1.615783231414389E+001	1.3931000E+000	5.1103683E+000	3.9836379E+003	1.1037268E+002	1.000000000000000E+000	65	1.0534522E-002	1.0135350E-001	0	2.279318014033884E-002	3.2000000E+001	7.1192542E-003	9.4868631E+000	1.6014552E+000	9.6210823E+000	9.5816355E+000	1.1037268E+005	6.5383694E+005	6.6308738E+005	-8.0418365E+001	0.0000000E+000	0.0000000E+000	0.0000000E+000	8.0418365E+001	0.0000000E+000	0.0000000E+000	0.0000000E+000	-8.0418365E+001	0.0000000E+000	0.0000000E+000	0.0000000E+000	-9.5816355E+000	0.0000000E+000	0.0000000E+000	0.0000000E+000	9.5816355E+000	5.9239016E+000	8.0418365E+001	1.361651831741962E-003
