EC-Lab ASCII FILE
Nb header lines : 3                           
freq/Hz	Re(Z)/Ohm	-Im(Z)/Ohm	|Z|/Ohm	Phase(Z)/deg	Re(Y)/Ohm-1	Im(Y)/Ohm-1	|Y|/Ohm-1	Phase(Y)/deg	Re(C)/nF	Im(C)/nF	|C|/nF	Phase(C)/deg	Re(M)	Im(M)	|M|	Phase(M)/deg	Re(Permittivity)	Im(Permittivity)	|Permittivity|	Phase(Permittivity)/deg	Re(Resistivity)/Ohm.cm	Im(Resistivity)/Ohm.cm	|Resistivity|/Ohm.cm	Phase(Resistivity)/deg	Re(Conductivity)/mS/cm	Im(Conductivity)/mS/cm	|Conductivity|/mS/cm	Phase(Conductivity)/deg	Tan(Delta)	Loss Angle(Delta)/deg	
1.0000000E+006	1.0000588E-001	1.1141954E-004	1.0000595E-001	-6.3834913E-002	9.9993982E+000	1.1140629E-002	9.9994049E+000	6.3834913E-002	1.7730926E+000	1.5914539E+003	1.5914548E+003	-8.9936165E+001	0.0000000E+000	0.0000000E+000	0.0000000E+000	8.9936165E+001	0.0000000E+000	0.0000000E+000	0.0000000E+000	-8.9936165E+001	0.0000000E+000	0.0000000E+000	0.0000000E+000	-6.3834913E-002	0.0000000E+000	0.0000000E+000	0.0000000E+000	6.3834913E-002	8.9756140E+002	8.9936165E+001
7.9432825E+005	1.0000686E-001	1.3953845E-004	1.0000696E-001	-7.9944104E-002	9.9992943E+000	1.3951902E-002	9.9993038E+000	7.9944104E-002	2.7953460E+000	2.0035005E+003	2.0035024E+003	-8.9920059E+001	0.0000000E+000	0.0000000E+000	0.0000000E+000	8.9920059E+001	0.0000000E+000	0.0000000E+000	0.0000000E+000	-8.9920059E+001	0.0000000E+000	0.0000000E+000	0.0000000E+000	-7.9944104E-002	0.0000000E+000	0.0000000E+000	0.0000000E+000	7.9944104E-002	7.1669757E+002	8.9920059E+001
6.3095738E+005	1.0000811E-001	1.7484701E-004	1.0000826E-001	-1.0017173E-001	9.9991589E+000	1.7481811E-002	9.9991741E+000	1.0017173E-001	4.4097724E+000	2.5222234E+003	2.5222273E+003	-8.9899826E+001	0.0000000E+000	0.0000000E+000	0.0000000E+000	8.9899826E+001	0.0000000E+000	0.0000000E+000	0.0000000E+000	-8.9899826E+001	0.0000000E+000	0.0000000E+000	0.0000000E+000	-1.0017173E-001	0.0000000E+000	0.0000000E+000	0.0000000E+000	1.0017173E-001	5.7197491E+002	8.9899826E+001
5.0118722E+005	1.0000975E-001	2.1919381E-004	1.0000999E-001	-1.2557635E-001	9.9989767E+000	2.1915000E-002	9.9990005E+000	1.2557635E-001	6.9594297E+000	3.1752336E+003	3.1752412E+003	-8.9874420E+001	0.0000000E+000	0.0000000E+000	0.0000000E+000	8.9874420E+001	0.0000000E+000	0.0000000E+000	0.0000000E+000	-8.9874420E+001	0.0000000E+000	0.0000000E+000	0.0000000E+000	-1.2557635E-001	0.0000000E+000	0.0000000E+000	0.0000000E+000	1.2557635E-001	4.5626175E+002	8.9874420E+001
3.9810716E+005	1.0001198E-001	2.7490253E-004	1.0001236E-001	-1.5748829E-001	9.9987259E+000	2.7483460E-002	9.9987640E+000	1.5748829E-001	1.0987152E+001	3.9972822E+003	3.9972974E+003	-8.9842514E+001	0.0000000E+000	0.0000000E+000	0.0000000E+000	8.9842514E+001	0.0000000E+000	0.0000000E+000	0.0000000E+000	-8.9842514E+001	0.0000000E+000	0.0000000E+000	0.0000000E+000	-1.5748829E-001	0.0000000E+000	0.0000000E+000	0.0000000E+000	1.5748829E-001	3.6380887E+002	8.9842514E+001
3.1622778E+005	1.0001509E-001	3.4489273E-004	1.0001568E-001	-1.9757839E-001	9.9983730E+000	3.4478460E-002	9.9984322E+000	1.9757839E-001	1.7352741E+001	5.0321025E+003	5.0321323E+003	-8.9802422E+001	0.0000000E+000	0.0000000E+000	0.0000000E+000	8.9802422E+001	0.0000000E+000	0.0000000E+000	0.0000000E+000	-8.9802422E+001	0.0000000E+000	0.0000000E+000	0.0000000E+000	-1.9757839E-001	0.0000000E+000	0.0000000E+000	0.0000000E+000	1.9757839E-001	2.8998898E+002	8.9802422E+001
2.5118864E+005	1.0001953E-001	4.3282975E-004	1.0002047E-001	-2.4794321E-001	9.9978600E+000	4.3265261E-002	9.9979534E+000	2.4794321E-001	2.7412836E+001	6.3347168E+003	6.3347759E+003	-8.9752060E+001	0.0000000E+000	0.0000000E+000	0.0000000E+000	8.9752060E+001	0.0000000E+000	0.0000000E+000	0.0000000E+000	-8.9752060E+001	0.0000000E+000	0.0000000E+000	0.0000000E+000	-2.4794321E-001	0.0000000E+000	0.0000000E+000	0.0000000E+000	2.4794321E-001	2.3108284E+002	8.9752060E+001
1.9952623E+005	1.0002604E-001	5.4330874E-004	1.0002752E-001	-3.1120890E-001	9.9971008E+000	5.4300990E-002	9.9972486E+000	3.1120890E-001	4.3314201E+001	7.9743311E+003	7.9744487E+003	-8.9688789E+001	0.0000000E+000	0.0000000E+000	0.0000000E+000	8.9688789E+001	0.0000000E+000	0.0000000E+000	0.0000000E+000	-8.9688789E+001	0.0000000E+000	0.0000000E+000	0.0000000E+000	-3.1120890E-001	0.0000000E+000	0.0000000E+000	0.0000000E+000	3.1120890E-001	1.8410535E+002	8.9688789E+001
1.5848931E+005	1.0003574E-001	6.8207859E-004	1.0003807E-001	-3.9065656E-001	9.9959612E+000	6.8155952E-002	9.9961939E+000	3.9065656E-001	6.8442017E+001	1.0037943E+004	1.0038177E+004	-8.9609344E+001	0.0000000E+000	0.0000000E+000	0.0000000E+000	8.9609344E+001	0.0000000E+000	0.0000000E+000	0.0000000E+000	-8.9609344E+001	0.0000000E+000	0.0000000E+000	0.0000000E+000	-3.9065656E-001	0.0000000E+000	0.0000000E+000	0.0000000E+000	3.9065656E-001	1.4666307E+002	8.9609344E+001
1.2589254E+005	1.0005044E-001	8.5630605E-004	1.0005411E-001	-4.9036789E-001	9.9942255E+000	8.5538007E-002	9.9945917E+000	4.9036789E-001	1.0813908E+002	1.2634827E+004	1.2635290E+004	-8.9509628E+001	0.0000000E+000	0.0000000E+000	0.0000000E+000	8.9509628E+001	0.0000000E+000	0.0000000E+000	0.0000000E+000	-8.9509628E+001	0.0000000E+000	0.0000000E+000	0.0000000E+000	-4.9036789E-001	0.0000000E+000	0.0000000E+000	0.0000000E+000	4.9036789E-001	1.1683958E+002	8.9509628E+001
1.0000000E+005	1.0007295E-001	1.0748759E-003	1.0007872E-001	-6.1538595E-001	9.9915581E+000	1.0731857E-001	9.9921341E+000	6.1538595E-001	1.7080307E+002	1.5902058E+004	1.5902975E+004	-8.9384613E+001	0.0000000E+000	0.0000000E+000	0.0000000E+000	8.9384613E+001	0.0000000E+000	0.0000000E+000	0.0000000E+000	-8.9384613E+001	0.0000000E+000	0.0000000E+000	0.0000000E+000	-6.1538595E-001	0.0000000E+000	0.0000000E+000	0.0000000E+000	6.1538595E-001	9.3101860E+001	8.9384613E+001
7.9432820E+004	1.0010769E-001	1.3487028E-003	1.0011677E-001	-7.7187181E-001	9.9874306E+000	1.3455585E-001	9.9883366E+000	7.7187181E-001	2.6960233E+002	2.0011234E+004	2.0013051E+004	-8.9228127E+001	0.0000000E+000	0.0000000E+000	0.0000000E+000	8.9228127E+001	0.0000000E+000	0.0000000E+000	0.0000000E+000	-8.9228127E+001	0.0000000E+000	0.0000000E+000	0.0000000E+000	-7.7187181E-001	0.0000000E+000	0.0000000E+000	0.0000000E+000	7.7187181E-001	7.4225166E+001	8.9228127E+001
6.3095734E+004	1.0016157E-001	1.6909951E-003	1.0017585E-001	-9.6721399E-001	9.9810238E+000	1.6850635E-001	9.9824457E+000	9.6721399E-001	4.2504758E+002	2.5176492E+004	2.5180080E+004	-8.9032784E+001	0.0000000E+000	0.0000000E+000	0.0000000E+000	8.9032784E+001	0.0000000E+000	0.0000000E+000	0.0000000E+000	-8.9032784E+001	0.0000000E+000	0.0000000E+000	0.0000000E+000	-9.6721399E-001	0.0000000E+000	0.0000000E+000	0.0000000E+000	9.6721399E-001	5.9232327E+001	8.9032784E+001
5.0118723E+004	1.0024537E-001	2.1173414E-003	1.0026773E-001	-1.2099979E+000	9.9710741E+000	2.1060491E-001	9.9732981E+000	1.2099979E+000	6.6878894E+002	3.1663732E+004	3.1670795E+004	-8.8790001E+001	0.0000000E+000	0.0000000E+000	0.0000000E+000	8.8790001E+001	0.0000000E+000	0.0000000E+000	0.0000000E+000	-8.8790001E+001	0.0000000E+000	0.0000000E+000	0.0000000E+000	-1.2099979E+000	0.0000000E+000	0.0000000E+000	0.0000000E+000	1.2099979E+000	4.7344925E+001	8.8790001E+001
3.9810719E+004	1.0037562E-001	2.6453503E-003	1.0041048E-001	-1.5096527E+000	9.9556627E+000	2.6237661E-001	9.9591198E+000	1.5096527E+000	1.0489259E+003	3.9800664E+004	3.9814484E+004	-8.8490349E+001	0.0000000E+000	0.0000000E+000	0.0000000E+000	8.8490349E+001	0.0000000E+000	0.0000000E+000	0.0000000E+000	-8.8490349E+001	0.0000000E+000	0.0000000E+000	0.0000000E+000	-1.5096527E+000	0.0000000E+000	0.0000000E+000	0.0000000E+000	1.5096527E+000	3.7944172E+001	8.8490349E+001
3.1622777E+004	1.0057740E-001	3.2933445E-003	1.0063130E-001	-1.8754447E+000	9.9319420E+000	3.2521528E-001	9.9372654E+000	1.8754447E+000	1.6367810E+003	4.9986684E+004	5.0013473E+004	-8.8124557E+001	0.0000000E+000	0.0000000E+000	0.0000000E+000	8.8124557E+001	0.0000000E+000	0.0000000E+000	0.0000000E+000	-8.8124557E+001	0.0000000E+000	0.0000000E+000	0.0000000E+000	-1.8754447E+000	0.0000000E+000	0.0000000E+000	0.0000000E+000	1.8754447E+000	3.0539593E+001	8.8124557E+001
2.5118865E+004	1.0088760E-001	4.0772362E-003	1.0096995E-001	-2.3142724E+000	9.8958597E+000	3.9992782E-001	9.9039373E+000	2.3142724E+000	2.5339690E+003	6.2700875E+004	6.2752059E+004	-8.7685730E+001	0.0000000E+000	0.0000000E+000	0.0000000E+000	8.7685730E+001	0.0000000E+000	0.0000000E+000	0.0000000E+000	-8.7685730E+001	0.0000000E+000	0.0000000E+000	0.0000000E+000	-2.3142724E+000	0.0000000E+000	0.0000000E+000	0.0000000E+000	2.3142724E+000	2.4744114E+001	8.7685730E+001
1.9952623E+004	1.0135823E-001	5.0042951E-003	1.0148169E-001	-2.8265328E+000	9.8420057E+000	4.8592311E-001	9.8539944E+000	2.8265328E+000	3.8760315E+003	7.8506164E+004	7.8601789E+004	-8.7173470E+001	0.0000000E+000	0.0000000E+000	0.0000000E+000	8.7173470E+001	0.0000000E+000	0.0000000E+000	0.0000000E+000	-8.7173470E+001	0.0000000E+000	0.0000000E+000	0.0000000E+000	-2.8265328E+000	0.0000000E+000	0.0000000E+000	0.0000000E+000	2.8265328E+000	2.0254246E+001	8.7173470E+001
1.5848932E+004	1.0205739E-001	6.0623838E-003	1.0223729E-001	-3.3994727E+000	9.7639561E+000	5.7999569E-001	9.7811670E+000	3.3994727E+000	5.8243198E+003	9.8049625E+004	9.8222461E+004	-8.6600525E+001	0.0000000E+000	0.0000000E+000	0.0000000E+000	8.6600525E+001	0.0000000E+000	0.0000000E+000	0.0000000E+000	-8.6600525E+001	0.0000000E+000	0.0000000E+000	0.0000000E+000	-3.3994727E+000	0.0000000E+000	0.0000000E+000	0.0000000E+000	3.3994727E+000	1.6834532E+001	8.6600525E+001
1.2589254E+004	1.0306344E-001	7.2045210E-003	1.0331495E-001	-3.9986849E+000	9.6555786E+000	6.7496115E-001	9.6791410E+000	3.9986849E+000	8.5329502E+003	1.2206705E+005	1.2236493E+005	-8.6001312E+001	0.0000000E+000	0.0000000E+000	0.0000000E+000	8.6001312E+001	0.0000000E+000	0.0000000E+000	0.0000000E+000	-8.6001312E+001	0.0000000E+000	0.0000000E+000	0.0000000E+000	-3.9986849E+000	0.0000000E+000	0.0000000E+000	0.0000000E+000	3.9986849E+000	1.4305385E+001	8.6001312E+001
1.0000000E+004	1.0444584E-001	8.3331475E-003	1.0477775E-001	-4.5616455E+000	9.5137787E+000	7.5905097E-001	9.5440111E+000	4.5616455E+000	1.2080673E+004	1.5141652E+005	1.5189767E+005	-8.5438354E+001	0.0000000E+000	0.0000000E+000	0.0000000E+000	8.5438354E+001	0.0000000E+000	0.0000000E+000	0.0000000E+000	-8.5438354E+001	0.0000000E+000	0.0000000E+000	0.0000000E+000	-4.5616455E+000	0.0000000E+000	0.0000000E+000	0.0000000E+000	4.5616455E+000	1.2533781E+001	8.5438354E+001
7.9432822E+003	1.0622904E-001	9.2969006E-003	1.0663509E-001	-5.0016398E+000	9.3420677E+000	8.1759441E-001	9.3777761E+000	5.0016398E+000	1.6381668E+004	1.8718161E+005	1.8789708E+005	-8.4998360E+001	0.0000000E+000	0.0000000E+000	0.0000000E+000	8.4998360E+001	0.0000000E+000	0.0000000E+000	0.0000000E+000	-8.4998360E+001	0.0000000E+000	0.0000000E+000	0.0000000E+000	-5.0016398E+000	0.0000000E+000	0.0000000E+000	0.0000000E+000	5.0016398E+000	1.1426286E+001	8.4998360E+001
6.3095732E+003	1.0835026E-001	9.9185100E-003	1.0880329E-001	-5.2303452E+000	9.1526308E+000	8.3784246E-001	9.1908989E+000	5.2303452E+000	2.1134043E+004	2.3086922E+005	2.3183452E+005	-8.4769653E+001	0.0000000E+000	0.0000000E+000	0.0000000E+000	8.4769653E+001	0.0000000E+000	0.0000000E+000	0.0000000E+000	-8.4769653E+001	0.0000000E+000	0.0000000E+000	0.0000000E+000	-5.2303452E+000	0.0000000E+000	0.0000000E+000	0.0000000E+000	5.2303452E+000	1.0924047E+001	8.4769653E+001
5.0118726E+003	1.1064324E-001	1.0058986E-002	1.1109954E-001	-5.1946912E+000	8.9639683E+000	8.1494761E-001	9.0009375E+000	5.1946912E+000	2.5879154E+004	2.8465606E+005	2.8583003E+005	-8.4805305E+001	0.0000000E+000	0.0000000E+000	0.0000000E+000	8.4805305E+001	0.0000000E+000	0.0000000E+000	0.0000000E+000	-8.4805305E+001	0.0000000E+000	0.0000000E+000	0.0000000E+000	-5.1946912E+000	0.0000000E+000	0.0000000E+000	0.0000000E+000	5.1946912E+000	1.0999442E+001	8.4805305E+001
3.9810718E+003	1.1287922E-001	9.6857874E-003	1.1329401E-001	-4.9043460E+000	8.7942762E+000	7.5460744E-001	8.8265924E+000	4.9043460E+000	3.0167607E+004	3.5157681E+005	3.5286872E+005	-8.5095657E+001	0.0000000E+000	0.0000000E+000	0.0000000E+000	8.5095657E+001	0.0000000E+000	0.0000000E+000	0.0000000E+000	-8.5095657E+001	0.0000000E+000	0.0000000E+000	0.0000000E+000	-4.9043460E+000	0.0000000E+000	0.0000000E+000	0.0000000E+000	4.9043460E+000	1.1654108E+001	8.5095657E+001
3.1622776E+003	1.1485141E-001	8.8907648E-003	1.1519501E-001	-4.4264970E+000	8.6550369E+000	6.6999525E-001	8.6809311E+000	4.4264970E+000	3.3720348E+004	4.3560122E+005	4.3690444E+005	-8.5573502E+001	0.0000000E+000	0.0000000E+000	0.0000000E+000	8.5573502E+001	0.0000000E+000	0.0000000E+000	0.0000000E+000	-8.5573502E+001	0.0000000E+000	0.0000000E+000	0.0000000E+000	-4.4264970E+000	0.0000000E+000	0.0000000E+000	0.0000000E+000	4.4264970E+000	1.2918057E+001	8.5573502E+001
2.5118865E+003	1.1644356E-001	7.8415694E-003	1.1670730E-001	-3.8526089E+000	8.5490808E+000	5.7571423E-001	8.5684443E+000	3.8526089E+000	3.6477660E+004	5.4167600E+005	5.4290288E+005	-8.6147392E+001	0.0000000E+000	0.0000000E+000	0.0000000E+000	8.6147392E+001	0.0000000E+000	0.0000000E+000	0.0000000E+000	-8.6147392E+001	0.0000000E+000	0.0000000E+000	0.0000000E+000	-3.8526089E+000	0.0000000E+000	0.0000000E+000	0.0000000E+000	3.8526089E+000	1.4849523E+001	8.6147392E+001
1.9952623E+003	1.1764066E-001	6.7089144E-003	1.1783180E-001	-3.2639785E+000	8.4729061E+000	4.8320031E-001	8.4866734E+000	3.2639785E+000	3.8543145E+004	6.7585344E+005	6.7695156E+005	-8.6736023E+001	0.0000000E+000	0.0000000E+000	0.0000000E+000	8.6736023E+001	0.0000000E+000	0.0000000E+000	0.0000000E+000	-8.6736023E+001	0.0000000E+000	0.0000000E+000	0.0000000E+000	-3.2639785E+000	0.0000000E+000	0.0000000E+000	0.0000000E+000	3.2639785E+000	1.7534977E+001	8.6736023E+001
1.5848932E+003	1.1849489E-001	5.6189592E-003	1.1862804E-001	-2.7148991E+000	8.4202490E+000	3.9928332E-001	8.4297104E+000	2.7148991E+000	4.0095996E+004	8.4556119E+005	8.4651131E+005	-8.7285103E+001	0.0000000E+000	0.0000000E+000	0.0000000E+000	8.7285103E+001	0.0000000E+000	0.0000000E+000	0.0000000E+000	-8.7285103E+001	0.0000000E+000	0.0000000E+000	0.0000000E+000	-2.7148991E+000	0.0000000E+000	0.0000000E+000	0.0000000E+000	2.7148991E+000	2.1088406E+001	8.7285103E+001
1.2589254E+003	1.1908371E-001	4.6429415E-003	1.1917419E-001	-2.2327676E+000	8.3847084E+000	3.2691044E-001	8.3910789E+000	2.2327676E+000	4.1328383E+004	1.0600054E+006	1.0608108E+006	-8.7767235E+001	0.0000000E+000	0.0000000E+000	0.0000000E+000	8.7767235E+001	0.0000000E+000	0.0000000E+000	0.0000000E+000	-8.7767235E+001	0.0000000E+000	0.0000000E+000	0.0000000E+000	-2.2327676E+000	0.0000000E+000	0.0000000E+000	0.0000000E+000	2.2327676E+000	2.5648333E+001	8.7767235E+001
1.0000000E+003	1.1948198E-001	3.8087689E-003	1.1954267E-001	-1.8258194E+000	8.3609667E+000	2.6652545E-001	8.3652134E+000	1.8258194E+000	4.2418883E+004	1.3306893E+006	1.3313651E+006	-8.8174179E+001	0.0000000E+000	0.0000000E+000	0.0000000E+000	8.8174179E+001	0.0000000E+000	0.0000000E+000	0.0000000E+000	-8.8174179E+001	0.0000000E+000	0.0000000E+000	0.0000000E+000	-1.8258194E+000	0.0000000E+000	0.0000000E+000	0.0000000E+000	1.8258194E+000	3.1370235E+001	8.8174179E+001
7.9432825E+002	1.1975020E-001	3.1176198E-003	1.1979078E-001	-1.4913220E+000	8.3450603E+000	2.1725830E-001	8.3478880E+000	1.4913220E+000	4.3530883E+004	1.6720514E+006	1.6726179E+006	-8.8508675E+001	0.0000000E+000	0.0000000E+000	0.0000000E+000	8.8508675E+001	0.0000000E+000	0.0000000E+000	0.0000000E+000	-8.8508675E+001	0.0000000E+000	0.0000000E+000	0.0000000E+000	-1.4913220E+000	0.0000000E+000	0.0000000E+000	0.0000000E+000	1.4913220E+000	3.8410778E+001	8.8508675E+001
6.3095734E+002	1.1993281E-001	2.5572388E-003	1.1996007E-001	-1.2214905E+000	8.3342133E+000	1.7770427E-001	8.3361073E+000	1.2214905E+000	4.4824707E+004	2.1022520E+006	2.1027298E+006	-8.8778511E+001	0.0000000E+000	0.0000000E+000	0.0000000E+000	8.8778511E+001	0.0000000E+000	0.0000000E+000	0.0000000E+000	-8.8778511E+001	0.0000000E+000	0.0000000E+000	0.0000000E+000	-1.2214905E+000	0.0000000E+000	0.0000000E+000	0.0000000E+000	1.2214905E+000	4.6899338E+001	8.8778511E+001
5.0118723E+002	1.2006068E-001	2.1103187E-003	1.2007923E-001	-1.0069901E+000	8.3265486E+000	1.4635660E-001	8.3278351E+000	1.0069901E+000	4.6476328E+004	2.6441445E+006	2.6445530E+006	-8.8993011E+001	0.0000000E+000	0.0000000E+000	0.0000000E+000	8.8993011E+001	0.0000000E+000	0.0000000E+000	0.0000000E+000	-8.8993011E+001	0.0000000E+000	0.0000000E+000	0.0000000E+000	-1.0069901E+000	0.0000000E+000	0.0000000E+000	0.0000000E+000	1.0069901E+000	5.6892204E+001	8.8993011E+001
3.9810718E+002	1.2015460E-001	1.7590176E-003	1.2016747E-001	-8.3872849E-001	8.3208275E+000	1.2181375E-001	8.3217192E+000	8.3872849E-001	4.8698676E+004	3.3264933E+006	3.3268498E+006	-8.9161270E+001	0.0000000E+000	0.0000000E+000	0.0000000E+000	8.9161270E+001	0.0000000E+000	0.0000000E+000	0.0000000E+000	-8.9161270E+001	0.0000000E+000	0.0000000E+000	0.0000000E+000	-8.3872849E-001	0.0000000E+000	0.0000000E+000	0.0000000E+000	8.3872849E-001	6.8307785E+001	8.9161270E+001
3.1622775E+002	1.2022831E-001	1.4870521E-003	1.2023751E-001	-7.0863062E-001	8.3162365E+000	1.0285994E-001	8.3168726E+000	7.0863062E-001	5.1768805E+004	4.1854965E+006	4.1858168E+006	-8.9291367E+001	0.0000000E+000	0.0000000E+000	0.0000000E+000	8.9291367E+001	0.0000000E+000	0.0000000E+000	0.0000000E+000	-8.9291367E+001	0.0000000E+000	0.0000000E+000	0.0000000E+000	-7.0863062E-001	0.0000000E+000	0.0000000E+000	0.0000000E+000	7.0863062E-001	8.0850105E+001	8.9291367E+001
2.5118864E+002	1.2029088E-001	1.2804614E-003	1.2029770E-001	-6.0987389E-001	8.3122396E+000	8.8481382E-002	8.3127108E+000	6.0987389E-001	5.6062172E+004	5.2666955E+006	5.2669940E+006	-8.9390129E+001	0.0000000E+000	0.0000000E+000	0.0000000E+000	8.9390129E+001	0.0000000E+000	0.0000000E+000	0.0000000E+000	-8.9390129E+001	0.0000000E+000	0.0000000E+000	0.0000000E+000	-6.0987389E-001	0.0000000E+000	0.0000000E+000	0.0000000E+000	6.0987389E-001	9.3943382E+001	8.9390129E+001
1.9952623E+002	1.2034832E-001	1.1277064E-003	1.2035361E-001	-5.3686601E-001	8.3084850E+000	7.7853441E-002	8.3088493E+000	5.3686601E-001	6.2100820E+004	6.6273815E+006	6.6276725E+006	-8.9463135E+001	0.0000000E+000	0.0000000E+000	0.0000000E+000	8.9463135E+001	0.0000000E+000	0.0000000E+000	0.0000000E+000	-8.9463135E+001	0.0000000E+000	0.0000000E+000	0.0000000E+000	-5.3686601E-001	0.0000000E+000	0.0000000E+000	0.0000000E+000	5.3686601E-001	1.0671955E+002	8.9463135E+001
1.5848932E+002	1.2040469E-001	1.0194794E-003	1.2040900E-001	-4.8511791E-001	8.3047295E+000	7.0317030E-002	8.3050270E+000	4.8511791E-001	7.0611930E+004	8.3396070E+006	8.3399060E+006	-8.9514885E+001	0.0000000E+000	0.0000000E+000	0.0000000E+000	8.9514885E+001	0.0000000E+000	0.0000000E+000	0.0000000E+000	-8.9514885E+001	0.0000000E+000	0.0000000E+000	0.0000000E+000	-4.8511791E-001	0.0000000E+000	0.0000000E+000	0.0000000E+000	4.8511791E-001	1.1810410E+002	8.9514885E+001
1.2589254E+002	1.2046282E-001	9.4841351E-004	1.2046655E-001	-4.5108497E-001	8.3008022E+000	6.5352887E-002	8.3010597E+000	4.5108497E-001	8.2620484E+004	1.0493979E+007	1.0494304E+007	-8.9548912E+001	0.0000000E+000	0.0000000E+000	0.0000000E+000	8.9548912E+001	0.0000000E+000	0.0000000E+000	0.0000000E+000	-8.9548912E+001	0.0000000E+000	0.0000000E+000	0.0000000E+000	-4.5108497E-001	0.0000000E+000	0.0000000E+000	0.0000000E+000	4.5108497E-001	1.2701508E+002	8.9548912E+001
1.0000000E+002	1.2052482E-001	9.0878026E-004	1.2052824E-001	-4.3201298E-001	8.2965746E+000	6.2557764E-002	8.2968102E+000	4.3201298E-001	9.9564125E+004	1.3204410E+007	1.3204785E+007	-8.9567986E+001	0.0000000E+000	0.0000000E+000	0.0000000E+000	8.9567986E+001	0.0000000E+000	0.0000000E+000	0.0000000E+000	-8.9567986E+001	0.0000000E+000	0.0000000E+000	0.0000000E+000	-4.3201298E-001	0.0000000E+000	0.0000000E+000	0.0000000E+000	4.3201298E-001	1.3262262E+002	8.9567986E+001
