EC-Lab ASCII FILE
Nb header lines : 66                          

Potentio Electrochemical Impedance Spectroscopy

Run on channel : 1 (SN 50780)
User : 
CE vs. WE compliance from -10 V to 10 V
Electrode connection : standard
Potential control : Ewe
Ewe ctrl range : min = -10.00 V, max = 10.00 V
Safety Limits :
	Do not start on E overload
Acquisition started on : 02/13/2023 18:29:28.162
Loaded Setting File :  NONE
Saved on :
	File : NoPattern_FTFF_05Fe_2MHCL_ve1cms_EIS_PCGA_01_PEIS_C01.mpr
	Directory : C:\Users\sto063\Documents\EC-Lab\Data\Baichen\Micormolding\20230213_denseNoPatternS3_FTFF\
	Host : 131.155.90.158
Device : VSP-3e (SN .003050)
Address : USB
EC-Lab for windows v11.43 (software)
Internet server v11.40 (firmware)
Command interpretor v11.40 (firmware)
Electrode material : 
Initial state : 
Electrolyte : 
Comments : 
Electrode surface area : 0.001 cm2
Characteristic mass : 0.001 g
Equivalent Weight : 0.000 g/eq.
Density : 0.000 g/cm3
Volume (V) : 0.001 cm3
Cycle Definition : Charge/Discharge alternance
Mode                Single sine         
E (V)               0.0000              
vs.                 Eoc                 
tE (h:m:s)          0:00:0.0000         
record              0                   
dI                  0.000               
unit dI             mA                  
dt (s)              0.000               
fi                  200.000             
unit fi             kHz                 
ff                  5.000               
unit ff             mHz                 
Nd                  8                   
Points              per decade          
spacing             Logarithmic         
Va (mV)             10.0                
pw                  0.10                
Na                  5                   
corr                0                   
E range min (V)     -10.000             
E range max (V)     10.000              
I Range             Auto                
Bandwidth           5                   
nc cycles           0                   
goto Ns'            0                   
nr cycles           0                   
inc. cycle          0                   

Modify on : 02/13/2023 18:29
ff                  3.000               

freq/Hz	Re(Z)/Ohm	-Im(Z)/Ohm	|Z|/Ohm	Phase(Z)/deg	time/s	<Ewe>/V	<I>/mA	Cs/uF	Cp/uF	cycle number	I Range	|Ewe|/V	|I|/A	Ns	(Q-Qo)/mA.h	Re(Y)/Ohm-1	Im(Y)/Ohm-1	|Y|/Ohm-1	Phase(Y)/deg	Re(C)/nF	Im(C)/nF	|C|/nF	Phase(C)/deg	Re(M)	Im(M)	|M|	Phase(M)/deg	Re(Permittivity)	Im(Permittivity)	|Permittivity|	Phase(Permittivity)/deg	Re(Resistivity)/Ohm.cm	Im(Resistivity)/Ohm.cm	|Resistivity|/Ohm.cm	Phase(Resistivity)/deg	Re(Conductivity)/mS/cm	Im(Conductivity)/mS/cm	|Conductivity|/mS/cm	Phase(Conductivity)/deg	Tan(Delta)	Loss Angle(Delta)/deg	dq/mA.h	
1.9999814E+005	1.9668688E-001	-1.4774559E-001	2.4599694E-001	3.6912834E+001	1.739476535905851E+000	-5.4144819E-004	-2.1637845E+000	-5.3861647E+000	-1.9428949E+000	1.000000000000000E+000	9	1.0064766E-003	4.0914193E-003	0	-8.907047752638141E-004	3.2502441E+000	-2.4414911E+000	4.0650911E+000	-3.6912834E+001	-1.9428950E+003	2.5864863E+003	3.2349270E+003	-1.2691283E+002	0.0000000E+000	0.0000000E+000	0.0000000E+000	1.2691283E+002	0.0000000E+000	0.0000000E+000	0.0000000E+000	-1.2691283E+002	0.0000000E+000	0.0000000E+000	0.0000000E+000	3.6912834E+001	0.0000000E+000	0.0000000E+000	0.0000000E+000	-3.6912834E+001	-1.3312538E+000	-3.6912834E+001	-8.907047752638141E-004
1.4939319E+005	2.0495817E-001	-1.0886128E-001	2.3207462E-001	2.7974516E+001	2.563498201750917E+000	-5.4912310E-004	-1.9551260E+000	-9.7862406E+000	-2.1533146E+000	1.000000000000000E+000	9	1.9963603E-003	8.6022345E-003	0	-1.346962269680626E-003	3.8054843E+000	-2.0212414E+000	4.3089590E+000	-2.7974516E+001	-2.1533149E+003	4.0541450E+003	4.5905181E+003	-1.1797452E+002	0.0000000E+000	0.0000000E+000	0.0000000E+000	1.1797452E+002	0.0000000E+000	0.0000000E+000	0.0000000E+000	-1.1797452E+002	0.0000000E+000	0.0000000E+000	0.0000000E+000	2.7974516E+001	0.0000000E+000	0.0000000E+000	0.0000000E+000	-2.7974516E+001	-1.8827462E+000	-2.7974516E+001	-4.562574944168122E-004
1.1159256E+005	2.0781140E-001	-7.9951413E-002	2.2266075E-001	2.1043262E+001	3.387481867539464E+000	-5.7389896E-004	-1.8565594E+000	-1.7838516E+001	-2.2999780E+000	1.000000000000000E+000	9	5.0083115E-003	2.2493014E-002	0	-1.797308011282856E-003	4.1916218E+000	-1.6126451E+000	4.4911375E+000	-2.1043262E+001	-2.2999775E+003	5.9781514E+003	6.4053252E+003	-1.1104326E+002	0.0000000E+000	0.0000000E+000	0.0000000E+000	1.1104326E+002	0.0000000E+000	0.0000000E+000	0.0000000E+000	-1.1104326E+002	0.0000000E+000	0.0000000E+000	0.0000000E+000	2.1043262E+001	0.0000000E+000	0.0000000E+000	0.0000000E+000	-2.1043262E+001	-2.5992210E+000	-2.1043262E+001	-4.503457416022299E-004
8.3358078E+004	2.0846143E-001	-5.7898138E-002	2.1635240E-001	1.5522118E+001	4.348477993189590E+000	-5.6775112E-004	-1.7535149E+000	-3.2976749E+001	-2.3616395E+000	1.000000000000000E+000	9	2.3478819E-002	1.0852119E-001	0	-2.324893452869935E-003	4.4535084E+000	-1.2369188E+000	4.6220889E+000	-1.5522118E+001	-2.3616396E+003	8.5030498E+003	8.8249189E+003	-1.0552212E+002	0.0000000E+000	0.0000000E+000	0.0000000E+000	1.0552212E+002	0.0000000E+000	0.0000000E+000	0.0000000E+000	-1.0552212E+002	0.0000000E+000	0.0000000E+000	0.0000000E+000	1.5522118E+001	0.0000000E+000	0.0000000E+000	0.0000000E+000	-1.5522118E+001	-3.6004860E+000	-1.5522118E+001	-5.275854415870791E-004
6.2258758E+004	2.0904630E-001	-4.1904885E-002	2.1320501E-001	1.1335131E+001	6.405494277569233E+000	-4.7345369E-004	-1.2416617E+000	-6.1003540E+001	-2.3566198E+000	1.000000000000000E+000	9	1.2428468E-002	5.8293510E-002	0	-2.928073699202803E-003	4.5988336E+000	-9.2187035E-001	4.6903214E+000	-1.1335131E+001	-2.3566191E+003	1.1756210E+004	1.1990085E+004	-1.0133513E+002	0.0000000E+000	0.0000000E+000	0.0000000E+000	1.0133513E+002	0.0000000E+000	0.0000000E+000	0.0000000E+000	-1.0133513E+002	0.0000000E+000	0.0000000E+000	0.0000000E+000	1.1335131E+001	0.0000000E+000	0.0000000E+000	0.0000000E+000	-1.1335131E+001	-4.9885902E+000	-1.1335131E+001	-6.031802463328673E-004
4.6782215E+004	2.0998631E-001	-3.0171461E-002	2.1214281E-001	8.1764679E+000	7.503490863047773E+000	-4.2867076E-004	-1.0381513E+000	-1.1275687E+002	-2.2807574E+000	1.000000000000000E+000	9	9.3184933E-003	4.3925568E-002	0	-3.247727192942622E-003	4.6658888E+000	-6.7040879E-001	4.7138057E+000	-8.1764679E+000	-2.2807571E+003	1.5873537E+004	1.6036553E+004	-9.8176468E+001	0.0000000E+000	0.0000000E+000	0.0000000E+000	9.8176468E+001	0.0000000E+000	0.0000000E+000	0.0000000E+000	-9.8176468E+001	0.0000000E+000	0.0000000E+000	0.0000000E+000	8.1764679E+000	0.0000000E+000	0.0000000E+000	0.0000000E+000	-8.1764679E+000	-6.9597659E+000	-8.1764679E+000	-3.196534937398195E-004
3.4989234E+004	2.1075028E-001	-2.0916551E-002	2.1178570E-001	5.6679320E+000	8.327473888843087E+000	-4.1058243E-004	-9.4674665E-001	-2.1746812E+002	-2.1212044E+000	1.000000000000000E+000	9	9.2746727E-003	4.3792725E-002	0	-3.403830892407646E-003	4.6986694E+000	-4.6633369E-001	4.7217541E+000	-5.6679320E+000	-2.1212039E+003	2.1372762E+004	2.1477766E+004	-9.5667931E+001	0.0000000E+000	0.0000000E+000	0.0000000E+000	9.5667931E+001	0.0000000E+000	0.0000000E+000	0.0000000E+000	-9.5667931E+001	0.0000000E+000	0.0000000E+000	0.0000000E+000	5.6679320E+000	0.0000000E+000	0.0000000E+000	0.0000000E+000	-5.6679320E+000	-1.0075767E+001	-5.6679320E+000	-1.561036994650235E-004
2.6165383E+004	2.1189249E-001	-1.4008710E-002	2.1235506E-001	3.7824543E+000	9.151482461282285E+000	-4.0149168E-004	-9.0071797E-001	-4.3420508E+002	-1.8895829E+000	1.000000000000000E+000	9	9.9147670E-003	4.6689574E-002	0	-3.652913138149203E-003	4.6988363E+000	-3.1065112E-001	4.7090940E+000	-3.7824543E+000	-1.8895836E+003	2.8581393E+004	2.8643787E+004	-9.3782455E+001	0.0000000E+000	0.0000000E+000	0.0000000E+000	9.3782455E+001	0.0000000E+000	0.0000000E+000	0.0000000E+000	-9.3782455E+001	0.0000000E+000	0.0000000E+000	0.0000000E+000	3.7824543E+000	0.0000000E+000	0.0000000E+000	0.0000000E+000	-3.7824543E+000	-1.5125767E+001	-3.7824543E+000	-2.490822457415572E-004
1.9568363E+004	2.1312022E-001	-8.8679111E-003	2.1330464E-001	2.3826971E+000	9.975488473806763E+000	-3.9681591E-004	-8.7617421E-001	-9.1715826E+002	-1.5852083E+000	1.000000000000000E+000	9	1.0293727E-002	4.8258334E-002	0	-3.858191190492776E-003	4.6840773E+000	-1.9490397E-001	4.6881304E+000	-2.3826971E+000	-1.5852090E+003	3.8096906E+004	3.8129871E+004	-9.2382698E+001	0.0000000E+000	0.0000000E+000	0.0000000E+000	9.2382698E+001	0.0000000E+000	0.0000000E+000	0.0000000E+000	-9.2382698E+001	0.0000000E+000	0.0000000E+000	0.0000000E+000	2.3826971E+000	0.0000000E+000	0.0000000E+000	0.0000000E+000	-2.3826971E+000	-2.4032742E+001	-2.3826971E+000	-2.052780523435728E-004
1.4632197E+004	2.1419415E-001	-5.1264144E-003	2.1425548E-001	1.3710265E+000	1.079947632623953E+001	-3.9238230E-004	-8.6295110E-001	-2.1217632E+003	-1.2146759E+000	1.000000000000000E+000	9	1.0472341E-002	4.8877824E-002	0	-4.066404825162764E-003	4.6659889E+000	-1.1167342E-001	4.6673250E+000	-1.3710265E+000	-1.2146747E+003	5.0752133E+004	5.0766668E+004	-9.1371025E+001	0.0000000E+000	0.0000000E+000	0.0000000E+000	9.1371025E+001	0.0000000E+000	0.0000000E+000	0.0000000E+000	-9.1371025E+001	0.0000000E+000	0.0000000E+000	0.0000000E+000	1.3710265E+000	0.0000000E+000	0.0000000E+000	0.0000000E+000	-1.3710265E+000	-4.1782448E+001	-1.3710265E+000	-2.082136346699881E-004
1.0939354E+004	2.1558122E-001	-2.3848442E-003	2.1559441E-001	6.3380259E-001	1.162348663204466E+001	-3.9748650E-004	-8.5968733E-001	-6.1005420E+003	-7.4647188E-001	1.000000000000000E+000	9	1.0491127E-002	4.8661407E-002	0	-4.337076049379798E-003	4.6380553E+000	-5.1307991E-002	4.6383390E+000	-6.3380259E-001	-7.4647400E+002	6.7478344E+004	6.7482469E+004	-9.0633804E+001	0.0000000E+000	0.0000000E+000	0.0000000E+000	9.0633804E+001	0.0000000E+000	0.0000000E+000	0.0000000E+000	-9.0633804E+001	0.0000000E+000	0.0000000E+000	0.0000000E+000	6.3380259E-001	0.0000000E+000	0.0000000E+000	0.0000000E+000	-6.3380259E-001	-9.0396355E+001	-6.3380259E-001	-2.706712242170339E-004
8.1792080E+003	2.1649048E-001	-3.1085368E-004	2.1649070E-001	8.2269631E-002	1.254113835564931E+001	-3.9135769E-004	-8.0894017E-001	-6.2596906E+004	-1.2905844E-001	1.000000000000000E+000	9	1.0349769E-002	4.7806993E-002	0	-4.574981861600859E-003	4.6191311E+000	-6.6325036E-003	4.6191359E+000	-8.2269631E-002	-1.2905550E+002	8.9881266E+004	8.9881359E+004	-9.0082268E+001	0.0000000E+000	0.0000000E+000	0.0000000E+000	9.0082268E+001	0.0000000E+000	0.0000000E+000	0.0000000E+000	-9.0082268E+001	0.0000000E+000	0.0000000E+000	0.0000000E+000	8.2269631E-002	0.0000000E+000	0.0000000E+000	0.0000000E+000	-8.2269631E-002	-6.9643854E+002	-8.2269631E-002	-2.379058122210613E-004
6.1213794E+003	2.1772952E-001	1.0982173E-003	2.1773230E-001	-2.8899473E-001	1.369266630372294E+001	-4.0806751E-004	-8.0353153E-001	2.3674596E+004	6.0230076E-001	1.000000000000000E+000	9	1.0284627E-002	4.7235191E-002	0	-4.789640901256767E-003	4.5927372E+000	2.3165548E-002	4.5927958E+000	2.8899473E-001	6.0229895E+002	1.1941049E+005	1.1941201E+005	-8.9711006E+001	0.0000000E+000	0.0000000E+000	0.0000000E+000	8.9711006E+001	0.0000000E+000	0.0000000E+000	0.0000000E+000	-8.9711006E+001	0.0000000E+000	0.0000000E+000	0.0000000E+000	-2.8899473E-001	0.0000000E+000	0.0000000E+000	0.0000000E+000	2.8899473E-001	1.9825723E+002	2.8899473E-001	-2.146590396559078E-004
4.5764648E+003	2.1882498E-001	2.1225719E-003	2.1883528E-001	-5.5574369E-001	1.503068964727572E+001	-3.8306799E-004	-7.3844236E-001	1.6384289E+004	1.5414084E+000	1.000000000000000E+000	9	1.0167051E-002	4.6459835E-002	0	-5.107644939518637E-003	4.5694323E+000	4.4322859E-002	4.5696473E+000	5.5574369E-001	1.5413993E+003	1.5891038E+005	1.5891784E+005	-8.9444260E+001	0.0000000E+000	0.0000000E+000	0.0000000E+000	8.9444260E+001	0.0000000E+000	0.0000000E+000	0.0000000E+000	-8.9444260E+001	0.0000000E+000	0.0000000E+000	0.0000000E+000	-5.5574369E-001	0.0000000E+000	0.0000000E+000	0.0000000E+000	5.5574369E-001	1.0309426E+002	5.5574369E-001	-3.180040382618704E-004
3.4210947E+003	2.1993946E-001	2.7360038E-003	2.1995647E-001	-7.1271157E-001	1.614670596695214E+001	-3.8310525E-004	-7.3391032E-001	1.7003500E+004	2.6308630E+000	1.000000000000000E+000	9	1.0776261E-002	4.8992697E-002	0	-5.348508706139504E-003	4.5460019E+000	5.6551382E-002	4.5463538E+000	7.1271157E-001	2.6308762E+003	2.1148748E+005	2.1150384E+005	-8.9287285E+001	0.0000000E+000	0.0000000E+000	0.0000000E+000	8.9287285E+001	0.0000000E+000	0.0000000E+000	0.0000000E+000	-8.9287285E+001	0.0000000E+000	0.0000000E+000	0.0000000E+000	-7.1271157E-001	0.0000000E+000	0.0000000E+000	0.0000000E+000	7.1271157E-001	8.0387115E+001	7.1271157E-001	-2.408637666208666E-004
2.5708225E+003	2.2090174E-001	3.0108949E-003	2.2092226E-001	-7.8089422E-001	1.748368056378968E+001	-3.9204696E-004	-7.7492213E-001	2.0561389E+004	3.8191321E+000	1.000000000000000E+000	9	1.0212833E-002	4.6228174E-002	0	-5.659053682073951E-003	4.5260587E+000	6.1690267E-002	4.5264792E+000	7.8089422E-001	3.8191187E+003	2.8020006E+005	2.8022609E+005	-8.9219109E+001	0.0000000E+000	0.0000000E+000	0.0000000E+000	8.9219109E+001	0.0000000E+000	0.0000000E+000	0.0000000E+000	-8.9219109E+001	0.0000000E+000	0.0000000E+000	0.0000000E+000	-7.8089422E-001	0.0000000E+000	0.0000000E+000	0.0000000E+000	7.8089422E-001	7.3367470E+001	7.8089422E-001	-3.105449759344472E-004
1.9131631E+003	2.2184435E-001	3.1907628E-003	2.2186729E-001	-8.2402211E-001	1.859992264345055E+001	-3.8388764E-004	-7.4735719E-001	2.6071955E+004	5.3923254E+000	1.000000000000000E+000	9	1.0410918E-002	4.6924077E-002	0	-5.895073425422526E-003	4.5067325E+000	6.4819843E-002	4.5071988E+000	8.2402211E-001	5.3923145E+003	3.7491250E+005	3.7495128E+005	-8.9175980E+001	0.0000000E+000	0.0000000E+000	0.0000000E+000	8.9175980E+001	0.0000000E+000	0.0000000E+000	0.0000000E+000	-8.9175980E+001	0.0000000E+000	0.0000000E+000	0.0000000E+000	-8.2402211E-001	0.0000000E+000	0.0000000E+000	0.0000000E+000	8.2402211E-001	6.9527054E+001	8.2402211E-001	-2.360197433485750E-004
1.4322919E+003	2.2256294E-001	3.1876545E-003	2.2258577E-001	-8.2056189E-001	1.971542008305551E+001	-3.8753884E-004	-7.5159079E-001	3.4859195E+004	7.1493254E+000	1.000000000000000E+000	9	1.0515417E-002	4.7242090E-002	0	-6.118510298403187E-003	4.4921894E+000	6.4339317E-002	4.4926500E+000	8.2056189E-001	7.1493462E+003	4.9916794E+005	4.9921913E+005	-8.9179436E+001	0.0000000E+000	0.0000000E+000	0.0000000E+000	8.9179436E+001	0.0000000E+000	0.0000000E+000	0.0000000E+000	-8.9179436E+001	0.0000000E+000	0.0000000E+000	0.0000000E+000	-8.2056189E-001	0.0000000E+000	0.0000000E+000	0.0000000E+000	8.2056189E-001	6.9820282E+001	8.2056189E-001	-2.234368729806613E-004
1.0703425E+003	2.2321750E-001	3.1600653E-003	2.2323987E-001	-8.1107581E-001	2.083068880275823E+001	-3.8744570E-004	-7.6061743E-001	4.7054516E+004	9.4286575E+000	1.000000000000000E+000	9	1.0570651E-002	4.7351088E-002	0	-6.312365907314130E-003	4.4790378E+000	6.3409239E-002	4.4794865E+000	8.1107581E-001	9.4286289E+003	6.6601200E+005	6.6607875E+005	-8.9188927E+001	0.0000000E+000	0.0000000E+000	0.0000000E+000	8.9188927E+001	0.0000000E+000	0.0000000E+000	0.0000000E+000	-8.9188927E+001	0.0000000E+000	0.0000000E+000	0.0000000E+000	-8.1107581E-001	0.0000000E+000	0.0000000E+000	0.0000000E+000	8.1107581E-001	7.0636993E+001	8.1107581E-001	-1.938556089109431E-004
8.0025592E+002	2.2395405E-001	3.1475555E-003	2.2397617E-001	-8.0520880E-001	2.194671336243482E+001	-4.0484476E-004	-7.5198239E-001	6.3185559E+004	1.2478461E+001	1.000000000000000E+000	9	1.0607075E-002	4.7358051E-002	0	-6.500383446042530E-003	4.4643197E+000	6.2743649E-002	4.4647608E+000	8.0520880E-001	1.2478422E+004	8.8786419E+005	8.8795188E+005	-8.9194794E+001	0.0000000E+000	0.0000000E+000	0.0000000E+000	8.9194794E+001	0.0000000E+000	0.0000000E+000	0.0000000E+000	-8.9194794E+001	0.0000000E+000	0.0000000E+000	0.0000000E+000	-8.0520880E-001	0.0000000E+000	0.0000000E+000	0.0000000E+000	8.0520880E-001	7.1151741E+001	8.0520880E-001	-1.880175387283991E-004
5.9865900E+002	2.2453226E-001	2.9976796E-003	2.2455227E-001	-7.6489758E-001	2.306619013557793E+001	-3.8420435E-004	-7.3073983E-001	8.8686070E+004	1.5804870E+001	1.000000000000000E+000	9	1.0623788E-002	4.7310982E-002	0	-6.719030038795123E-003	4.4529095E+000	5.9449788E-002	4.4533062E+000	7.6489758E-001	1.5804923E+004	1.1838166E+006	1.1839221E+006	-8.9235100E+001	0.0000000E+000	0.0000000E+000	0.0000000E+000	8.9235100E+001	0.0000000E+000	0.0000000E+000	0.0000000E+000	-8.9235100E+001	0.0000000E+000	0.0000000E+000	0.0000000E+000	-7.6489758E-001	0.0000000E+000	0.0000000E+000	0.0000000E+000	7.6489758E-001	7.4902023E+001	7.6489758E-001	-2.186465927525938E-004
4.4785031E+002	2.2498648E-001	2.9708662E-003	2.2500609E-001	-7.5652635E-001	2.418671546882979E+001	-3.8720353E-004	-7.4584657E-001	1.1962010E+005	2.0853636E+001	1.000000000000000E+000	9	1.0628875E-002	4.7238167E-002	0	-6.977697902918690E-003	4.4439368E+000	5.8680598E-002	4.4443240E+000	7.5652635E-001	2.0853549E+004	1.5792655E+006	1.5794031E+006	-8.9243477E+001	0.0000000E+000	0.0000000E+000	0.0000000E+000	8.9243477E+001	0.0000000E+000	0.0000000E+000	0.0000000E+000	-8.9243477E+001	0.0000000E+000	0.0000000E+000	0.0000000E+000	-7.5652635E-001	0.0000000E+000	0.0000000E+000	0.0000000E+000	7.5652635E-001	7.5730934E+001	7.5652635E-001	-2.586678641235667E-004
3.3467871E+002	2.2554530E-001	3.0435571E-003	2.2556584E-001	-7.7311474E-001	2.530295754849794E+001	-3.9404022E-004	-7.4470884E-001	1.5624659E+005	2.8446369E+001	1.000000000000000E+000	9	1.0637101E-002	4.7157411E-002	0	-7.211971454228999E-003	4.4328918E+000	5.9818402E-002	4.4332952E+000	7.7311474E-001	2.8446455E+004	2.1080415E+006	2.1082335E+006	-8.9226883E+001	0.0000000E+000	0.0000000E+000	0.0000000E+000	8.9226883E+001	0.0000000E+000	0.0000000E+000	0.0000000E+000	-8.9226883E+001	0.0000000E+000	0.0000000E+000	0.0000000E+000	-7.7311474E-001	0.0000000E+000	0.0000000E+000	0.0000000E+000	7.7311474E-001	7.4105827E+001	7.7311474E-001	-2.342735513103092E-004
2.5040062E+002	2.2597837E-001	3.1284778E-003	2.2600003E-001	-7.9316050E-001	2.641844941480667E+001	-3.8984878E-004	-7.3210132E-001	2.0316630E+005	3.8931473E+001	1.000000000000000E+000	9	1.0638045E-002	4.7070991E-002	0	-7.462296833995937E-003	4.4243546E+000	6.1251413E-002	4.4247785E+000	7.9316050E-001	3.8931426E+004	2.8121253E+006	2.8123948E+006	-8.9206841E+001	0.0000000E+000	0.0000000E+000	0.0000000E+000	8.9206841E+001	0.0000000E+000	0.0000000E+000	0.0000000E+000	-8.9206841E+001	0.0000000E+000	0.0000000E+000	0.0000000E+000	-7.9316050E-001	0.0000000E+000	0.0000000E+000	0.0000000E+000	7.9316050E-001	7.2232689E+001	7.9316050E-001	-2.503253797669375E-004
1.8721666E+002	2.2651604E-001	3.0916096E-003	2.2653714E-001	-7.8195429E-001	2.752239226721576E+001	-3.9623838E-004	-7.4834567E-001	2.7497359E+005	5.1213146E+001	1.000000000000000E+000	9	1.0641250E-002	4.6973534E-002	0	-7.682792660876488E-003	4.4138761E+000	6.0242895E-002	4.4142871E+000	7.8195429E-001	5.1212992E+004	3.7522845E+006	3.7526340E+006	-8.9218048E+001	0.0000000E+000	0.0000000E+000	0.0000000E+000	8.9218048E+001	0.0000000E+000	0.0000000E+000	0.0000000E+000	-8.9218048E+001	0.0000000E+000	0.0000000E+000	0.0000000E+000	-7.8195429E-001	0.0000000E+000	0.0000000E+000	0.0000000E+000	7.8195429E-001	7.3267998E+001	7.8195429E-001	-2.204958268805512E-004
1.4004485E+002	2.2694366E-001	3.4383917E-003	2.2696970E-001	-8.6801398E-001	2.863769498690817E+001	-4.0437904E-004	-7.3846108E-001	3.3051994E+005	7.5852966E+001	1.000000000000000E+000	9	1.0638371E-002	4.6871327E-002	0	-7.943582371831147E-003	4.4053688E+000	6.6745125E-002	4.4058743E+000	8.6801398E-001	7.5852758E+004	5.0065125E+006	5.0070870E+006	-8.9131989E+001	0.0000000E+000	0.0000000E+000	0.0000000E+000	8.9131989E+001	0.0000000E+000	0.0000000E+000	0.0000000E+000	-8.9131989E+001	0.0000000E+000	0.0000000E+000	0.0000000E+000	-8.6801398E-001	0.0000000E+000	0.0000000E+000	0.0000000E+000	8.6801398E-001	6.6002853E+001	8.6801398E-001	-2.607897109546588E-004
