EC-Lab ASCII FILE
Nb header lines : 66                          

Potentio Electrochemical Impedance Spectroscopy

Run on channel : 1 (SN 50780)
User : 
CE vs. WE compliance from -10 V to 10 V
Electrode connection : standard
Potential control : Ewe
Ewe ctrl range : min = -10.00 V, max = 10.00 V
Safety Limits :
	Do not start on E overload
Acquisition started on : 02/13/2023 17:02:43.459
Loaded Setting File :  C:\Users\sto063\Documents\EC-Lab\Data\Baichen\Micormolding\20230213_denseNoPatternS3_FTFF\NoPattern_FTFF_05Fe_2MHCL_ve10cms_EIS_PCGA.mps
Saved on :
	File : NoPattern_FTFF_05Fe_2MHCL_ve2cms_EIS_PCGA_01_PEIS_C01.mpr
	Directory : C:\Users\sto063\Documents\EC-Lab\Data\Baichen\Micormolding\20230213_denseNoPatternS3_FTFF\
	Host : 131.155.90.158
Device : VSP-3e (SN .003050)
Address : USB
EC-Lab for windows v11.43 (software)
Internet server v11.40 (firmware)
Command interpretor v11.40 (firmware)
Electrode material : 
Initial state : 
Electrolyte : 
Comments : 
Electrode surface area : 0.001 cm2
Characteristic mass : 0.001 g
Equivalent Weight : 0.000 g/eq.
Density : 0.000 g/cm3
Volume (V) : 0.001 cm3
Cycle Definition : Charge/Discharge alternance
Mode                Single sine         
E (V)               0.0000              
vs.                 Eoc                 
tE (h:m:s)          0:00:0.0000         
record              0                   
dI                  0.000               
unit dI             mA                  
dt (s)              0.000               
fi                  200.000             
unit fi             kHz                 
ff                  4.000               
unit ff             mHz                 
Nd                  8                   
Points              per decade          
spacing             Logarithmic         
Va (mV)             10.0                
pw                  0.10                
Na                  5                   
corr                0                   
E range min (V)     -10.000             
E range max (V)     10.000              
I Range             Auto                
Bandwidth           5                   
nc cycles           0                   
goto Ns'            0                   
nr cycles           0                   
inc. cycle          0                   

Modify on : 02/13/2023 17:02
ff                  5.000               

freq/Hz	Re(Z)/Ohm	-Im(Z)/Ohm	|Z|/Ohm	Phase(Z)/deg	time/s	<Ewe>/V	<I>/mA	Cs/uF	Cp/uF	cycle number	I Range	|Ewe|/V	|I|/A	Ns	(Q-Qo)/mA.h	Re(Y)/Ohm-1	Im(Y)/Ohm-1	|Y|/Ohm-1	Phase(Y)/deg	Re(C)/nF	Im(C)/nF	|C|/nF	Phase(C)/deg	Re(M)	Im(M)	|M|	Phase(M)/deg	Re(Permittivity)	Im(Permittivity)	|Permittivity|	Phase(Permittivity)/deg	Re(Resistivity)/Ohm.cm	Im(Resistivity)/Ohm.cm	|Resistivity|/Ohm.cm	Phase(Resistivity)/deg	Re(Conductivity)/mS/cm	Im(Conductivity)/mS/cm	|Conductivity|/mS/cm	Phase(Conductivity)/deg	Tan(Delta)	Loss Angle(Delta)/deg	dq/mA.h	
1.9999814E+005	1.8902992E-001	-1.4768429E-001	2.3988113E-001	3.7999611E+001	1.739493549248436E+000	-4.9668376E-004	-2.2865775E+000	-5.3884006E+000	-2.0423789E+000	1.000000000000000E+000	9	9.6663350E-004	4.0296353E-003	0	-9.621589712309457E-004	3.2850225E+000	-2.5665050E+000	4.1687312E+000	-3.7999611E+001	-2.0423788E+003	2.6141621E+003	3.3174019E+003	-1.2799961E+002	0.0000000E+000	0.0000000E+000	0.0000000E+000	1.2799961E+002	0.0000000E+000	0.0000000E+000	0.0000000E+000	-1.2799961E+002	0.0000000E+000	0.0000000E+000	0.0000000E+000	3.7999611E+001	0.0000000E+000	0.0000000E+000	0.0000000E+000	-3.7999611E+001	-1.2799596E+000	-3.7999611E+001	-9.621589712309457E-004
1.4956020E+005	1.9757187E-001	-1.0898554E-001	2.2563797E-001	2.8882217E+001	2.563475721719442E+000	-5.0888542E-004	-2.1182406E+000	-9.7641668E+000	-2.2779732E+000	1.000000000000000E+000	9	1.9050855E-003	8.4431069E-003	0	-1.460496587787341E-003	3.8806167E+000	-2.1406443E+000	4.4318781E+000	-2.8882217E+001	-2.2779731E+003	4.1295703E+003	4.7161968E+003	-1.1888222E+002	0.0000000E+000	0.0000000E+000	0.0000000E+000	1.1888222E+002	0.0000000E+000	0.0000000E+000	0.0000000E+000	-1.1888222E+002	0.0000000E+000	0.0000000E+000	0.0000000E+000	2.8882217E+001	0.0000000E+000	0.0000000E+000	0.0000000E+000	-2.8882217E+001	-1.8128264E+000	-2.8882217E+001	-4.983376165563952E-004
1.1184308E+005	2.0124738E-001	-8.0214061E-002	2.1664442E-001	2.1731455E+001	3.387488560896600E+000	-5.2410486E-004	-2.0174174E+000	-1.7740282E+001	-2.4320164E+000	1.000000000000000E+000	9	4.7868756E-003	2.2095541E-002	0	-1.939136135931644E-003	4.2878070E+000	-1.7090529E+000	4.6158586E+000	-2.1731455E+001	-2.4320166E+003	6.1016353E+003	6.5684595E+003	-1.1173145E+002	0.0000000E+000	0.0000000E+000	0.0000000E+000	1.1173145E+002	0.0000000E+000	0.0000000E+000	0.0000000E+000	-1.1173145E+002	0.0000000E+000	0.0000000E+000	0.0000000E+000	2.1731455E+001	0.0000000E+000	0.0000000E+000	0.0000000E+000	-2.1731455E+001	-2.5088792E+000	-2.1731455E+001	-4.786395481443033E-004
8.3636430E+004	2.0177138E-001	-5.8274873E-002	2.1001822E-001	1.6109581E+001	4.348482473200420E+000	-5.4362719E-004	-1.9630499E+000	-3.2654522E+001	-2.5141549E+000	1.000000000000000E+000	9	2.2454841E-002	1.0691854E-001	0	-2.605361456034498E-003	4.5745211E+000	-1.3211964E+000	4.7614918E+000	-1.6109581E+001	-2.5141548E+003	8.7050303E+003	9.0608232E+003	-1.0610958E+002	0.0000000E+000	0.0000000E+000	0.0000000E+000	1.0610958E+002	0.0000000E+000	0.0000000E+000	0.0000000E+000	-1.0610958E+002	0.0000000E+000	0.0000000E+000	0.0000000E+000	1.6109581E+001	0.0000000E+000	0.0000000E+000	0.0000000E+000	-1.6109581E+001	-3.4624078E+000	-1.6109581E+001	-6.662253201028538E-004
6.2258758E+004	2.0226301E-001	-4.2339928E-002	2.0664704E-001	1.1823064E+001	6.405482224217849E+000	-4.4331269E-004	-1.5133203E+000	-6.0376724E+001	-2.5346117E+000	1.000000000000000E+000	9	1.2064805E-002	5.8383636E-002	0	-3.256776941995136E-003	4.7365065E+000	-9.9149776E-001	4.8391695E+000	-1.1823064E+001	-2.5346121E+003	1.2108149E+004	1.2370592E+004	-1.0182307E+002	0.0000000E+000	0.0000000E+000	0.0000000E+000	1.0182307E+002	0.0000000E+000	0.0000000E+000	0.0000000E+000	-1.0182307E+002	0.0000000E+000	0.0000000E+000	0.0000000E+000	1.1823064E+001	0.0000000E+000	0.0000000E+000	0.0000000E+000	-1.1823064E+001	-4.7771220E+000	-1.1823064E+001	-6.514154859606383E-004
4.6503859E+004	2.0307195E-001	-3.0157588E-002	2.0529905E-001	8.4470816E+000	7.503493609692669E+000	-4.1348848E-004	-1.3358083E+000	-1.1348396E+002	-2.4488029E+000	1.000000000000000E+000	9	9.4223544E-003	4.5895752E-002	0	-3.906021253335600E-003	4.8181028E+000	-7.1552151E-001	4.8709431E+000	-8.4470816E+000	-2.4488032E+003	1.6489490E+004	1.6670330E+004	-9.8447083E+001	0.0000000E+000	0.0000000E+000	0.0000000E+000	9.8447083E+001	0.0000000E+000	0.0000000E+000	0.0000000E+000	-9.8447083E+001	0.0000000E+000	0.0000000E+000	0.0000000E+000	8.4470816E+000	0.0000000E+000	0.0000000E+000	0.0000000E+000	-8.4470816E+000	-6.7336931E+000	-8.4470816E+000	-6.492443113404640E-004
3.4738715E+004	2.0411579E-001	-2.1046486E-002	2.0519798E-001	5.8869939E+000	8.327483142173151E+000	-3.9823170E-004	-1.2521435E+000	-2.1768414E+002	-2.2900229E+000	1.000000000000000E+000	9	9.3538212E-003	4.5584373E-002	0	-4.235501265846400E-003	4.8476410E+000	-4.9984285E-001	4.8733425E+000	-5.8869939E+000	-2.2900229E+003	2.2209402E+004	2.2327152E+004	-9.5886993E+001	0.0000000E+000	0.0000000E+000	0.0000000E+000	9.5886993E+001	0.0000000E+000	0.0000000E+000	0.0000000E+000	-9.5886993E+001	0.0000000E+000	0.0000000E+000	0.0000000E+000	5.8869939E+000	0.0000000E+000	0.0000000E+000	0.0000000E+000	-5.8869939E+000	-9.6983318E+000	-5.8869939E+000	-3.294800125107993E-004
2.5951973E+004	2.0499995E-001	-1.4217059E-002	2.0549235E-001	3.9671977E+000	9.151491634635022E+000	-3.8645844E-004	-1.2359551E+000	-4.3136011E+002	-2.0647535E+000	1.000000000000000E+000	9	9.9230353E-003	4.8289075E-002	0	-4.484134699544973E-003	4.8547006E+000	-3.3668089E-001	4.8663611E+000	-3.9671977E+000	-2.0647556E+003	2.9772289E+004	2.9843801E+004	-9.3967201E+001	0.0000000E+000	0.0000000E+000	0.0000000E+000	9.3967201E+001	0.0000000E+000	0.0000000E+000	0.0000000E+000	-9.3967201E+001	0.0000000E+000	0.0000000E+000	0.0000000E+000	3.9671977E+000	0.0000000E+000	0.0000000E+000	0.0000000E+000	-3.9671977E+000	-1.4419293E+001	-3.9671977E+000	-2.486334336985734E-004
1.9382795E+004	2.0604959E-001	-9.0493038E-003	2.0624821E-001	2.5147052E+000	9.975497967127012E+000	-3.9035181E-004	-1.2320385E+000	-9.0737860E+002	-1.7467812E+000	1.000000000000000E+000	9	1.0287460E-002	4.9879026E-002	0	-4.800207875514093E-003	4.8438578E+000	-2.1273297E-001	4.8485270E+000	-2.5147052E+000	-1.7467792E+003	3.9773621E+004	3.9811961E+004	-9.2514702E+001	0.0000000E+000	0.0000000E+000	0.0000000E+000	9.2514702E+001	0.0000000E+000	0.0000000E+000	0.0000000E+000	-9.2514702E+001	0.0000000E+000	0.0000000E+000	0.0000000E+000	2.5147052E+000	0.0000000E+000	0.0000000E+000	0.0000000E+000	-2.5147052E+000	-2.2769663E+001	-2.5147052E+000	-3.160731759691195E-004
1.4474464E+004	2.0718348E-001	-5.2714902E-003	2.0725054E-001	1.4574955E+000	1.079949176622904E+001	-3.8651429E-004	-1.1907469E+000	-2.0858555E+003	-1.3494591E+000	1.000000000000000E+000	9	1.0448748E-002	5.0416026E-002	0	-5.116217333755145E-003	4.8235168E+000	-1.2272755E-001	4.8250780E+000	-1.4574955E+000	-1.3494602E+003	5.3037309E+004	5.3054473E+004	-9.1457497E+001	0.0000000E+000	0.0000000E+000	0.0000000E+000	9.1457497E+001	0.0000000E+000	0.0000000E+000	0.0000000E+000	-9.1457497E+001	0.0000000E+000	0.0000000E+000	0.0000000E+000	1.4574955E+000	0.0000000E+000	0.0000000E+000	0.0000000E+000	-1.4574955E+000	-3.9302639E+001	-1.4574955E+000	-3.160094582410527E-004
1.0818732E+004	2.0828579E-001	-2.4654386E-003	2.0830038E-001	6.7816740E-001	1.162349012537743E+001	-3.8377588E-004	-1.1871848E+000	-5.9669111E+003	-8.3590668E-001	1.000000000000000E+000	9	1.0464423E-002	5.0237179E-002	0	-5.444558373409841E-003	4.8004231E+000	-5.6821682E-002	4.8007593E+000	-6.7816740E-001	-8.3590906E+002	7.0619281E+004	7.0624227E+004	-9.0678169E+001	0.0000000E+000	0.0000000E+000	0.0000000E+000	9.0678169E+001	0.0000000E+000	0.0000000E+000	0.0000000E+000	-9.0678169E+001	0.0000000E+000	0.0000000E+000	0.0000000E+000	6.7816740E-001	0.0000000E+000	0.0000000E+000	0.0000000E+000	-6.7816740E-001	-8.4482246E+001	-6.7816740E-001	-3.283410396546955E-004
8.0797285E+003	2.0935546E-001	-4.4102280E-004	2.0935592E-001	1.2069763E-001	1.254893678272492E+001	-3.8109338E-004	-1.1422378E+000	-4.4664484E+004	-1.9820470E-001	1.000000000000000E+000	9	1.0417179E-002	4.9758226E-002	0	-5.648773350723915E-003	4.7765441E+000	-1.0062144E-002	4.7765546E+000	-1.2069763E-001	-1.9820369E+002	9.4088633E+004	9.4088844E+004	-9.0120697E+001	0.0000000E+000	0.0000000E+000	0.0000000E+000	9.0120697E+001	0.0000000E+000	0.0000000E+000	0.0000000E+000	-9.0120697E+001	0.0000000E+000	0.0000000E+000	0.0000000E+000	1.2069763E-001	0.0000000E+000	0.0000000E+000	0.0000000E+000	-1.2069763E-001	-4.7470438E+002	-1.2069763E-001	-2.042149773140746E-004
6.0326597E+003	2.1051404E-001	9.0766122E-004	2.1051599E-001	-2.4703738E-001	1.371596601148485E+001	-3.8286307E-004	-1.0853919E+000	2.9066150E+004	5.4033720E-001	1.000000000000000E+000	9	1.0257162E-002	4.8723910E-002	0	-6.073499873457683E-003	4.7501888E+000	2.0481117E-002	4.7502332E+000	2.4703738E-001	5.4034253E+002	1.2532052E+005	1.2532168E+005	-8.9752960E+001	0.0000000E+000	0.0000000E+000	0.0000000E+000	8.9752960E+001	0.0000000E+000	0.0000000E+000	0.0000000E+000	-8.9752960E+001	0.0000000E+000	0.0000000E+000	0.0000000E+000	-2.4703738E-001	0.0000000E+000	0.0000000E+000	0.0000000E+000	2.4703738E-001	2.3193019E+002	2.4703738E-001	-4.247265227337680E-004
4.5064424E+003	2.1161027E-001	1.7954822E-003	2.1161789E-001	-4.8613465E-001	1.505368815503607E+001	-3.7779612E-004	-1.0480355E+000	1.9670039E+004	1.4159981E+000	1.000000000000000E+000	9	1.0192662E-002	4.8165411E-002	0	-6.368487794654806E-003	4.7253284E+000	4.0093724E-002	4.7254987E+000	4.8613465E-001	1.4160061E+003	1.6688539E+005	1.6689139E+005	-8.9513863E+001	0.0000000E+000	0.0000000E+000	0.0000000E+000	8.9513863E+001	0.0000000E+000	0.0000000E+000	0.0000000E+000	-8.9513863E+001	0.0000000E+000	0.0000000E+000	0.0000000E+000	-4.8613465E-001	0.0000000E+000	0.0000000E+000	0.0000000E+000	4.8613465E-001	1.1785707E+002	4.8613465E-001	-2.949879211971230E-004
3.3660774E+003	2.1255411E-001	2.4084090E-003	2.1256776E-001	-6.4917946E-001	1.616971388804086E+001	-3.7032607E-004	-1.0549175E+000	1.9632057E+004	2.5201795E+000	1.000000000000000E+000	9	1.0828113E-002	5.0939582E-002	0	-6.701348862798264E-003	4.7040806E+000	5.3301014E-002	4.7043824E+000	6.4917946E-001	2.5201721E+003	2.2241842E+005	2.2243270E+005	-8.9350822E+001	0.0000000E+000	0.0000000E+000	0.0000000E+000	8.9350822E+001	0.0000000E+000	0.0000000E+000	0.0000000E+000	-8.9350822E+001	0.0000000E+000	0.0000000E+000	0.0000000E+000	-6.4917946E-001	0.0000000E+000	0.0000000E+000	0.0000000E+000	6.4917946E-001	8.8254990E+001	6.4917946E-001	-3.328610681434573E-004
2.5158052E+003	2.1356606E-001	2.7237174E-003	2.1358344E-001	-7.3068273E-001	1.750668096487789E+001	-3.6997214E-004	-1.0247042E+000	2.3226355E+004	3.7772002E+000	1.000000000000000E+000	9	1.0186126E-002	4.7691554E-002	0	-7.076320622055067E-003	4.6816306E+000	5.9707224E-002	4.6820111E+000	7.3068273E-001	3.7771985E+003	2.9616944E+005	2.9619353E+005	-8.9269318E+001	0.0000000E+000	0.0000000E+000	0.0000000E+000	8.9269318E+001	0.0000000E+000	0.0000000E+000	0.0000000E+000	-8.9269318E+001	0.0000000E+000	0.0000000E+000	0.0000000E+000	-7.3068273E-001	0.0000000E+000	0.0000000E+000	0.0000000E+000	7.3068273E-001	7.8409775E+001	7.3068273E-001	-3.749717592568032E-004
1.8781967E+003	2.1447507E-001	2.9195682E-003	2.1449493E-001	-7.7989769E-001	1.862293139120447E+001	-3.6529635E-004	-1.0285648E+000	2.9024213E+004	5.3772922E+000	1.000000000000000E+000	9	1.0394342E-002	4.8459619E-002	0	-7.376454432779250E-003	4.6616831E+000	6.3457735E-002	4.6621151E+000	7.7989769E-001	5.3773052E+003	3.9502247E+005	3.9505906E+005	-8.9220100E+001	0.0000000E+000	0.0000000E+000	0.0000000E+000	8.9220100E+001	0.0000000E+000	0.0000000E+000	0.0000000E+000	-8.9220100E+001	0.0000000E+000	0.0000000E+000	0.0000000E+000	-7.7989769E-001	0.0000000E+000	0.0000000E+000	0.0000000E+000	7.7989769E-001	7.3461227E+001	7.7989769E-001	-3.001338107241833E-004
1.4036523E+003	2.1520792E-001	2.9317178E-003	2.1522789E-001	-7.8047621E-001	1.973896109755151E+001	-3.6270698E-004	-1.0269235E+000	3.8675719E+004	7.1760530E+000	1.000000000000000E+000	9	1.0508681E-002	4.8825834E-002	0	-7.702423478489328E-003	4.6458068E+000	6.3288532E-002	4.6462379E+000	7.8047621E-001	7.1760830E+003	5.2677088E+005	5.2681975E+005	-8.9219521E+001	0.0000000E+000	0.0000000E+000	0.0000000E+000	8.9219521E+001	0.0000000E+000	0.0000000E+000	0.0000000E+000	-8.9219521E+001	0.0000000E+000	0.0000000E+000	0.0000000E+000	-7.8047621E-001	0.0000000E+000	0.0000000E+000	0.0000000E+000	7.8047621E-001	7.3406769E+001	7.8047621E-001	-3.259690457100778E-004
1.0476533E+003	2.1591537E-001	2.9257133E-003	2.1593519E-001	-7.7632624E-001	2.085822645734879E+001	-3.6270698E-004	-1.0201162E+000	5.1924313E+004	9.5320749E+000	1.000000000000000E+000	9	1.0572447E-002	4.8961204E-002	0	-8.045089104768095E-003	4.6305943E+000	6.2745839E-002	4.6310191E+000	7.7632624E-001	9.5321094E+003	7.0345975E+005	7.0352431E+005	-8.9223671E+001	0.0000000E+000	0.0000000E+000	0.0000000E+000	8.9223671E+001	0.0000000E+000	0.0000000E+000	0.0000000E+000	-8.9223671E+001	0.0000000E+000	0.0000000E+000	0.0000000E+000	-7.7632624E-001	0.0000000E+000	0.0000000E+000	0.0000000E+000	7.7632624E-001	7.3799225E+001	7.7632624E-001	-3.426656262787674E-004
7.8324554E+002	2.1644904E-001	2.8781232E-003	2.1646817E-001	-7.6181716E-001	2.197719803053769E+001	-3.6436494E-004	-1.0220745E+000	7.0601320E+004	1.2480830E+001	1.000000000000000E+000	9	1.0603153E-002	4.8982505E-002	0	-8.381604643343223E-003	4.6192088E+000	6.1421622E-002	4.6196170E+000	7.6181716E-001	1.2480843E+004	9.3861988E+005	9.3870288E+005	-8.9238182E+001	0.0000000E+000	0.0000000E+000	0.0000000E+000	8.9238182E+001	0.0000000E+000	0.0000000E+000	0.0000000E+000	-8.9238182E+001	0.0000000E+000	0.0000000E+000	0.0000000E+000	-7.6181716E-001	0.0000000E+000	0.0000000E+000	0.0000000E+000	7.6181716E-001	7.5204926E+001	7.6181716E-001	-3.365155385751280E-004
5.8443896E+002	2.1689929E-001	2.8873861E-003	2.1691851E-001	-7.6268232E-001	2.309293571018497E+001	-3.7446161E-004	-1.0297024E+000	9.4313977E+004	1.6710621E+001	1.000000000000000E+000	9	1.0617370E-002	4.8946351E-002	0	-8.735687146871868E-003	4.6096172E+000	6.1363708E-002	4.6100259E+000	7.6268232E-001	1.6710570E+004	1.2552951E+006	1.2554064E+006	-8.9237320E+001	0.0000000E+000	0.0000000E+000	0.0000000E+000	8.9237320E+001	0.0000000E+000	0.0000000E+000	0.0000000E+000	-8.9237320E+001	0.0000000E+000	0.0000000E+000	0.0000000E+000	-7.6268232E-001	0.0000000E+000	0.0000000E+000	0.0000000E+000	7.6268232E-001	7.5119598E+001	7.6268232E-001	-3.540825035286445E-004
4.3681717E+002	2.1743990E-001	2.8398703E-003	2.1745844E-001	-7.4826801E-001	2.420393362961477E+001	-3.7448024E-004	-1.0333765E+000	1.2829861E+005	2.1880960E+001	1.000000000000000E+000	9	1.0628743E-002	4.8877124E-002	0	-9.081605942322149E-003	4.5981879E+000	6.0054552E-002	4.5985799E+000	7.4826801E-001	2.1880961E+004	1.6753560E+006	1.6754989E+006	-8.9251732E+001	0.0000000E+000	0.0000000E+000	0.0000000E+000	8.9251732E+001	0.0000000E+000	0.0000000E+000	0.0000000E+000	-8.9251732E+001	0.0000000E+000	0.0000000E+000	0.0000000E+000	-7.4826801E-001	0.0000000E+000	0.0000000E+000	0.0000000E+000	7.4826801E-001	7.6566841E+001	7.4826801E-001	-3.459187954502809E-004
3.2635764E+002	2.1791029E-001	2.8547866E-003	2.1792899E-001	-7.5057429E-001	2.531493680240237E+001	-3.8284445E-004	-1.0517470E+000	1.7082550E+005	2.9313658E+001	1.000000000000000E+000	9	1.0634695E-002	4.8798900E-002	0	-9.403582041986080E-003	4.5882568E+000	6.0109571E-002	4.5886507E+000	7.5057429E-001	2.9313576E+004	2.2375570E+006	2.2377490E+006	-8.9249428E+001	0.0000000E+000	0.0000000E+000	0.0000000E+000	8.9249428E+001	0.0000000E+000	0.0000000E+000	0.0000000E+000	-8.9249428E+001	0.0000000E+000	0.0000000E+000	0.0000000E+000	-7.5057429E-001	0.0000000E+000	0.0000000E+000	0.0000000E+000	7.5057429E-001	7.6331551E+001	7.5057429E-001	-3.219760996639315E-004
2.4382964E+002	2.1834238E-001	3.1222149E-003	2.1836470E-001	-8.1925255E-001	2.643573842897604E+001	-3.7479692E-004	-1.0225035E+000	2.0905995E+005	4.2739712E+001	1.000000000000000E+000	9	1.0636522E-002	4.8709895E-002	0	-9.687907378235624E-003	4.5790267E+000	6.5478384E-002	4.5794950E+000	8.1925255E-001	4.2739680E+004	2.9888685E+006	2.9891740E+006	-8.9180748E+001	0.0000000E+000	0.0000000E+000	0.0000000E+000	8.9180748E+001	0.0000000E+000	0.0000000E+000	0.0000000E+000	-8.9180748E+001	0.0000000E+000	0.0000000E+000	0.0000000E+000	-8.1925255E-001	0.0000000E+000	0.0000000E+000	0.0000000E+000	8.1925255E-001	6.9931885E+001	8.1925255E-001	-2.843253362495440E-004
1.8215671E+002	2.1882689E-001	3.1839591E-003	2.1885005E-001	-8.3360207E-001	2.754040461473051E+001	-3.8720353E-004	-1.0415826E+000	2.7441478E+005	5.8083019E+001	1.000000000000000E+000	9	1.0637891E-002	4.8608124E-002	0	-1.005149100763475E-002	4.5688553E+000	6.6477425E-002	4.5693388E+000	8.3360207E-001	5.8083074E+004	3.9919250E+006	3.9923475E+006	-8.9166397E+001	0.0000000E+000	0.0000000E+000	0.0000000E+000	8.9166397E+001	0.0000000E+000	0.0000000E+000	0.0000000E+000	-8.9166397E+001	0.0000000E+000	0.0000000E+000	0.0000000E+000	-8.3360207E-001	0.0000000E+000	0.0000000E+000	0.0000000E+000	8.3360207E-001	6.8727921E+001	8.3360207E-001	-3.635836293991255E-004
