EC-Lab ASCII FILE
Nb header lines : 66                          

Potentio Electrochemical Impedance Spectroscopy

Run on channel : 1 (SN 5680)
User : 
Electrode connection : standard
Potential control : Ewe
Ewe ctrl range : min = 0.00 V, max = 5.00 V
Ewe,I filtering : <None>
Safety Limits :
	Do not start on E overload
Channel : Floating
Acquisition started on : 06/30/2023 00:59:40.052
Loaded Setting File :  C:\Data\baili\Electrode Combination Tests\20230622\new tests\positive\ELAT_ve5_30mL_EIS_C01.mpr
Saved on :
	File : AvCarb_FrePaper_ve5_30mL_EIS_C01.mpr
	Directory : C:\Data\baili\Electrode Combination Tests\20230622\new tests\positive\
	Host : 192.168.0.1
Device : SP-300 (SN 0955)
Address : 192.168.0.4
EC-Lab for windows v11.46 (software)
Internet server v11.40 (firmware)
Command interpretor v11.46 (firmware)
Electrode material : 
Initial state : 
Electrolyte : 
Comments : 
Current amplifier : B-10A5V
Cable : standard
Electrode surface area : 0.001 cm2
Characteristic mass : 0.001 g
Equivalent Weight : 0.000 g/eq.
Density : 0.000 g/cm3
Volume (V) : 0.001 cm3
Cycle Definition : Charge/Discharge alternance
Mode                Single sine         
E (V)               0.0000              
vs.                 Eoc                 
tE (h:m:s)          0:00:0.0000         
record              0                   
dI                  0.000               
unit dI             mA                  
dt (s)              0.000               
fi                  200.000             
unit fi             kHz                 
ff                  50.000              
unit ff             mHz                 
Nd                  8                   
Points              per decade          
spacing             Logarithmic         
Va (mV)             10.0                
pw                  0.10                
Na                  3                   
corr                0                   
E range min (V)     0.000               
E range max (V)     5.000               
I Range             Auto                
Bandwidth           8                   
nc cycles           3                   
goto Ns'            0                   
nr cycles           0                   
inc. cycle          0                   

freq/Hz	Re(Z)/Ohm	-Im(Z)/Ohm	|Z|/Ohm	Phase(Z)/deg	time/s	<Ewe>/V	<I>/mA	Cs/uF	Cp/uF	cycle number	I Range	|Ewe|/V	|I|/A	Ns	(Q-Qo)/mA.h	Re(Y)/Ohm-1	Im(Y)/Ohm-1	|Y|/Ohm-1	Phase(Y)/deg	Re(C)/nF	Im(C)/nF	|C|/nF	Phase(C)/deg	Re(M)	Im(M)	|M|	Phase(M)/deg	Re(Permittivity)	Im(Permittivity)	|Permittivity|	Phase(Permittivity)/deg	Re(Resistivity)/Ohm.cm	Im(Resistivity)/Ohm.cm	|Resistivity|/Ohm.cm	Phase(Resistivity)/deg	Re(Conductivity)/mS/cm	Im(Conductivity)/mS/cm	|Conductivity|/mS/cm	Phase(Conductivity)/deg	Tan(Delta)	Loss Angle(Delta)/deg	dq/mA.h	
1.9999814E+005	1.2367313E-001	-2.8937791E-002	1.2701353E-001	1.3169486E+001	1.946499799116282E+000	-6.0098758E-004	-2.1577623E+001	-2.7499752E+001	-1.4274455E+000	1.000000000000000E+000	65	9.7539229E-003	7.6794356E-002	0	-5.557845289207529E-003	7.6661148E+000	-1.7937642E+000	7.8731766E+000	-1.3169486E+001	-1.4274456E+003	6.1005571E+003	6.2653330E+003	-1.0316949E+002	0.0000000E+000	0.0000000E+000	0.0000000E+000	1.0316949E+002	0.0000000E+000	0.0000000E+000	0.0000000E+000	-1.0316949E+002	0.0000000E+000	0.0000000E+000	0.0000000E+000	1.3169486E+001	0.0000000E+000	0.0000000E+000	0.0000000E+000	-1.3169486E+001	-4.2737584E+000	-1.3169486E+001	-5.557845289207529E-003
1.4930041E+005	1.2455747E-001	-2.1085370E-002	1.2632956E-001	9.6080723E+000	2.522487533133244E+000	-5.9550710E-004	-3.7314124E+000	-5.0556606E+001	-1.4084144E+000	1.000000000000000E+000	65	1.0720349E-002	8.4860183E-002	0	-6.071463621495498E-003	7.8047652E+000	-1.3212084E+000	7.9158039E+000	-9.6080723E+000	-1.4084139E+003	8.3199160E+003	8.4382842E+003	-9.9608070E+001	0.0000000E+000	0.0000000E+000	0.0000000E+000	9.9608070E+001	0.0000000E+000	0.0000000E+000	0.0000000E+000	-9.9608070E+001	0.0000000E+000	0.0000000E+000	0.0000000E+000	9.6080723E+000	0.0000000E+000	0.0000000E+000	0.0000000E+000	-9.6080723E+000	-5.9072938E+000	-9.6080723E+000	-5.136183322879693E-004
1.1145338E+005	1.2586017E-001	-1.5915329E-002	1.2686245E-001	7.2069407E+000	3.098497800499899E+000	-5.9161108E-004	-3.9058075E+000	-8.9724548E+001	-1.4121352E+000	1.000000000000000E+000	65	1.0904850E-002	8.5958056E-002	0	-7.728925708334065E-003	7.8202772E+000	-9.8889321E-001	7.8825531E+000	-7.2069407E+000	-1.4121349E+003	1.1167321E+004	1.1256251E+004	-9.7206940E+001	0.0000000E+000	0.0000000E+000	0.0000000E+000	9.7206940E+001	0.0000000E+000	0.0000000E+000	0.0000000E+000	-9.7206940E+001	0.0000000E+000	0.0000000E+000	0.0000000E+000	7.2069407E+000	0.0000000E+000	0.0000000E+000	0.0000000E+000	-7.2069407E+000	-7.9081101E+000	-7.2069407E+000	-1.657462086838567E-003
8.3200344E+004	1.2607779E-001	-1.1581838E-002	1.2660864E-001	5.2486105E+000	3.674482947826618E+000	-5.8562733E-004	-3.8010960E+000	-1.6516479E+002	-1.3821201E+000	1.000000000000000E+000	65	1.0926668E-002	8.6302698E-002	0	-8.115136136893597E-003	7.8652382E+000	-7.2252154E-001	7.8983550E+000	-5.2486105E+000	-1.3821204E+003	1.5045509E+004	1.5108858E+004	-9.5248611E+001	0.0000000E+000	0.0000000E+000	0.0000000E+000	9.5248611E+001	0.0000000E+000	0.0000000E+000	0.0000000E+000	-9.5248611E+001	0.0000000E+000	0.0000000E+000	0.0000000E+000	5.2486105E+000	0.0000000E+000	0.0000000E+000	0.0000000E+000	-5.2486105E+000	-1.0885818E+001	-5.2486105E+000	-3.862104285595322E-004
6.2110305E+004	1.2631595E-001	-8.3105881E-003	1.2658904E-001	3.7641830E+000	4.250498308538226E+000	-5.9315830E-004	-3.8122749E+000	-3.0833633E+002	-1.3289112E+000	1.000000000000000E+000	65	1.0903638E-002	8.6134136E-002	0	-8.602457415866769E-003	7.8825359E+000	-5.1860833E-001	7.8995776E+000	-3.7641830E+000	-1.3289114E+003	2.0198656E+004	2.0242324E+004	-9.3764183E+001	0.0000000E+000	0.0000000E+000	0.0000000E+000	9.3764183E+001	0.0000000E+000	0.0000000E+000	0.0000000E+000	-9.3764183E+001	0.0000000E+000	0.0000000E+000	0.0000000E+000	3.7641830E+000	0.0000000E+000	0.0000000E+000	0.0000000E+000	-3.7641830E+000	-1.5199400E+001	-3.7641830E+000	-4.873212789731716E-004
4.6364680E+004	1.2658522E-001	-5.4927622E-003	1.2670434E-001	2.4846091E+000	4.827485429268563E+000	-5.8197370E-004	-3.9849930E+000	-6.2494543E+002	-1.1744667E+000	1.000000000000000E+000	65	1.0849920E-002	8.5631795E-002	0	-8.521634719115165E-003	7.8849702E+000	-3.4214315E-001	7.8923898E+000	-2.4846091E+000	-1.1744678E+003	2.7066551E+004	2.7092020E+004	-9.2484612E+001	0.0000000E+000	0.0000000E+000	0.0000000E+000	9.2484612E+001	0.0000000E+000	0.0000000E+000	0.0000000E+000	-9.2484612E+001	0.0000000E+000	0.0000000E+000	0.0000000E+000	2.4846091E+000	0.0000000E+000	0.0000000E+000	0.0000000E+000	-2.4846091E+000	-2.3045820E+001	-2.4846091E+000	8.082269675160382E-005
3.4618094E+004	1.2695321E-001	-3.4139296E-003	1.2699911E-001	1.5403835E+000	5.403480869979830E+000	-5.8568327E-004	-3.7030921E+000	-1.3466740E+003	-9.7312850E-001	1.000000000000000E+000	65	1.0773010E-002	8.4827445E-002	0	-9.109327585552301E-003	7.8712258E+000	-2.1166703E-001	7.8740711E+000	-1.5403835E+000	-9.7312781E+002	3.6187563E+004	3.6200645E+004	-9.1540382E+001	0.0000000E+000	0.0000000E+000	0.0000000E+000	9.1540382E+001	0.0000000E+000	0.0000000E+000	0.0000000E+000	-9.1540382E+001	0.0000000E+000	0.0000000E+000	0.0000000E+000	1.5403835E+000	0.0000000E+000	0.0000000E+000	0.0000000E+000	-1.5403835E+000	-3.7186829E+001	-1.5403835E+000	-5.876928664371363E-004
2.5840633E+004	1.2733400E-001	-1.8194730E-003	1.2734699E-001	8.1864256E-001	5.979485563962953E+000	-5.8642891E-004	-3.8206594E+000	-3.3850989E+003	-6.9101143E-001	1.000000000000000E+000	65	1.0676705E-002	8.3839476E-002	0	-8.851391032401058E-003	7.8517594E+000	-1.1219364E-001	7.8525610E+000	-8.1864256E-001	-6.9101068E+002	4.8359742E+004	4.8364680E+004	-9.0818642E+001	0.0000000E+000	0.0000000E+000	0.0000000E+000	9.0818642E+001	0.0000000E+000	0.0000000E+000	0.0000000E+000	-9.0818642E+001	0.0000000E+000	0.0000000E+000	0.0000000E+000	8.1864256E-001	0.0000000E+000	0.0000000E+000	0.0000000E+000	-8.1864256E-001	-6.9984001E+001	-8.1864256E-001	2.579365531512438E-004
1.9290008E+004	1.2755921E-001	-3.4490775E-004	1.2755968E-001	1.5492186E-001	6.555496124696219E+000	-5.7295145E-004	-3.6525998E+000	-2.3921299E+004	-1.7488955E-001	1.000000000000000E+000	65	1.0556065E-002	8.2753941E-002	0	-9.397602227198581E-003	7.8394394E+000	-2.1197084E-002	7.8394680E+000	-1.5492186E-001	-1.7489026E+002	6.4680406E+004	6.4680645E+004	-9.0154922E+001	0.0000000E+000	0.0000000E+000	0.0000000E+000	9.0154922E+001	0.0000000E+000	0.0000000E+000	0.0000000E+000	-9.0154922E+001	0.0000000E+000	0.0000000E+000	0.0000000E+000	1.5492186E-001	0.0000000E+000	0.0000000E+000	0.0000000E+000	-1.5492186E-001	-3.6983575E+002	-1.5492186E-001	-5.462111947975232E-004
1.4400236E+004	1.2811853E-001	6.3050387E-004	1.2812008E-001	-2.8196484E-001	7.131477405346232E+000	-5.7101279E-004	-3.6423521E+000	1.7529227E+004	4.2452559E-001	1.000000000000000E+000	65	1.0412345E-002	8.1270203E-002	0	-9.309671071177555E-003	7.8050833E+000	3.8410801E-002	7.8051777E+000	2.8196484E-001	4.2452911E+002	8.6263695E+004	8.6264742E+004	-8.9718033E+001	0.0000000E+000	0.0000000E+000	0.0000000E+000	8.9718033E+001	0.0000000E+000	0.0000000E+000	0.0000000E+000	-8.9718033E+001	0.0000000E+000	0.0000000E+000	0.0000000E+000	-2.8196484E-001	0.0000000E+000	0.0000000E+000	0.0000000E+000	2.8196484E-001	2.0320023E+002	2.8196484E-001	8.793115602102539E-005
1.0753788E+004	1.2851381E-001	1.3941593E-003	1.2852137E-001	-6.2153876E-001	7.707480819401098E+000	-5.6027557E-004	-3.5285113E+000	1.0615641E+004	1.2491666E+000	1.000000000000000E+000	65	1.0281858E-002	8.0001161E-002	0	-9.643168517642551E-003	7.7803497E+000	8.4403746E-002	7.7808075E+000	6.2153876E-001	1.2491616E+003	1.1514836E+005	1.1515513E+005	-8.9378464E+001	0.0000000E+000	0.0000000E+000	0.0000000E+000	8.9378464E+001	0.0000000E+000	0.0000000E+000	0.0000000E+000	-8.9378464E+001	0.0000000E+000	0.0000000E+000	0.0000000E+000	-6.2153876E-001	0.0000000E+000	0.0000000E+000	0.0000000E+000	6.2153876E-001	9.2180153E+001	6.2153876E-001	-3.334974464649955E-004
8.0234409E+003	1.2919946E-001	2.0341964E-003	1.2921548E-001	-9.0202576E-001	8.356733250271645E+000	-6.5726473E-004	-4.4029078E+000	9.7513916E+003	2.4167030E+000	1.000000000000000E+000	65	1.0348790E-002	8.0089405E-002	0	-1.029859683496526E-002	7.7380519E+000	1.2183268E-001	7.7390108E+000	9.0202576E-001	2.4166963E+003	1.5349388E+005	1.5351291E+005	-8.9097977E+001	0.0000000E+000	0.0000000E+000	0.0000000E+000	8.9097977E+001	0.0000000E+000	0.0000000E+000	0.0000000E+000	-8.9097977E+001	0.0000000E+000	0.0000000E+000	0.0000000E+000	-9.0202576E-001	0.0000000E+000	0.0000000E+000	0.0000000E+000	9.0202576E-001	6.3513760E+001	9.0202576E-001	-6.554283173227059E-004
5.9921147E+003	1.2982671E-001	2.3631579E-003	1.2984821E-001	-1.0428057E+000	9.170124862197554E+000	-6.5983721E-004	-4.3203683E+000	1.1239507E+004	3.7227237E+000	1.000000000000000E+000	65	1.0142462E-002	7.8110144E-002	0	-1.122087882110145E-002	7.7000241E+000	1.4015894E-001	7.7012997E+000	1.0428057E+000	3.7227339E+003	2.0451827E+005	2.0455214E+005	-8.8957191E+001	0.0000000E+000	0.0000000E+000	0.0000000E+000	8.8957191E+001	0.0000000E+000	0.0000000E+000	0.0000000E+000	-8.8957191E+001	0.0000000E+000	0.0000000E+000	0.0000000E+000	-1.0428057E+000	0.0000000E+000	0.0000000E+000	0.0000000E+000	1.0428057E+000	5.4937805E+001	1.0428057E+000	-9.222819861361975E-004
4.4714287E+003	1.3048781E-001	2.7927551E-003	1.3051769E-001	-1.2260813E+000	9.862672228475276E+000	-6.5195200E-004	-4.2931652E+000	1.2745033E+004	5.8353639E+000	1.000000000000000E+000	65	1.0745923E-002	8.2333073E-002	0	-1.223972117499842E-002	7.6600423E+000	1.6394345E-001	7.6617966E+000	1.2260813E+000	5.8353662E+003	2.7264969E+005	2.7271213E+005	-8.8773918E+001	0.0000000E+000	0.0000000E+000	0.0000000E+000	8.8773918E+001	0.0000000E+000	0.0000000E+000	0.0000000E+000	-8.8773918E+001	0.0000000E+000	0.0000000E+000	0.0000000E+000	-1.2260813E+000	0.0000000E+000	0.0000000E+000	0.0000000E+000	1.2260813E+000	4.6723686E+001	1.2260813E+000	-1.018842353896961E-003
3.3389331E+003	1.3101046E-001	2.8791386E-003	1.3104209E-001	-1.2589524E+000	1.078783219240722E+001	-6.6326716E-004	-4.2186379E+000	1.6555789E+004	7.9919610E+000	1.000000000000000E+000	65	1.0108795E-002	7.7141583E-002	0	-1.381456824164817E-002	7.6292939E+000	1.6766442E-001	7.6311359E+000	1.2589524E+000	7.9919404E+003	3.6366100E+005	3.6374881E+005	-8.8741051E+001	0.0000000E+000	0.0000000E+000	0.0000000E+000	8.8741051E+001	0.0000000E+000	0.0000000E+000	0.0000000E+000	-8.8741051E+001	0.0000000E+000	0.0000000E+000	0.0000000E+000	-1.2589524E+000	0.0000000E+000	0.0000000E+000	0.0000000E+000	1.2589524E+000	4.5503353E+001	1.2589524E+000	-1.574847066649754E-003
2.4923906E+003	1.3170518E-001	3.1317819E-003	1.3174240E-001	-1.3621643E+000	1.147957507855608E+001	-6.6222320E-004	-4.2216191E+000	2.0389779E+004	1.1522438E+001	1.000000000000000E+000	65	1.0292118E-002	7.8123048E-002	0	-1.475037865427550E-002	7.5884256E+000	1.8044312E-001	7.5905704E+000	1.3621643E+000	1.1522465E+004	4.8456909E+005	4.8470606E+005	-8.8637833E+001	0.0000000E+000	0.0000000E+000	0.0000000E+000	8.8637833E+001	0.0000000E+000	0.0000000E+000	0.0000000E+000	-8.8637833E+001	0.0000000E+000	0.0000000E+000	0.0000000E+000	-1.3621643E+000	0.0000000E+000	0.0000000E+000	0.0000000E+000	1.3621643E+000	4.2054390E+001	1.3621643E+000	-9.358104126273338E-004
1.8605962E+003	1.3235976E-001	3.3235929E-003	1.3240148E-001	-1.4384118E+000	1.217167945814435E+001	-6.6157081E-004	-4.2831044E+000	2.5737133E+004	1.6217733E+001	1.000000000000000E+000	65	1.0389233E-002	7.8467652E-002	0	-1.543075192463191E-002	7.5504055E+000	1.8959293E-001	7.5527854E+000	1.4384118E+000	1.6217776E+004	6.4585994E+005	6.4606350E+005	-8.8561584E+001	0.0000000E+000	0.0000000E+000	0.0000000E+000	8.8561584E+001	0.0000000E+000	0.0000000E+000	0.0000000E+000	-8.8561584E+001	0.0000000E+000	0.0000000E+000	0.0000000E+000	-1.4384118E+000	0.0000000E+000	0.0000000E+000	0.0000000E+000	1.4384118E+000	3.9824299E+001	1.4384118E+000	-6.803732703564071E-004
1.3886691E+003	1.3302727E-001	3.3376820E-003	1.3306914E-001	-1.4372615E+000	1.286395879767952E+001	-6.7256897E-004	-4.3866982E+000	3.4338113E+004	2.1602879E+001	1.000000000000000E+000	65	1.0445186E-002	7.8494430E-002	0	-1.654238011775207E-002	7.5125260E+000	1.8849084E-001	7.5148902E+000	1.4372615E+000	2.1602906E+004	8.6100831E+005	8.6127925E+005	-8.8562737E+001	0.0000000E+000	0.0000000E+000	0.0000000E+000	8.8562737E+001	0.0000000E+000	0.0000000E+000	0.0000000E+000	-8.8562737E+001	0.0000000E+000	0.0000000E+000	0.0000000E+000	-1.4372615E+000	0.0000000E+000	0.0000000E+000	0.0000000E+000	1.4372615E+000	3.9856186E+001	1.4372615E+000	-1.111628193120160E-003
1.0366589E+003	1.3375299E-001	3.5478587E-003	1.3380003E-001	-1.5194403E+000	1.355545533713303E+001	-6.5517693E-004	-4.1815605E+000	4.3273094E+004	3.0425529E+001	1.000000000000000E+000	65	1.0480213E-002	7.8327432E-002	0	-1.696900019025803E-002	7.4712119E+000	1.9817729E-001	7.4738398E+000	1.5194403E+000	3.0425518E+004	1.1470314E+006	1.1474349E+006	-8.8480560E+001	0.0000000E+000	0.0000000E+000	0.0000000E+000	8.8480560E+001	0.0000000E+000	0.0000000E+000	0.0000000E+000	-8.8480560E+001	0.0000000E+000	0.0000000E+000	0.0000000E+000	-1.5194403E+000	0.0000000E+000	0.0000000E+000	0.0000000E+000	1.5194403E+000	3.7699638E+001	1.5194403E+000	-4.266200725059552E-004
7.7376514E+002	1.3435301E-001	3.6792262E-003	1.3440338E-001	-1.5686396E+000	1.424709505002829E+001	-6.5047940E-004	-4.2290721E+000	5.5905492E+004	4.1893539E+001	1.000000000000000E+000	65	1.0497533E-002	7.8104682E-002	0	-1.744779710450686E-002	7.4375010E+000	2.0367424E-001	7.4402890E+000	1.5686396E+000	4.1893594E+004	1.5298118E+006	1.5303853E+006	-8.8431358E+001	0.0000000E+000	0.0000000E+000	0.0000000E+000	8.8431358E+001	0.0000000E+000	0.0000000E+000	0.0000000E+000	-8.8431358E+001	0.0000000E+000	0.0000000E+000	0.0000000E+000	-1.5686396E+000	0.0000000E+000	0.0000000E+000	0.0000000E+000	1.5686396E+000	3.6516651E+001	1.5686396E+000	-4.787969142488295E-004
5.7796539E+002	1.3505772E-001	3.8666888E-003	1.3511306E-001	-1.6399244E+000	1.494147334966692E+001	-6.6330441E-004	-4.3170147E+000	7.1216250E+004	5.8326088E+001	1.000000000000000E+000	65	1.0498215E-002	7.7699490E-002	0	-1.793716069653175E-002	7.3981776E+000	2.1180907E-001	7.4012089E+000	1.6399244E+000	5.8326047E+004	2.0372441E+006	2.0380789E+006	-8.8360077E+001	0.0000000E+000	0.0000000E+000	0.0000000E+000	8.8360077E+001	0.0000000E+000	0.0000000E+000	0.0000000E+000	-8.8360077E+001	0.0000000E+000	0.0000000E+000	0.0000000E+000	-1.6399244E+000	0.0000000E+000	0.0000000E+000	0.0000000E+000	1.6399244E+000	3.4928520E+001	1.6399244E+000	-4.893635920248940E-004
4.3124185E+002	1.3582022E-001	3.8114400E-003	1.3587369E-001	-1.6074346E+000	1.563017042240244E+001	-6.6209276E-004	-4.2037330E+000	9.6830047E+004	7.6193436E+001	1.000000000000000E+000	65	1.0499537E-002	7.7274248E-002	0	-1.857673629852343E-002	7.3568802E+000	2.0645164E-001	7.3597765E+000	1.6074346E+000	7.6193555E+004	2.7151443E+006	2.7162133E+006	-8.8392563E+001	0.0000000E+000	0.0000000E+000	0.0000000E+000	8.8392563E+001	0.0000000E+000	0.0000000E+000	0.0000000E+000	-8.8392563E+001	0.0000000E+000	0.0000000E+000	0.0000000E+000	-1.6074346E+000	0.0000000E+000	0.0000000E+000	0.0000000E+000	1.6074346E+000	3.5634884E+001	1.6074346E+000	-6.395756019916786E-004
3.2195746E+002	1.3639580E-001	3.9662914E-003	1.3645345E-001	-1.6656506E+000	1.631853837505332E+001	-6.5254857E-004	-4.2001925E+000	1.2463413E+005	1.0530215E+002	1.000000000000000E+000	65	1.0503088E-002	7.6971948E-002	0	-1.946469964557715E-002	7.3254099E+000	2.1301764E-001	7.3285065E+000	1.6656506E+000	1.0530208E+005	3.6212090E+006	3.6227398E+006	-8.8334351E+001	0.0000000E+000	0.0000000E+000	0.0000000E+000	8.8334351E+001	0.0000000E+000	0.0000000E+000	0.0000000E+000	-8.8334351E+001	0.0000000E+000	0.0000000E+000	0.0000000E+000	-1.6656506E+000	0.0000000E+000	0.0000000E+000	0.0000000E+000	1.6656506E+000	3.4388748E+001	1.6656506E+000	-8.879633470537246E-004
2.4038478E+002	1.3726109E-001	4.1561141E-003	1.3732401E-001	-1.7343229E+000	1.700945171454805E+001	-6.5778667E-004	-3.9289114E+000	1.5930364E+005	1.4591762E+002	1.000000000000000E+000	65	1.0505040E-002	7.6498210E-002	0	-2.027302798141456E-002	7.2787123E+000	2.2039135E-001	7.2820482E+000	1.7343229E+000	1.4591748E+005	4.8191195E+006	4.8213280E+006	-8.8265678E+001	0.0000000E+000	0.0000000E+000	0.0000000E+000	8.8265678E+001	0.0000000E+000	0.0000000E+000	0.0000000E+000	-8.8265678E+001	0.0000000E+000	0.0000000E+000	0.0000000E+000	-1.7343229E+000	0.0000000E+000	0.0000000E+000	0.0000000E+000	1.7343229E+000	3.3026306E+001	1.7343229E+000	-8.083283358374105E-004
1.7948300E+002	1.3787155E-001	4.3846336E-003	1.3794126E-001	-1.8215241E+000	1.770135582741932E+001	-6.6699530E-004	-3.8480492E+000	2.0223834E+005	2.0433453E+002	1.000000000000000E+000	65	1.0501466E-002	7.6129988E-002	0	-2.131254644415196E-002	7.2457995E+000	2.3043315E-001	7.2494626E+000	1.8215241E+000	2.0433469E+005	6.4251475E+006	6.4283960E+006	-8.8178474E+001	0.0000000E+000	0.0000000E+000	0.0000000E+000	8.8178474E+001	0.0000000E+000	0.0000000E+000	0.0000000E+000	-8.8178474E+001	0.0000000E+000	0.0000000E+000	0.0000000E+000	-1.8215241E+000	0.0000000E+000	0.0000000E+000	0.0000000E+000	1.8215241E+000	3.1444258E+001	1.8215241E+000	-1.039518462737400E-003
1.3392865E+002	1.3859788E-001	4.4582859E-003	1.3866957E-001	-1.8424013E+000	1.839733892711229E+001	-6.5953890E-004	-3.8569925E+000	2.6655003E+005	2.7551944E+002	1.000000000000000E+000	65	1.0499814E-002	7.5718224E-002	0	-2.165639841355300E-002	7.2076597E+000	2.3184919E-001	7.2113876E+000	1.8424013E+000	2.7551919E+005	8.5652680E+006	8.5696980E+006	-8.8157600E+001	0.0000000E+000	0.0000000E+000	0.0000000E+000	8.8157600E+001	0.0000000E+000	0.0000000E+000	0.0000000E+000	-8.8157600E+001	0.0000000E+000	0.0000000E+000	0.0000000E+000	-1.8424013E+000	0.0000000E+000	0.0000000E+000	0.0000000E+000	1.8424013E+000	3.1087706E+001	1.8424013E+000	-3.438519694010413E-004
