EC-Lab ASCII FILE
Nb header lines : 66                          

Potentio Electrochemical Impedance Spectroscopy

Run on channel : 1 (SN 5680)
User : 
Electrode connection : standard
Potential control : Ewe
Ewe ctrl range : min = 0.00 V, max = 5.00 V
Ewe,I filtering : <None>
Safety Limits :
	Do not start on E overload
Channel : Floating
Acquisition started on : 06/29/2023 23:52:53.281
Loaded Setting File :  C:\Data\baili\Electrode Combination Tests\20230622\new tests\positive\ELATvers_ve5_30mL_EIS_C01.mpr
Saved on :
	File : ELAT_FrePaper_ve5_30mL_EIS_C01.mpr
	Directory : C:\Data\baili\Electrode Combination Tests\20230622\new tests\positive\
	Host : 192.168.0.1
Device : SP-300 (SN 0955)
Address : 192.168.0.4
EC-Lab for windows v11.46 (software)
Internet server v11.40 (firmware)
Command interpretor v11.46 (firmware)
Electrode material : 
Initial state : 
Electrolyte : 
Comments : 
Current amplifier : B-10A5V
Cable : standard
Electrode surface area : 0.001 cm2
Characteristic mass : 0.001 g
Equivalent Weight : 0.000 g/eq.
Density : 0.000 g/cm3
Volume (V) : 0.001 cm3
Cycle Definition : Charge/Discharge alternance
Mode                Single sine         
E (V)               0.0000              
vs.                 Eoc                 
tE (h:m:s)          0:00:0.0000         
record              0                   
dI                  0.000               
unit dI             mA                  
dt (s)              0.000               
fi                  200.000             
unit fi             kHz                 
ff                  50.000              
unit ff             mHz                 
Nd                  12                  
Points              per decade          
spacing             Logarithmic         
Va (mV)             10.0                
pw                  0.10                
Na                  3                   
corr                0                   
E range min (V)     0.000               
E range max (V)     5.000               
I Range             Auto                
Bandwidth           8                   
nc cycles           3                   
goto Ns'            0                   
nr cycles           0                   
inc. cycle          0                   

freq/Hz	Re(Z)/Ohm	-Im(Z)/Ohm	|Z|/Ohm	Phase(Z)/deg	time/s	<Ewe>/V	<I>/mA	Cs/uF	Cp/uF	cycle number	I Range	|Ewe|/V	|I|/A	Ns	(Q-Qo)/mA.h	Re(Y)/Ohm-1	Im(Y)/Ohm-1	|Y|/Ohm-1	Phase(Y)/deg	Re(C)/nF	Im(C)/nF	|C|/nF	Phase(C)/deg	Re(M)	Im(M)	|M|	Phase(M)/deg	Re(Permittivity)	Im(Permittivity)	|Permittivity|	Phase(Permittivity)/deg	Re(Resistivity)/Ohm.cm	Im(Resistivity)/Ohm.cm	|Resistivity|/Ohm.cm	Phase(Resistivity)/deg	Re(Conductivity)/mS/cm	Im(Conductivity)/mS/cm	|Conductivity|/mS/cm	Phase(Conductivity)/deg	Tan(Delta)	Loss Angle(Delta)/deg	dq/mA.h	
1.9999814E+005	1.2607540E-001	-2.3814226E-002	1.2830481E-001	1.0696503E+001	1.946486145752715E+000	2.8216720E-004	-1.3883383E+001	-3.3416248E+001	-1.1511841E+000	1.000000000000000E+000	65	9.6931132E-003	7.5547546E-002	0	-2.761932385575026E-003	7.6585135E+000	-1.4466070E+000	7.7939401E+000	-1.0696503E+001	-1.1511840E+003	6.0945083E+003	6.2022783E+003	-1.0069650E+002	0.0000000E+000	0.0000000E+000	0.0000000E+000	1.0069650E+002	0.0000000E+000	0.0000000E+000	0.0000000E+000	-1.0069650E+002	0.0000000E+000	0.0000000E+000	0.0000000E+000	1.0696503E+001	0.0000000E+000	0.0000000E+000	0.0000000E+000	-1.0696503E+001	-5.2941213E+000	-1.0696503E+001	-2.761932385575026E-003
1.6499034E+005	1.2702186E-001	-1.9273125E-002	1.2847571E-001	8.6277246E+000	2.522498013131553E+000	2.9592428E-004	3.9935703E+000	-5.0050625E+001	-1.1263456E+000	1.000000000000000E+000	65	1.0435972E-002	8.1229150E-002	0	-1.849791842435797E-003	7.6954927E+000	-1.1676431E+000	7.7835722E+000	-8.6277246E+000	-1.1263456E+003	7.4233174E+003	7.5082817E+003	-9.8627724E+001	0.0000000E+000	0.0000000E+000	0.0000000E+000	9.8627724E+001	0.0000000E+000	0.0000000E+000	0.0000000E+000	-9.8627724E+001	0.0000000E+000	0.0000000E+000	0.0000000E+000	8.6277246E+000	0.0000000E+000	0.0000000E+000	0.0000000E+000	-8.6277246E+000	-6.5906210E+000	-8.6277246E+000	9.121405431392292E-004
1.3610638E+005	1.2760366E-001	-1.5271497E-002	1.2851426E-001	6.8246493E+000	3.098498760460643E+000	3.0009987E-004	3.9326441E+000	-7.6570244E+001	-1.0812364E+000	1.000000000000000E+000	65	1.0533066E-002	8.1960291E-002	0	-1.866898249271015E-003	7.7261033E+000	-9.2465335E-001	7.7812376E+000	-6.8246493E+000	-1.0812357E+003	9.0344590E+003	9.0989297E+003	-9.6824646E+001	0.0000000E+000	0.0000000E+000	0.0000000E+000	9.6824646E+001	0.0000000E+000	0.0000000E+000	0.0000000E+000	-9.6824646E+001	0.0000000E+000	0.0000000E+000	0.0000000E+000	6.8246493E+000	0.0000000E+000	0.0000000E+000	0.0000000E+000	-6.8246493E+000	-8.3556747E+000	-6.8246493E+000	-1.710640683521831E-005
1.1228845E+005	1.2822747E-001	-1.2301499E-002	1.2881619E-001	5.4798989E+000	3.674500601162435E+000	3.0595314E-004	3.9495988E+000	-1.1521976E+002	-1.0507567E+000	1.000000000000000E+000	65	1.0542492E-002	8.1841365E-002	0	-4.436651014784972E-004	7.7275209E+000	-7.4133950E-001	7.7629995E+000	-5.4798989E+000	-1.0507562E+003	1.0952801E+004	1.1003088E+004	-9.5479897E+001	0.0000000E+000	0.0000000E+000	0.0000000E+000	9.5479897E+001	0.0000000E+000	0.0000000E+000	0.0000000E+000	-9.5479897E+001	0.0000000E+000	0.0000000E+000	0.0000000E+000	5.4798989E+000	0.0000000E+000	0.0000000E+000	0.0000000E+000	-5.4798989E+000	-1.0423727E+001	-5.4798989E+000	1.423233147792518E-003
9.2627305E+004	1.2852316E-001	-9.6470015E-003	1.2888470E-001	4.2925954E+000	4.250478175206808E+000	3.0270961E-004	3.7856381E+000	-1.7811018E+002	-9.9786252E-001	1.000000000000000E+000	65	1.0539743E-002	8.1776522E-002	0	1.064826678122497E-003	7.7371073E+000	-5.8075047E-001	7.7588725E+000	-4.2925954E+000	-9.9786243E+002	1.3294125E+004	1.3331522E+004	-9.4292595E+001	0.0000000E+000	0.0000000E+000	0.0000000E+000	9.4292595E+001	0.0000000E+000	0.0000000E+000	0.0000000E+000	-9.4292595E+001	0.0000000E+000	0.0000000E+000	0.0000000E+000	4.2925954E+000	0.0000000E+000	0.0000000E+000	0.0000000E+000	-4.2925954E+000	-1.3322601E+001	-4.2925954E+000	1.508491779600994E-003
7.6417750E+004	1.2889725E-001	-7.5119501E-003	1.2911595E-001	3.3353446E+000	4.826493349246448E+000	3.0397720E-004	3.7714777E+000	-2.7725104E+002	-9.3846649E-001	1.000000000000000E+000	65	1.0531967E-002	8.1569828E-002	0	2.452227124368151E-003	7.7318568E+000	-4.5060173E-001	7.7449760E+000	-3.3353446E+000	-9.3846588E+002	1.6103109E+004	1.6130433E+004	-9.3335342E+001	0.0000000E+000	0.0000000E+000	0.0000000E+000	9.3335342E+001	0.0000000E+000	0.0000000E+000	0.0000000E+000	-9.3335342E+001	0.0000000E+000	0.0000000E+000	0.0000000E+000	3.3353446E+000	0.0000000E+000	0.0000000E+000	0.0000000E+000	-3.3353446E+000	-1.7158960E+001	-3.3353446E+000	1.387400446245654E-003
6.3038156E+004	1.2914874E-001	-5.6237001E-003	1.2927112E-001	2.4933333E+000	5.402481589902891E+000	3.0770540E-004	3.7303011E+000	-4.4894638E+002	-8.4964162E-001	1.000000000000000E+000	65	1.0521670E-002	8.1392273E-002	0	2.841522099461820E-003	7.7283568E+000	-3.3652639E-001	7.7356801E+000	-2.4933333E+000	-8.4964111E+002	1.9512090E+004	1.9530580E+004	-9.2493332E+001	0.0000000E+000	0.0000000E+000	0.0000000E+000	9.2493332E+001	0.0000000E+000	0.0000000E+000	0.0000000E+000	-9.2493332E+001	0.0000000E+000	0.0000000E+000	0.0000000E+000	2.4933333E+000	0.0000000E+000	0.0000000E+000	0.0000000E+000	-2.4933333E+000	-2.2965082E+001	-2.4933333E+000	3.892949750936691E-004
5.2006016E+004	1.2950251E-001	-4.0258914E-003	1.2956506E-001	1.7806014E+000	5.979493723978521E+000	3.0410770E-004	3.7433434E+000	-7.6015912E+002	-7.3392689E-001	1.000000000000000E+000	65	1.0503012E-002	8.1063613E-002	0	3.488189575273957E-003	7.7144032E+000	-2.3982048E-001	7.7181301E+000	-1.7806014E+000	-7.3392694E+002	2.3608527E+004	2.3619932E+004	-9.1780602E+001	0.0000000E+000	0.0000000E+000	0.0000000E+000	9.1780602E+001	0.0000000E+000	0.0000000E+000	0.0000000E+000	-9.1780602E+001	0.0000000E+000	0.0000000E+000	0.0000000E+000	1.7806014E+000	0.0000000E+000	0.0000000E+000	0.0000000E+000	-1.7806014E+000	-3.2167412E+001	-1.7806014E+000	6.466674758121372E-004
4.2903805E+004	1.2993276E-001	-2.5941846E-003	1.2995866E-001	1.1437923E+000	6.555495457985671E+000	3.0682929E-004	3.7828431E+000	-1.4299585E+003	-5.6978989E-001	1.000000000000000E+000	65	1.0471381E-002	8.0574706E-002	0	3.337352882881959E-003	7.6932216E+000	-1.5359972E-001	7.6947546E+000	-1.1437923E+000	-5.6978937E+002	2.8538592E+004	2.8544279E+004	-9.1143791E+001	0.0000000E+000	0.0000000E+000	0.0000000E+000	9.1143791E+001	0.0000000E+000	0.0000000E+000	0.0000000E+000	-9.1143791E+001	0.0000000E+000	0.0000000E+000	0.0000000E+000	1.1437923E+000	0.0000000E+000	0.0000000E+000	0.0000000E+000	-1.1437923E+000	-5.0086166E+001	-1.1437923E+000	-1.508366923919980E-004
3.5388207E+004	1.3023107E-001	-1.4317004E-003	1.3023894E-001	6.2985808E-001	7.132478472107323E+000	2.9122675E-004	3.6336014E+000	-3.1413000E+003	-3.7960511E-001	1.000000000000000E+000	65	1.0447592E-002	8.0218658E-002	0	4.501770503345463E-003	7.6777315E+000	-8.4405452E-002	7.6781955E+000	-6.2985808E-001	-3.7960623E+002	3.4529836E+004	3.4531922E+004	-9.0629860E+001	0.0000000E+000	0.0000000E+000	0.0000000E+000	9.0629860E+001	0.0000000E+000	0.0000000E+000	0.0000000E+000	-9.0629860E+001	0.0000000E+000	0.0000000E+000	0.0000000E+000	6.2985808E-001	0.0000000E+000	0.0000000E+000	0.0000000E+000	-6.2985808E-001	-9.0962509E+001	-6.2985808E-001	1.164417620463504E-003
2.9199451E+004	1.3057186E-001	-4.1854306E-004	1.3057253E-001	1.8365878E-001	7.708494446094846E+000	2.8796456E-004	3.6162736E+000	-1.3022828E+004	-1.3380796E-001	1.000000000000000E+000	65	1.0412696E-002	7.9746455E-002	0	4.333791221593403E-003	7.6585393E+000	-2.4549153E-002	7.6585789E+000	-1.8365878E-001	-1.3381061E+002	4.1743742E+004	4.1743957E+004	-9.0183662E+001	0.0000000E+000	0.0000000E+000	0.0000000E+000	9.0183662E+001	0.0000000E+000	0.0000000E+000	0.0000000E+000	-9.0183662E+001	0.0000000E+000	0.0000000E+000	0.0000000E+000	1.8365878E-001	0.0000000E+000	0.0000000E+000	0.0000000E+000	-1.8365878E-001	-3.1196756E+002	-1.8365878E-001	-1.679792817520596E-004
2.4086996E+004	1.3100901E-001	3.8668694E-004	1.3100958E-001	-1.6911405E-001	8.284491726808483E+000	2.9282988E-004	3.6008091E+000	1.7087479E+004	1.4886442E-001	1.000000000000000E+000	65	1.0385603E-002	7.9273611E-002	0	4.144430745114883E-003	7.6329961E+000	2.2529595E-002	7.6330295E+000	1.6911405E-001	1.4886362E+002	5.0435059E+004	5.0435277E+004	-8.9830887E+001	0.0000000E+000	0.0000000E+000	0.0000000E+000	8.9830887E+001	0.0000000E+000	0.0000000E+000	0.0000000E+000	-8.9830887E+001	0.0000000E+000	0.0000000E+000	0.0000000E+000	-1.6911405E-001	0.0000000E+000	0.0000000E+000	0.0000000E+000	1.6911405E-001	3.3879865E+002	1.6911405E-001	-1.893604764785202E-004
1.9865275E+004	1.3142599E-001	1.1925171E-003	1.3143140E-001	-5.1986915E-001	8.860481380805140E+000	2.9665127E-004	3.6349056E+000	6.7183237E+003	5.5308503E-001	1.000000000000000E+000	65	1.0335150E-002	7.8635320E-002	0	5.215245859112177E-003	7.6082187E+000	6.9034524E-002	7.6085320E+000	5.1986915E-001	5.5308264E+002	6.0954887E+004	6.0957395E+004	-8.9480133E+001	0.0000000E+000	0.0000000E+000	0.0000000E+000	8.9480133E+001	0.0000000E+000	0.0000000E+000	0.0000000E+000	-8.9480133E+001	0.0000000E+000	0.0000000E+000	0.0000000E+000	-5.1986915E-001	0.0000000E+000	0.0000000E+000	0.0000000E+000	5.1986915E-001	1.1020889E+002	5.1986915E-001	1.070815113997294E-003
1.6395115E+004	1.3185510E-001	1.8572828E-003	1.3186818E-001	-8.0700272E-001	9.436477594863391E+000	2.8891527E-004	3.6045356E+000	5.2267007E+003	1.0368207E+000	1.000000000000000E+000	65	1.0273511E-002	7.7907428E-002	0	5.806255103415913E-003	7.5825782E+000	1.0680657E-001	7.5833302E+000	8.0700272E-001	1.0368163E+003	7.3607586E+004	7.3614891E+004	-8.9193001E+001	0.0000000E+000	0.0000000E+000	0.0000000E+000	8.9193001E+001	0.0000000E+000	0.0000000E+000	0.0000000E+000	-8.9193001E+001	0.0000000E+000	0.0000000E+000	0.0000000E+000	-8.0700272E-001	0.0000000E+000	0.0000000E+000	0.0000000E+000	8.0700272E-001	7.0993553E+001	8.0700272E-001	5.910092443037361E-004
1.3518780E+004	1.3242452E-001	2.2704066E-003	1.3244398E-001	-9.8223478E-001	1.001249503556755E+001	2.9929829E-004	3.5387650E+000	5.1853608E+003	1.5237784E+000	1.000000000000000E+000	65	1.0235024E-002	7.7278137E-002	0	6.251705147868230E-003	7.5492525E+000	1.2943126E-001	7.5503621E+000	9.8223478E-001	1.5237728E+003	8.8876430E+004	8.8889492E+004	-8.9017769E+001	0.0000000E+000	0.0000000E+000	0.0000000E+000	8.9017769E+001	0.0000000E+000	0.0000000E+000	0.0000000E+000	-8.9017769E+001	0.0000000E+000	0.0000000E+000	0.0000000E+000	-9.8223478E-001	0.0000000E+000	0.0000000E+000	0.0000000E+000	9.8223478E-001	5.8326347E+001	9.8223478E-001	4.454500444523168E-004
1.1152759E+004	1.3288352E-001	2.8374435E-003	1.3291381E-001	-1.2232430E+000	1.058847866291762E+001	2.9297901E-004	3.5307529E+000	5.0293354E+003	2.2920537E+000	1.000000000000000E+000	65	1.0179859E-002	7.6589920E-002	0	6.438841401065804E-003	7.5219579E+000	1.6061532E-001	7.5236726E+000	1.2232430E+000	2.2920552E+003	1.0734176E+005	1.0736623E+005	-8.8776756E+001	0.0000000E+000	0.0000000E+000	0.0000000E+000	8.8776756E+001	0.0000000E+000	0.0000000E+000	0.0000000E+000	-8.8776756E+001	0.0000000E+000	0.0000000E+000	0.0000000E+000	-1.2232430E+000	0.0000000E+000	0.0000000E+000	0.0000000E+000	1.2232430E+000	4.6832130E+001	1.2232430E+000	1.871362531975741E-004
9.2011914E+003	1.3331322E-001	3.1893225E-003	1.3335137E-001	-1.3704557E+000	1.117831986423698E+001	2.0346491E-004	3.1171241E+000	5.4234746E+003	3.1022696E+000	1.000000000000000E+000	65	1.0249449E-002	7.6860473E-002	0	6.577899505499750E-003	7.4968410E+000	1.7935087E-001	7.4989858E+000	1.3704557E+000	3.1022632E+003	1.2967442E+005	1.2971152E+005	-8.8629547E+001	0.0000000E+000	0.0000000E+000	0.0000000E+000	8.8629547E+001	0.0000000E+000	0.0000000E+000	0.0000000E+000	-8.8629547E+001	0.0000000E+000	0.0000000E+000	0.0000000E+000	-1.3704557E+000	0.0000000E+000	0.0000000E+000	0.0000000E+000	1.3704557E+000	4.1799858E+001	1.3704557E+000	1.390581044339468E-004
7.5907632E+003	1.3402684E-001	3.6035755E-003	1.3407527E-001	-1.5401390E+000	1.185501133641810E+001	1.9160923E-004	2.9127316E+000	5.8183662E+003	4.2031121E+000	1.000000000000000E+000	65	1.0133361E-002	7.5579643E-002	0	7.041906547068308E-003	7.4558024E+000	2.0046395E-001	7.4584970E+000	1.5401390E+000	4.2031104E+003	1.5632523E+005	1.5638173E+005	-8.8459862E+001	0.0000000E+000	0.0000000E+000	0.0000000E+000	8.8459862E+001	0.0000000E+000	0.0000000E+000	0.0000000E+000	-8.8459862E+001	0.0000000E+000	0.0000000E+000	0.0000000E+000	-1.5401390E+000	0.0000000E+000	0.0000000E+000	0.0000000E+000	1.5401390E+000	3.7192738E+001	1.5401390E+000	4.640070415685574E-004
6.2634199E+003	1.3456221E-001	3.9276103E-003	1.3461952E-001	-1.6718781E+000	1.244071459092083E+001	2.0594419E-004	3.0003021E+000	6.4696416E+003	5.5070744E+000	1.000000000000000E+000	65	1.0826416E-002	8.0422334E-002	0	7.677503006637510E-003	7.4251809E+000	2.1672665E-001	7.4283433E+000	1.6718781E+000	5.5070640E+003	1.8867556E+005	1.8875592E+005	-8.8328125E+001	0.0000000E+000	0.0000000E+000	0.0000000E+000	8.8328125E+001	0.0000000E+000	0.0000000E+000	0.0000000E+000	-8.8328125E+001	0.0000000E+000	0.0000000E+000	0.0000000E+000	-1.6718781E+000	0.0000000E+000	0.0000000E+000	0.0000000E+000	1.6718781E+000	3.4260582E+001	1.6718781E+000	6.355964595692026E-004
5.1664116E+003	1.3510226E-001	4.2450959E-003	1.3516894E-001	-1.7997187E+000	1.336252658130252E+001	1.9681007E-004	2.8929818E+000	7.2567744E+003	7.1575570E+000	1.000000000000000E+000	65	1.0169751E-002	7.5237334E-002	0	8.502222874488267E-003	7.3945003E+000	2.3234519E-001	7.3981495E+000	1.7997187E+000	7.1575649E+003	2.2779277E+005	2.2790519E+005	-8.8200279E+001	0.0000000E+000	0.0000000E+000	0.0000000E+000	8.8200279E+001	0.0000000E+000	0.0000000E+000	0.0000000E+000	-8.8200279E+001	0.0000000E+000	0.0000000E+000	0.0000000E+000	-1.7997187E+000	0.0000000E+000	0.0000000E+000	0.0000000E+000	1.7997187E+000	3.1825491E+001	1.7997187E+000	8.247198678507563E-004
4.2613672E+003	1.3578802E-001	4.5499317E-003	1.3586423E-001	-1.9191265E+000	1.405369642753794E+001	1.9992313E-004	2.8793809E+000	8.2085479E+003	9.2058907E+000	1.000000000000000E+000	65	1.0504920E-002	7.7319250E-002	0	9.246633441224280E-003	7.3561606E+000	2.4648735E-001	7.3602891E+000	1.9191265E+000	9.2058994E+003	2.7474031E+005	2.7489450E+005	-8.8080872E+001	0.0000000E+000	0.0000000E+000	0.0000000E+000	8.8080872E+001	0.0000000E+000	0.0000000E+000	0.0000000E+000	-8.8080872E+001	0.0000000E+000	0.0000000E+000	0.0000000E+000	-1.9191265E+000	0.0000000E+000	0.0000000E+000	0.0000000E+000	1.9191265E+000	2.9843969E+001	1.9191265E+000	7.444105667360132E-004
3.5161228E+003	1.3640177E-001	4.7418061E-003	1.3648418E-001	-1.9910012E+000	1.474567779374047E+001	2.0642884E-004	2.8288884E+000	9.5457998E+003	1.1522197E+001	1.000000000000000E+000	65	1.0741971E-002	7.8704879E-002	0	9.498000000411438E-003	7.3224335E+000	2.5455356E-001	7.3268566E+000	1.9910012E+000	1.1522218E+004	3.3144503E+005	3.3164525E+005	-8.8008995E+001	0.0000000E+000	0.0000000E+000	0.0000000E+000	8.8008995E+001	0.0000000E+000	0.0000000E+000	0.0000000E+000	-8.8008995E+001	0.0000000E+000	0.0000000E+000	0.0000000E+000	-1.9910012E+000	0.0000000E+000	0.0000000E+000	0.0000000E+000	1.9910012E+000	2.8765785E+001	1.9910012E+000	2.513665591871578E-004
2.9009282E+003	1.3714486E-001	5.0068544E-003	1.3723622E-001	-2.0908132E+000	1.543768187994283E+001	2.0150763E-004	2.7744832E+000	1.0957669E+004	1.4585139E+001	1.000000000000000E+000	65	1.0896515E-002	7.9399705E-002	0	1.039688988843446E-002	7.2818551E+000	2.6584435E-001	7.2867060E+000	2.0908132E+000	1.4585137E+004	3.9950772E+005	3.9977388E+005	-8.7909187E+001	0.0000000E+000	0.0000000E+000	0.0000000E+000	8.7909187E+001	0.0000000E+000	0.0000000E+000	0.0000000E+000	-8.7909187E+001	0.0000000E+000	0.0000000E+000	0.0000000E+000	-2.0908132E+000	0.0000000E+000	0.0000000E+000	0.0000000E+000	2.0908132E+000	2.7391422E+001	2.0908132E+000	8.988898880230266E-004
2.3927019E+003	1.3770691E-001	5.0706156E-003	1.3780023E-001	-2.1087809E+000	1.636294792385888E+001	2.0458335E-004	2.9902406E+000	1.3118098E+004	1.7762020E+001	1.000000000000000E+000	65	1.0102837E-002	7.3315099E-002	0	1.082384158160289E-002	7.2519670E+000	2.6703045E-001	7.2568817E+000	2.1087809E+000	1.7762012E+004	4.8237788E+005	4.8270478E+005	-8.7891220E+001	0.0000000E+000	0.0000000E+000	0.0000000E+000	8.7891220E+001	0.0000000E+000	0.0000000E+000	0.0000000E+000	-8.7891220E+001	0.0000000E+000	0.0000000E+000	0.0000000E+000	-2.1087809E+000	0.0000000E+000	0.0000000E+000	0.0000000E+000	2.1087809E+000	2.7157827E+001	2.1087809E+000	4.269516931684272E-004
1.9743666E+003	1.3823584E-001	5.3632436E-003	1.3833983E-001	-2.2218347E+000	1.705482339674199E+001	2.0066876E-004	2.9479461E+000	1.5030201E+004	2.2590475E+001	1.000000000000000E+000	65	1.0162194E-002	7.3458195E-002	0	1.118106255156500E-002	7.2231417E+000	2.8024188E-001	7.2285762E+000	2.2218347E+000	2.2590449E+004	5.8226200E+005	5.8270006E+005	-8.7778168E+001	0.0000000E+000	0.0000000E+000	0.0000000E+000	8.7778168E+001	0.0000000E+000	0.0000000E+000	0.0000000E+000	-8.7778168E+001	0.0000000E+000	0.0000000E+000	0.0000000E+000	-2.2218347E+000	0.0000000E+000	0.0000000E+000	0.0000000E+000	2.2218347E+000	2.5774670E+001	2.2218347E+000	3.572209699621107E-004
1.6284362E+003	1.3911217E-001	5.4079173E-003	1.3921724E-001	-2.2262244E+000	1.774694902959163E+001	2.0833021E-004	2.8803122E+000	1.8072545E+004	2.7270517E+001	1.000000000000000E+000	65	1.0214558E-002	7.3371358E-002	0	1.170765868668051E-002	7.1775966E+000	2.7902555E-001	7.1830182E+000	2.2262244E+000	2.7270547E+004	7.0150125E+005	7.0203113E+005	-8.7773773E+001	0.0000000E+000	0.0000000E+000	0.0000000E+000	8.7773773E+001	0.0000000E+000	0.0000000E+000	0.0000000E+000	-8.7773773E+001	0.0000000E+000	0.0000000E+000	0.0000000E+000	-2.2262244E+000	0.0000000E+000	0.0000000E+000	0.0000000E+000	2.2262244E+000	2.5723799E+001	2.2262244E+000	5.265961351155098E-004
