EC-Lab ASCII FILE
Nb header lines : 66                          

Potentio Electrochemical Impedance Spectroscopy

Run on channel : 1 (SN 5680)
User : 
Electrode connection : standard
Potential control : Ewe
Ewe ctrl range : min = 0.00 V, max = 5.00 V
Ewe,I filtering : <None>
Safety Limits :
	Do not start on E overload
Channel : Floating
Acquisition started on : 06/29/2023 23:12:48.160
Loaded Setting File :  C:\Data\baili\Electrode Combination Tests\20230622\new tests\positive\ELAT_ve5_30mL_EIS_C01.mpr
Saved on :
	File : FrePaper_ve5_30mL_EIS_C01.mpr
	Directory : C:\Data\baili\Electrode Combination Tests\20230622\new tests\positive\
	Host : 192.168.0.1
Device : SP-300 (SN 0955)
Address : 192.168.0.4
EC-Lab for windows v11.46 (software)
Internet server v11.40 (firmware)
Command interpretor v11.46 (firmware)
Electrode material : 
Initial state : 
Electrolyte : 
Comments : 
Current amplifier : B-10A5V
Cable : standard
Electrode surface area : 0.001 cm2
Characteristic mass : 0.001 g
Equivalent Weight : 0.000 g/eq.
Density : 0.000 g/cm3
Volume (V) : 0.001 cm3
Cycle Definition : Charge/Discharge alternance
Mode                Single sine         
E (V)               0.0000              
vs.                 Eoc                 
tE (h:m:s)          0:00:0.0000         
record              0                   
dI                  0.000               
unit dI             mA                  
dt (s)              0.000               
fi                  200.000             
unit fi             kHz                 
ff                  50.000              
unit ff             mHz                 
Nd                  8                   
Points              per decade          
spacing             Logarithmic         
Va (mV)             10.0                
pw                  0.10                
Na                  3                   
corr                0                   
E range min (V)     0.000               
E range max (V)     5.000               
I Range             Auto                
Bandwidth           8                   
nc cycles           3                   
goto Ns'            0                   
nr cycles           0                   
inc. cycle          0                   

freq/Hz	Re(Z)/Ohm	-Im(Z)/Ohm	|Z|/Ohm	Phase(Z)/deg	time/s	<Ewe>/V	<I>/mA	Cs/uF	Cp/uF	cycle number	I Range	|Ewe|/V	|I|/A	Ns	(Q-Qo)/mA.h	Re(Y)/Ohm-1	Im(Y)/Ohm-1	|Y|/Ohm-1	Phase(Y)/deg	Re(C)/nF	Im(C)/nF	|C|/nF	Phase(C)/deg	Re(M)	Im(M)	|M|	Phase(M)/deg	Re(Permittivity)	Im(Permittivity)	|Permittivity|	Phase(Permittivity)/deg	Re(Resistivity)/Ohm.cm	Im(Resistivity)/Ohm.cm	|Resistivity|/Ohm.cm	Phase(Resistivity)/deg	Re(Conductivity)/mS/cm	Im(Conductivity)/mS/cm	|Conductivity|/mS/cm	Phase(Conductivity)/deg	Tan(Delta)	Loss Angle(Delta)/deg	dq/mA.h	
1.9999814E+005	1.2016048E-001	-2.3921128E-002	1.2251841E-001	1.1259047E+001	1.372497105185175E+000	7.0819201E-006	-1.6503590E+001	-3.3266914E+001	-1.2681574E+000	1.000000000000000E+000	65	9.6464949E-003	7.8735068E-002	0	-3.303019225760467E-003	8.0049562E+000	-1.5935987E+000	8.1620388E+000	-1.1259047E+001	-1.2681576E+003	6.3702007E+003	6.4952046E+003	-1.0125905E+002	0.0000000E+000	0.0000000E+000	0.0000000E+000	1.0125905E+002	0.0000000E+000	0.0000000E+000	0.0000000E+000	-1.0125905E+002	0.0000000E+000	0.0000000E+000	0.0000000E+000	1.1259047E+001	0.0000000E+000	0.0000000E+000	0.0000000E+000	-1.1259047E+001	-5.0231943E+000	-1.1259047E+001	-3.303019225760467E-003
1.4930041E+005	1.2095593E-001	-1.7633617E-002	1.2223453E-001	8.2944593E+000	1.949487985897576E+000	8.8715051E-006	1.1182919E+000	-6.0452984E+001	-1.2580929E+000	1.000000000000000E+000	65	1.0711432E-002	8.7630160E-002	0	-3.519287609815598E-003	8.0954189E+000	-1.1801944E+000	8.1809940E+000	-8.2944593E+000	-1.2580924E+003	8.6297549E+003	8.7209785E+003	-9.8294456E+001	0.0000000E+000	0.0000000E+000	0.0000000E+000	9.8294456E+001	0.0000000E+000	0.0000000E+000	0.0000000E+000	-9.8294456E+001	0.0000000E+000	0.0000000E+000	0.0000000E+000	8.2944593E+000	0.0000000E+000	0.0000000E+000	0.0000000E+000	-8.2944593E+000	-6.8593941E+000	-8.2944593E+000	-2.162683840551309E-004
1.1145338E+005	1.2148686E-001	-1.3220208E-002	1.2220405E-001	6.2104931E+000	2.525498599949060E+000	4.5654397E-006	1.0853133E+000	-1.0801612E+002	-1.2641364E+000	1.000000000000000E+000	65	1.0886035E-002	8.9080803E-002	0	-3.079318944429565E-003	8.1350098E+000	-8.8525236E-001	8.1830349E+000	-6.2104931E+000	-1.2641368E+003	1.1616759E+004	1.1685338E+004	-9.6210495E+001	0.0000000E+000	0.0000000E+000	0.0000000E+000	9.6210495E+001	0.0000000E+000	0.0000000E+000	0.0000000E+000	-9.6210495E+001	0.0000000E+000	0.0000000E+000	0.0000000E+000	6.2104931E+000	0.0000000E+000	0.0000000E+000	0.0000000E+000	-6.2104931E+000	-9.1894817E+000	-6.2104931E+000	4.399686653860329E-004
8.3200344E+004	1.2172472E-001	-9.6923998E-003	1.2210999E-001	4.5526037E+000	3.101500440592645E+000	9.8222035E-006	1.0268091E+000	-1.9736208E+002	-1.2434375E+000	1.000000000000000E+000	65	1.0899871E-002	8.9262731E-002	0	-2.169874525134762E-003	8.1635008E+000	-6.5002334E-001	8.1893387E+000	-4.5526037E+000	-1.2434377E+003	1.5616058E+004	1.5665484E+004	-9.4552605E+001	0.0000000E+000	0.0000000E+000	0.0000000E+000	9.4552605E+001	0.0000000E+000	0.0000000E+000	0.0000000E+000	-9.4552605E+001	0.0000000E+000	0.0000000E+000	0.0000000E+000	4.5526037E+000	0.0000000E+000	0.0000000E+000	0.0000000E+000	-4.5526037E+000	-1.2558780E+001	-4.5526037E+000	9.094444192948026E-004
6.2110305E+004	1.2180453E-001	-7.0320787E-003	1.2200735E-001	3.3041604E+000	3.677499294659356E+000	6.1499250E-006	1.1356194E+000	-3.6439529E+002	-1.2105095E+000	1.000000000000000E+000	65	1.0857143E-002	8.8987619E-002	0	-2.011502461400711E-003	8.1826029E+000	-4.7240204E-001	8.1962280E+000	-3.3041604E+000	-1.2105098E+003	2.0967561E+004	2.1002475E+004	-9.3304161E+001	0.0000000E+000	0.0000000E+000	0.0000000E+000	9.3304161E+001	0.0000000E+000	0.0000000E+000	0.0000000E+000	-9.3304161E+001	0.0000000E+000	0.0000000E+000	0.0000000E+000	3.3041604E+000	0.0000000E+000	0.0000000E+000	0.0000000E+000	-3.3041604E+000	-1.7321270E+001	-3.3041604E+000	1.583720637340514E-004
4.6364680E+004	1.2186386E-001	-4.9460162E-003	1.2196419E-001	2.3241541E+000	4.253480575309368E+000	6.3176917E-006	1.0828911E+000	-6.9402856E+002	-1.1413628E+000	1.000000000000000E+000	65	1.0771462E-002	8.8316590E-002	0	-1.288191397269981E-003	8.1923838E+000	-3.3249938E-001	8.1991282E+000	-2.3241541E+000	-1.1413644E+003	2.8121797E+004	2.8144949E+004	-9.2324158E+001	0.0000000E+000	0.0000000E+000	0.0000000E+000	9.2324158E+001	0.0000000E+000	0.0000000E+000	0.0000000E+000	-9.2324158E+001	0.0000000E+000	0.0000000E+000	0.0000000E+000	2.3241541E+000	0.0000000E+000	0.0000000E+000	0.0000000E+000	-2.3241541E+000	-2.4638792E+001	-2.3241541E+000	7.233110641307299E-004
3.4618094E+004	1.2201472E-001	-3.3901143E-003	1.2206180E-001	1.5915234E+000	4.829489349358482E+000	4.5281499E-006	1.0610918E+000	-1.3561342E+003	-1.0460966E+000	1.000000000000000E+000	65	1.0688975E-002	8.7570190E-002	0	-1.333893001879255E-003	8.1894102E+000	-2.2753842E-001	8.1925707E+000	-1.5915234E+000	-1.0460957E+003	3.7650402E+004	3.7664934E+004	-9.1591522E+001	0.0000000E+000	0.0000000E+000	0.0000000E+000	9.1591522E+001	0.0000000E+000	0.0000000E+000	0.0000000E+000	-9.1591522E+001	0.0000000E+000	0.0000000E+000	0.0000000E+000	1.5915234E+000	0.0000000E+000	0.0000000E+000	0.0000000E+000	-1.5915234E+000	-3.5991329E+001	-1.5915234E+000	-4.570160460927431E-005
2.5840633E+004	1.2211951E-001	-2.0774067E-003	1.2213717E-001	9.7457939E-001	5.405479456734611E+000	1.3811366E-005	1.1840625E+000	-2.9648003E+003	-8.5771459E-001	1.000000000000000E+000	65	1.0593417E-002	8.6733766E-002	0	-2.040817559875962E-003	8.1863308E+000	-1.3925980E-001	8.1875153E+000	-9.7457939E-001	-8.5771405E+002	5.0420402E+004	5.0427695E+004	-9.0974579E+001	0.0000000E+000	0.0000000E+000	0.0000000E+000	9.0974579E+001	0.0000000E+000	0.0000000E+000	0.0000000E+000	-9.0974579E+001	0.0000000E+000	0.0000000E+000	0.0000000E+000	9.7457939E-001	0.0000000E+000	0.0000000E+000	0.0000000E+000	-9.7457939E-001	-5.8784592E+001	-9.7457939E-001	-7.069245579967068E-004
1.9290008E+004	1.2224527E-001	-1.1773608E-003	1.2225094E-001	5.5180639E-001	5.981483270734316E+000	2.2069327E-005	1.1322656E+000	-7.0077432E+003	-6.4996940E-001	1.000000000000000E+000	65	1.0510135E-002	8.5971810E-002	0	-1.216492329195142E-003	8.1795168E+000	-7.8778043E-002	8.1798964E+000	-5.5180639E-001	-6.4996613E+002	6.7486266E+004	6.7489398E+004	-9.0551804E+001	0.0000000E+000	0.0000000E+000	0.0000000E+000	9.0551804E+001	0.0000000E+000	0.0000000E+000	0.0000000E+000	-9.0551804E+001	0.0000000E+000	0.0000000E+000	0.0000000E+000	5.5180639E-001	0.0000000E+000	0.0000000E+000	0.0000000E+000	-5.5180639E-001	-1.0382991E+002	-5.5180639E-001	8.243252306808200E-004
1.4400236E+004	1.2247487E-001	-4.4044762E-004	1.2247566E-001	2.0604782E-001	6.557481378113152E+000	1.9664632E-005	1.1950551E+000	-2.5093211E+004	-3.2452279E-001	1.000000000000000E+000	65	1.0435570E-002	8.5205257E-002	0	-1.123290812489059E-003	8.1648350E+000	-2.9362610E-002	8.1648874E+000	-2.0604782E-001	-3.2452158E+002	9.0239758E+004	9.0240344E+004	-9.0206047E+001	0.0000000E+000	0.0000000E+000	0.0000000E+000	9.0206047E+001	0.0000000E+000	0.0000000E+000	0.0000000E+000	-9.0206047E+001	0.0000000E+000	0.0000000E+000	0.0000000E+000	2.0604782E-001	0.0000000E+000	0.0000000E+000	0.0000000E+000	-2.0604782E-001	-2.7806909E+002	-2.0604782E-001	9.320151670608266E-005
1.0753788E+004	1.2274182E-001	2.3263572E-004	1.2274204E-001	-1.0859403E-001	7.133499378775014E+000	2.0894937E-005	1.2136871E+000	6.3618328E+004	2.2853270E-001	1.000000000000000E+000	65	1.0309977E-002	8.3997108E-002	0	-7.414612841424015E-004	8.1471539E+000	1.5441509E-002	8.1471682E+000	1.0859403E-001	2.2853854E+002	1.2057702E+005	1.2057723E+005	-8.9891403E+001	0.0000000E+000	0.0000000E+000	0.0000000E+000	8.9891403E+001	0.0000000E+000	0.0000000E+000	0.0000000E+000	-8.9891403E+001	0.0000000E+000	0.0000000E+000	0.0000000E+000	-1.0859403E-001	0.0000000E+000	0.0000000E+000	0.0000000E+000	1.0859403E-001	5.2761383E+002	1.0859403E-001	3.818295283466577E-004
8.0234409E+003	1.2300712E-001	6.9932098E-004	1.2300911E-001	-3.2573488E-001	7.782722823016229E+000	-6.1461011E-005	6.5342510E-001	2.8365010E+004	9.1677231E-001	1.000000000000000E+000	65	1.0421443E-002	8.4720902E-002	0	-2.315187902359499E-004	8.1293478E+000	4.6217032E-002	8.1294794E+000	3.2573488E-001	9.1677826E+002	1.6125573E+005	1.6125834E+005	-8.9674263E+001	0.0000000E+000	0.0000000E+000	0.0000000E+000	8.9674263E+001	0.0000000E+000	0.0000000E+000	0.0000000E+000	-8.9674263E+001	0.0000000E+000	0.0000000E+000	0.0000000E+000	-3.2573488E-001	0.0000000E+000	0.0000000E+000	0.0000000E+000	3.2573488E-001	1.7589508E+002	3.2573488E-001	5.099424939064515E-004
5.9921147E+003	1.2331285E-001	1.0630566E-003	1.2331744E-001	-4.9392378E-001	8.596147234929958E+000	-7.2757459E-005	6.9106144E-001	2.4985246E+004	1.8567245E+000	1.000000000000000E+000	65	1.0201678E-002	8.2726970E-002	0	-2.437858544543592E-004	8.1088524E+000	6.9904871E-002	8.1091537E+000	4.9392378E-001	1.8567365E+003	2.1537703E+005	2.1538503E+005	-8.9506073E+001	0.0000000E+000	0.0000000E+000	0.0000000E+000	8.9506073E+001	0.0000000E+000	0.0000000E+000	0.0000000E+000	-8.9506073E+001	0.0000000E+000	0.0000000E+000	0.0000000E+000	-4.9392378E-001	0.0000000E+000	0.0000000E+000	0.0000000E+000	4.9392378E-001	1.1599838E+002	4.9392378E-001	-1.226706421840934E-005
4.4714287E+003	1.2368636E-001	1.4117585E-003	1.2369441E-001	-6.5394676E-001	9.521680185614969E+000	-7.8908997E-005	6.0200077E-001	2.5212355E+004	3.2842338E+000	1.000000000000000E+000	65	1.0149775E-002	8.2055241E-002	0	3.120820810173949E-004	8.0839128E+000	9.2269942E-002	8.0844393E+000	6.5394676E-001	3.2842295E+003	2.8773681E+005	2.8775556E+005	-8.9346054E+001	0.0000000E+000	0.0000000E+000	0.0000000E+000	8.9346054E+001	0.0000000E+000	0.0000000E+000	0.0000000E+000	-8.9346054E+001	0.0000000E+000	0.0000000E+000	0.0000000E+000	-6.5394676E-001	0.0000000E+000	0.0000000E+000	0.0000000E+000	6.5394676E-001	8.7611557E+001	6.5394676E-001	5.558679354717541E-004
3.3389331E+003	1.2404013E-001	1.6586178E-003	1.2405122E-001	-7.6609182E-001	1.021381387181464E+001	-8.0512094E-005	6.0777694E-001	2.8738635E+004	5.1375570E+000	1.000000000000000E+000	65	1.0814044E-002	8.7174021E-002	0	5.573048789819909E-005	8.0604649E+000	1.0778149E-001	8.0611858E+000	7.6609182E-001	5.1375474E+003	3.8421347E+005	3.8424781E+005	-8.9233910E+001	0.0000000E+000	0.0000000E+000	0.0000000E+000	8.9233910E+001	0.0000000E+000	0.0000000E+000	0.0000000E+000	-8.9233910E+001	0.0000000E+000	0.0000000E+000	0.0000000E+000	-7.6609182E-001	0.0000000E+000	0.0000000E+000	0.0000000E+000	7.6609182E-001	7.4785248E+001	7.6609182E-001	-2.563515931191958E-004
2.4923906E+003	1.2434199E-001	1.9956101E-003	1.2435801E-001	-9.1948199E-001	1.113856532904902E+001	-8.1276405E-005	6.4410889E-001	3.1998404E+004	8.2400951E+000	1.000000000000000E+000	65	1.0109174E-002	8.1290901E-002	0	1.602196091715660E-004	8.0402641E+000	1.2904115E-001	8.0412998E+000	9.1948199E-001	8.2400713E+003	5.1342184E+005	5.1348797E+005	-8.9080521E+001	0.0000000E+000	0.0000000E+000	0.0000000E+000	8.9080521E+001	0.0000000E+000	0.0000000E+000	0.0000000E+000	-8.9080521E+001	0.0000000E+000	0.0000000E+000	0.0000000E+000	-9.1948199E-001	0.0000000E+000	0.0000000E+000	0.0000000E+000	9.1948199E-001	6.2307762E+001	9.1948199E-001	1.044891212733670E-004
1.8605962E+003	1.2472963E-001	2.1422771E-003	1.2474802E-001	-9.8397923E-001	1.182967981523689E+001	-8.9198824E-005	5.5598003E-001	3.9929359E+004	1.1775417E+001	1.000000000000000E+000	65	1.0334922E-002	8.2846381E-002	0	5.966211982882685E-004	8.0149765E+000	1.3766016E-001	8.0161591E+000	9.8397923E-001	1.1775405E+004	6.8559919E+005	6.8570031E+005	-8.9016022E+001	0.0000000E+000	0.0000000E+000	0.0000000E+000	8.9016022E+001	0.0000000E+000	0.0000000E+000	0.0000000E+000	-8.9016022E+001	0.0000000E+000	0.0000000E+000	0.0000000E+000	-9.8397923E-001	0.0000000E+000	0.0000000E+000	0.0000000E+000	9.8397923E-001	5.8222919E+001	9.8397923E-001	4.364015891167025E-004
1.3886691E+003	1.2530632E-001	2.6127365E-003	1.2533356E-001	-1.1944895E+000	1.252195398142794E+001	-8.2413491E-005	4.0133503E-001	4.3865773E+004	1.9062605E+001	1.000000000000000E+000	65	1.0469303E-002	8.3531521E-002	0	1.070538739736709E-003	7.9769750E+000	1.6632627E-001	7.9787087E+000	1.1944895E+000	1.9062588E+004	9.1423869E+005	9.1443738E+005	-8.8805511E+001	0.0000000E+000	0.0000000E+000	0.0000000E+000	8.8805511E+001	0.0000000E+000	0.0000000E+000	0.0000000E+000	-8.8805511E+001	0.0000000E+000	0.0000000E+000	0.0000000E+000	-1.1944895E+000	0.0000000E+000	0.0000000E+000	0.0000000E+000	1.1944895E+000	4.7959801E+001	1.1944895E+000	4.739175414484409E-004
1.0366589E+003	1.2572043E-001	2.8005973E-003	1.2575161E-001	-1.2761321E+000	1.321345476093120E+001	-8.9981739E-005	6.0814941E-001	5.4819313E+004	2.7189911E+001	1.000000000000000E+000	65	1.0545108E-002	8.3856642E-002	0	1.035238862002889E-003	7.9502120E+000	1.7710203E-001	7.9521842E+000	1.2761321E+000	2.7189879E+004	1.2205708E+006	1.2208735E+006	-8.8723869E+001	0.0000000E+000	0.0000000E+000	0.0000000E+000	8.8723869E+001	0.0000000E+000	0.0000000E+000	0.0000000E+000	-8.8723869E+001	0.0000000E+000	0.0000000E+000	0.0000000E+000	-1.2761321E+000	0.0000000E+000	0.0000000E+000	0.0000000E+000	1.2761321E+000	4.4890575E+001	1.2761321E+000	-3.529987773382001E-005
7.7376514E+002	1.2621909E-001	3.0866095E-003	1.2625682E-001	-1.4008535E+000	1.390507324712235E+001	-9.7904158E-005	4.6952799E-001	6.6639117E+004	3.9827488E+001	1.000000000000000E+000	65	1.0587345E-002	8.3855622E-002	0	8.853124349961679E-004	7.9179969E+000	1.9362970E-001	7.9203639E+000	1.4008535E+000	3.9827559E+004	1.6286445E+006	1.6291314E+006	-8.8599144E+001	0.0000000E+000	0.0000000E+000	0.0000000E+000	8.8599144E+001	0.0000000E+000	0.0000000E+000	0.0000000E+000	-8.8599144E+001	0.0000000E+000	0.0000000E+000	0.0000000E+000	-1.4008535E+000	0.0000000E+000	0.0000000E+000	0.0000000E+000	1.4008535E+000	4.0892471E+001	1.4008535E+000	-1.499264270067215E-004
5.7796539E+002	1.2670554E-001	3.3481866E-003	1.2674977E-001	-1.5136853E+000	1.459944218673627E+001	-1.0109177E-004	4.8089346E-001	8.2244836E+004	5.7389652E+001	1.000000000000000E+000	65	1.0603286E-002	8.3655275E-002	0	6.817220116431515E-004	7.8868074E+000	2.0840843E-001	7.8895607E+000	1.5136853E+000	5.7389719E+004	2.1717985E+006	2.1725568E+006	-8.8486313E+001	0.0000000E+000	0.0000000E+000	0.0000000E+000	8.8486313E+001	0.0000000E+000	0.0000000E+000	0.0000000E+000	-8.8486313E+001	0.0000000E+000	0.0000000E+000	0.0000000E+000	-1.5136853E+000	0.0000000E+000	0.0000000E+000	0.0000000E+000	1.5136853E+000	3.7843033E+001	1.5136853E+000	-2.035904233530164E-004
4.3124185E+002	1.2735306E-001	3.6198441E-003	1.2740450E-001	-1.6281191E+000	1.528819240615121E+001	-9.3579445E-005	5.4461449E-001	1.0195520E+005	8.2303741E+001	1.000000000000000E+000	65	1.0616433E-002	8.3328560E-002	0	3.987641709889803E-004	7.8458481E+000	2.2300795E-001	7.8490167E+000	1.6281191E+000	8.2303813E+004	2.8956038E+006	2.8967733E+006	-8.8371880E+001	0.0000000E+000	0.0000000E+000	0.0000000E+000	8.8371880E+001	0.0000000E+000	0.0000000E+000	0.0000000E+000	-8.8371880E+001	0.0000000E+000	0.0000000E+000	0.0000000E+000	-1.6281191E+000	0.0000000E+000	0.0000000E+000	0.0000000E+000	1.6281191E+000	3.5181919E+001	1.6281191E+000	-2.829578406541712E-004
3.2195746E+002	1.2807387E-001	3.6949490E-003	1.2812716E-001	-1.6525329E+000	1.597656169216498E+001	-8.2189792E-005	6.0516834E-001	1.3378678E+005	1.1126221E+002	1.000000000000000E+000	65	1.0618548E-002	8.2875080E-002	0	8.628105062999659E-004	7.8015008E+000	2.2507440E-001	7.8047466E+000	1.6525329E+000	1.1126231E+005	3.8565568E+006	3.8581615E+006	-8.8347466E+001	0.0000000E+000	0.0000000E+000	0.0000000E+000	8.8347466E+001	0.0000000E+000	0.0000000E+000	0.0000000E+000	-8.8347466E+001	0.0000000E+000	0.0000000E+000	0.0000000E+000	-1.6525329E+000	0.0000000E+000	0.0000000E+000	0.0000000E+000	1.6525329E+000	3.4661877E+001	1.6525329E+000	4.640463353109857E-004
2.4038478E+002	1.2873210E-001	4.1549713E-003	1.2879914E-001	-1.8486429E+000	1.666742785830866E+001	-8.5843429E-005	4.0170777E-001	1.5934745E+005	1.6582701E+002	1.000000000000000E+000	65	1.0621563E-002	8.2466096E-002	0	1.361485844920389E-003	7.7599864E+000	2.5046214E-001	7.7640271E+000	1.8486429E+000	1.6582677E+005	5.1377630E+006	5.1404385E+006	-8.8151360E+001	0.0000000E+000	0.0000000E+000	0.0000000E+000	8.8151360E+001	0.0000000E+000	0.0000000E+000	0.0000000E+000	-8.8151360E+001	0.0000000E+000	0.0000000E+000	0.0000000E+000	-1.8486429E+000	0.0000000E+000	0.0000000E+000	0.0000000E+000	1.8486429E+000	3.0982668E+001	1.8486429E+000	4.986753386204233E-004
1.7948300E+002	1.2953341E-001	4.5163492E-003	1.2961212E-001	-1.9968822E+000	1.736031349122641E+001	-8.4426720E-005	4.9076828E-001	1.9634022E+005	2.3839278E+002	1.000000000000000E+000	65	1.0614663E-002	8.1895605E-002	0	1.392776270603554E-003	7.7106423E+000	2.6884148E-001	7.7153277E+000	1.9968822E+000	2.3839247E+005	6.8373435E+006	6.8414980E+006	-8.8003120E+001	0.0000000E+000	0.0000000E+000	0.0000000E+000	8.8003120E+001	0.0000000E+000	0.0000000E+000	0.0000000E+000	-8.8003120E+001	0.0000000E+000	0.0000000E+000	0.0000000E+000	-1.9968822E+000	0.0000000E+000	0.0000000E+000	0.0000000E+000	1.9968822E+000	2.8681000E+001	1.9968822E+000	3.129042568316494E-005
1.3392865E+002	1.3030685E-001	4.8099416E-003	1.3039559E-001	-2.1139665E+000	1.805636600425350E+001	-9.7009390E-005	4.0971920E-001	2.4706250E+005	3.3617130E+002	1.000000000000000E+000	65	1.0617907E-002	8.1428424E-002	0	1.676319558794921E-003	7.6637516E+000	2.8288767E-001	7.6689711E+000	2.1139665E+000	3.3617153E+005	9.1072670E+006	9.1134690E+006	-8.7886032E+001	0.0000000E+000	0.0000000E+000	0.0000000E+000	8.7886032E+001	0.0000000E+000	0.0000000E+000	0.0000000E+000	-8.7886032E+001	0.0000000E+000	0.0000000E+000	0.0000000E+000	-2.1139665E+000	0.0000000E+000	0.0000000E+000	0.0000000E+000	2.1139665E+000	2.7091150E+001	2.1139665E+000	2.835432881913664E-004
