EC-Lab ASCII FILE
Nb header lines : 66                          

Potentio Electrochemical Impedance Spectroscopy

Run on channel : 1 (SN 5680)
User : 
Electrode connection : standard
Potential control : Ewe
Ewe ctrl range : min = 0.00 V, max = 5.00 V
Ewe,I filtering : <None>
Safety Limits :
	Do not start on E overload
Channel : Floating
Acquisition started on : 06/29/2023 22:04:26.336
Loaded Setting File :  C:\Data\baili\Electrode Combination Tests\20230622\new tests\positive\AvCarbvers_ve5_30mL_EIS_C01.mpr
Saved on :
	File : ELAT_ve5_30mL_EIS_C01.mpr
	Directory : C:\Data\baili\Electrode Combination Tests\20230622\new tests\positive\
	Host : 192.168.0.1
Device : SP-300 (SN 0955)
Address : 192.168.0.4
EC-Lab for windows v11.46 (software)
Internet server v11.40 (firmware)
Command interpretor v11.46 (firmware)
Electrode material : 
Initial state : 
Electrolyte : 
Comments : 
Current amplifier : B-10A5V
Cable : standard
Electrode surface area : 0.001 cm2
Characteristic mass : 0.001 g
Equivalent Weight : 0.000 g/eq.
Density : 0.000 g/cm3
Volume (V) : 0.001 cm3
Cycle Definition : Charge/Discharge alternance
Mode                Single sine         
E (V)               0.0000              
vs.                 Eoc                 
tE (h:m:s)          0:00:0.0000         
record              0                   
dI                  0.000               
unit dI             mA                  
dt (s)              0.000               
fi                  200.000             
unit fi             kHz                 
ff                  50.000              
unit ff             mHz                 
Nd                  8                   
Points              per decade          
spacing             Logarithmic         
Va (mV)             10.0                
pw                  0.10                
Na                  3                   
corr                0                   
E range min (V)     0.000               
E range max (V)     5.000               
I Range             Auto                
Bandwidth           8                   
nc cycles           3                   
goto Ns'            0                   
nr cycles           0                   
inc. cycle          0                   

freq/Hz	Re(Z)/Ohm	-Im(Z)/Ohm	|Z|/Ohm	Phase(Z)/deg	time/s	<Ewe>/V	<I>/mA	Cs/uF	Cp/uF	cycle number	I Range	|Ewe|/V	|I|/A	Ns	(Q-Qo)/mA.h	Re(Y)/Ohm-1	Im(Y)/Ohm-1	|Y|/Ohm-1	Phase(Y)/deg	Re(C)/nF	Im(C)/nF	|C|/nF	Phase(C)/deg	Re(M)	Im(M)	|M|	Phase(M)/deg	Re(Permittivity)	Im(Permittivity)	|Permittivity|	Phase(Permittivity)/deg	Re(Resistivity)/Ohm.cm	Im(Resistivity)/Ohm.cm	|Resistivity|/Ohm.cm	Phase(Resistivity)/deg	Re(Conductivity)/mS/cm	Im(Conductivity)/mS/cm	|Conductivity|/mS/cm	Phase(Conductivity)/deg	Tan(Delta)	Loss Angle(Delta)/deg	dq/mA.h	
1.9999814E+005	1.0034601E-001	-1.8959824E-002	1.0212148E-001	1.0699586E+001	1.788497284898767E+000	-6.1448367E-004	-2.0322763E+001	-4.1972019E+001	-1.4467527E+000	1.000000000000000E+000	65	9.7528966E-003	9.5502891E-002	0	-4.238196527647766E-003	9.6220121E+000	-1.8180261E+000	9.7922592E+000	-1.0699586E+001	-1.4467524E+003	7.6570249E+003	7.7925044E+003	-1.0069958E+002	0.0000000E+000	0.0000000E+000	0.0000000E+000	1.0069958E+002	0.0000000E+000	0.0000000E+000	0.0000000E+000	-1.0069958E+002	0.0000000E+000	0.0000000E+000	0.0000000E+000	1.0699586E+001	0.0000000E+000	0.0000000E+000	0.0000000E+000	-1.0699586E+001	-5.2925601E+000	-1.0699586E+001	-4.238196527647766E-003
1.4930041E+005	1.0161644E-001	-1.3125917E-002	1.0246068E-001	7.3602095E+000	2.364499552262714E+000	-6.0917094E-004	-2.6032488E+000	-8.1213737E+001	-1.3328286E+000	1.000000000000000E+000	65	1.0751806E-002	1.0493592E-001	0	-4.045747915639639E-003	9.6794233E+000	-1.2503027E+000	9.7598410E+000	-7.3602095E+000	-1.3328281E+003	1.0318312E+004	1.0404037E+004	-9.7360207E+001	0.0000000E+000	0.0000000E+000	0.0000000E+000	9.7360207E+001	0.0000000E+000	0.0000000E+000	0.0000000E+000	-9.7360207E+001	0.0000000E+000	0.0000000E+000	0.0000000E+000	7.3602095E+000	0.0000000E+000	0.0000000E+000	0.0000000E+000	-7.3602095E+000	-7.7416644E+000	-7.3602095E+000	1.924486120081269E-004
1.1145338E+005	1.0252033E-001	-8.8497847E-003	1.0290159E-001	4.9336696E+000	2.940481312951306E+000	-6.0508854E-004	-2.5950506E+000	-1.6135936E+002	-1.1934807E+000	1.000000000000000E+000	65	1.0913850E-002	1.0606104E-001	0	-4.380200052694308E-003	9.6820164E+000	-8.3577329E-001	9.7180223E+000	-4.9336696E+000	-1.1934808E+003	1.3825879E+004	1.3877295E+004	-9.4933670E+001	0.0000000E+000	0.0000000E+000	0.0000000E+000	9.4933670E+001	0.0000000E+000	0.0000000E+000	0.0000000E+000	-9.4933670E+001	0.0000000E+000	0.0000000E+000	0.0000000E+000	4.9336696E+000	0.0000000E+000	0.0000000E+000	0.0000000E+000	-4.9336696E+000	-1.1584500E+001	-4.9336696E+000	-3.344521370546687E-004
8.3200344E+004	1.0320425E-001	-5.5883881E-003	1.0335544E-001	3.0994718E+000	3.516492487018695E+000	-6.0102477E-004	-2.5605817E+000	-3.4230121E+002	-1.0007252E+000	1.000000000000000E+000	65	1.0927829E-002	1.0573056E-001	0	-5.267584276560687E-003	9.6611958E+000	-5.2314234E-001	9.6753492E+000	-3.0994718E+000	-1.0007253E+003	1.8481018E+004	1.8508092E+004	-9.3099472E+001	0.0000000E+000	0.0000000E+000	0.0000000E+000	9.3099472E+001	0.0000000E+000	0.0000000E+000	0.0000000E+000	-9.3099472E+001	0.0000000E+000	0.0000000E+000	0.0000000E+000	3.0994718E+000	0.0000000E+000	0.0000000E+000	0.0000000E+000	-3.0994718E+000	-1.8467625E+001	-3.0994718E+000	-8.873842238663792E-004
6.2110305E+004	1.0380833E-001	-2.8366107E-003	1.0384708E-001	1.5652442E+000	4.092484594351845E+000	-5.9492921E-004	-2.4951837E+000	-9.0335144E+002	-6.7401201E-001	1.000000000000000E+000	65	1.0905429E-002	1.0501430E-001	0	-4.776546829505921E-003	9.6259508E+000	-2.6303357E-001	9.6295443E+000	-1.5652442E+000	-6.7401300E+002	2.4666078E+004	2.4675285E+004	-9.1565247E+001	0.0000000E+000	0.0000000E+000	0.0000000E+000	9.1565247E+001	0.0000000E+000	0.0000000E+000	0.0000000E+000	-9.1565247E+001	0.0000000E+000	0.0000000E+000	0.0000000E+000	1.5652442E+000	0.0000000E+000	0.0000000E+000	0.0000000E+000	-1.5652442E+000	-3.6595901E+001	-1.5652442E+000	4.910374470547662E-004
4.6364680E+004	1.0444942E-001	-5.5564911E-004	1.0445090E-001	3.0479872E-001	4.668479341693455E+000	-6.0945051E-004	-2.3928945E+000	-6.1777773E+003	-1.7482726E-001	1.000000000000000E+000	65	1.0838237E-002	1.0376394E-001	0	-6.310663579356333E-003	9.5737410E+000	-5.0930306E-002	9.5738764E+000	-3.0479872E-001	-1.7482910E+002	3.2863555E+004	3.2864020E+004	-9.0304802E+001	0.0000000E+000	0.0000000E+000	0.0000000E+000	9.0304802E+001	0.0000000E+000	0.0000000E+000	0.0000000E+000	-9.0304802E+001	0.0000000E+000	0.0000000E+000	0.0000000E+000	3.0479872E-001	0.0000000E+000	0.0000000E+000	0.0000000E+000	-3.0479872E-001	-1.8797731E+002	-3.0479872E-001	-1.534116749850412E-003
3.4618094E+004	1.0523386E-001	1.3453939E-003	1.0524245E-001	-7.3247522E-001	5.244498489046237E+000	-6.1058765E-004	-2.5385962E+000	3.4171772E+003	5.5845028E-001	1.000000000000000E+000	65	1.0765078E-002	1.0228837E-001	0	-5.581018750007776E-003	9.5010929E+000	1.2146958E-001	9.5018692E+000	7.3247522E-001	5.5845032E+002	4.3680793E+004	4.3684363E+004	-8.9267525E+001	0.0000000E+000	0.0000000E+000	0.0000000E+000	8.9267525E+001	0.0000000E+000	0.0000000E+000	0.0000000E+000	-8.9267525E+001	0.0000000E+000	0.0000000E+000	0.0000000E+000	-7.3247522E-001	0.0000000E+000	0.0000000E+000	0.0000000E+000	7.3247522E-001	7.8217873E+001	7.3247522E-001	7.296448293485575E-004
2.5840633E+004	1.0617671E-001	3.0455065E-003	1.0622038E-001	-1.6429859E+000	5.820486143085873E+000	-6.0298212E-004	-2.4513986E+000	2.0223552E+003	1.6624968E+000	1.000000000000000E+000	65	1.0665425E-002	1.0040846E-001	0	-4.901670686634866E-003	9.4105196E+000	2.6992548E-001	9.4143896E+000	1.6429859E+000	1.6624934E+003	5.7960293E+004	5.7984133E+004	-8.8357018E+001	0.0000000E+000	0.0000000E+000	0.0000000E+000	8.8357018E+001	0.0000000E+000	0.0000000E+000	0.0000000E+000	-8.8357018E+001	0.0000000E+000	0.0000000E+000	0.0000000E+000	-1.6429859E+000	0.0000000E+000	0.0000000E+000	0.0000000E+000	1.6429859E+000	3.4863400E+001	1.6429859E+000	6.793480633729100E-004
1.9290008E+004	1.0723920E-001	4.5260494E-003	1.0733467E-001	-2.4167442E+000	6.396489317150554E+000	-5.9793040E-004	-2.5210822E+000	1.8229235E+003	3.2413576E+000	1.000000000000000E+000	65	1.0581450E-002	9.8583706E-002	0	-4.259673102762111E-003	9.3083677E+000	3.9286131E-001	9.3166542E+000	2.4167442E+000	3.2413625E+003	7.6800000E+004	7.6868367E+004	-8.7583252E+001	0.0000000E+000	0.0000000E+000	0.0000000E+000	8.7583252E+001	0.0000000E+000	0.0000000E+000	0.0000000E+000	-8.7583252E+001	0.0000000E+000	0.0000000E+000	0.0000000E+000	-2.4167442E+000	0.0000000E+000	0.0000000E+000	0.0000000E+000	2.4167442E+000	2.3693777E+001	2.4167442E+000	6.419975838727549E-004
1.4400236E+004	1.0833594E-001	5.9773335E-003	1.0850071E-001	-3.1580386E+000	6.972482784505701E+000	-5.9170433E-004	-2.4774835E+000	1.8490261E+003	5.6116791E+000	1.000000000000000E+000	65	1.0453527E-002	9.6345238E-002	0	-4.631891002261365E-003	9.2025337E+000	5.0774109E-001	9.2165298E+000	3.1580386E+000	5.6116729E+003	1.0170865E+005	1.0186334E+005	-8.6841965E+001	0.0000000E+000	0.0000000E+000	0.0000000E+000	8.6841965E+001	0.0000000E+000	0.0000000E+000	0.0000000E+000	-8.6841965E+001	0.0000000E+000	0.0000000E+000	0.0000000E+000	-3.1580386E+000	0.0000000E+000	0.0000000E+000	0.0000000E+000	3.1580386E+000	1.8124460E+001	3.1580386E+000	-3.722178994992539E-004
1.0753788E+004	1.0971044E-001	7.3696165E-003	1.0995768E-001	-3.8429756E+000	7.549492731894134E+000	-5.9472414E-004	-2.3908453E+000	2.0082313E+003	9.0209522E+000	1.000000000000000E+000	65	1.0340329E-002	9.4039172E-002	0	-4.615098665644700E-003	9.0739594E+000	6.0952812E-001	9.0944080E+000	3.8429756E+000	9.0209434E+003	1.3429364E+005	1.3459628E+005	-8.6157028E+001	0.0000000E+000	0.0000000E+000	0.0000000E+000	8.6157028E+001	0.0000000E+000	0.0000000E+000	0.0000000E+000	-8.6157028E+001	0.0000000E+000	0.0000000E+000	0.0000000E+000	-3.8429756E+000	0.0000000E+000	0.0000000E+000	0.0000000E+000	3.8429756E+000	1.4886859E+001	3.8429756E+000	1.679233661666495E-005
8.0234409E+003	1.1122596E-001	8.7334057E-003	1.1156831E-001	-4.4896240E+000	8.198726469432586E+000	-6.7413482E-004	-2.8512402E+000	2.2713071E+003	1.3917506E+001	1.000000000000000E+000	65	1.0431771E-002	9.3501203E-002	0	-5.291460102276643E-003	8.9356155E+000	7.0161998E-001	8.9631186E+000	4.4896240E+000	1.3917506E+004	1.7724905E+005	1.7779461E+005	-8.5510376E+001	0.0000000E+000	0.0000000E+000	0.0000000E+000	8.5510376E+001	0.0000000E+000	0.0000000E+000	0.0000000E+000	-8.5510376E+001	0.0000000E+000	0.0000000E+000	0.0000000E+000	-4.4896240E+000	0.0000000E+000	0.0000000E+000	0.0000000E+000	4.4896240E+000	1.2735692E+001	4.4896240E+000	-6.763614366319436E-004
5.9921147E+003	1.1301374E-001	1.0144101E-002	1.1346810E-001	-5.1291175E+000	9.012110001378460E+000	-6.9120998E-004	-2.9252090E+000	2.6183428E+003	2.0926954E+001	1.000000000000000E+000	65	1.0217726E-002	9.0049334E-002	0	-6.285118498615067E-003	8.7777605E+000	7.8789085E-001	8.8130503E+000	5.1291175E+000	2.0926963E+004	2.3314372E+005	2.3408103E+005	-8.4870880E+001	0.0000000E+000	0.0000000E+000	0.0000000E+000	8.4870880E+001	0.0000000E+000	0.0000000E+000	0.0000000E+000	-8.4870880E+001	0.0000000E+000	0.0000000E+000	0.0000000E+000	-5.1291175E+000	0.0000000E+000	0.0000000E+000	0.0000000E+000	5.1291175E+000	1.1140835E+001	5.1291175E+000	-9.936583963384236E-004
4.4714287E+003	1.1512708E-001	1.1712884E-002	1.1572137E-001	-5.8092117E+000	9.937677592039108E+000	-6.9081853E-004	-2.9030371E+000	3.0388552E+003	3.1132248E+001	1.000000000000000E+000	65	1.0139616E-002	8.7620944E-002	0	-6.973542244620596E-003	8.5970678E+000	8.7465477E-001	8.6414461E+000	5.8092117E+000	3.1132246E+004	3.0600191E+005	3.0758150E+005	-8.4190788E+001	0.0000000E+000	0.0000000E+000	0.0000000E+000	8.4190788E+001	0.0000000E+000	0.0000000E+000	0.0000000E+000	-8.4190788E+001	0.0000000E+000	0.0000000E+000	0.0000000E+000	-5.8092117E+000	0.0000000E+000	0.0000000E+000	0.0000000E+000	5.8092117E+000	9.8290977E+000	5.8092117E+000	-6.884237460055287E-004
3.3389331E+003	1.1751866E-001	1.3216136E-002	1.1825947E-001	-6.4165173E+000	1.062984258490906E+001	-6.8530079E-004	-2.9391830E+000	3.6066824E+003	4.5044846E+001	1.000000000000000E+000	65	1.0650113E-002	9.0057172E-002	0	-7.944146116810515E-003	8.4030113E+000	9.4500178E-001	8.4559822E+000	6.4165173E+000	4.5044852E+004	4.0054138E+005	4.0306628E+005	-8.3583481E+001	0.0000000E+000	0.0000000E+000	0.0000000E+000	8.3583481E+001	0.0000000E+000	0.0000000E+000	0.0000000E+000	-8.3583481E+001	0.0000000E+000	0.0000000E+000	0.0000000E+000	-6.4165173E+000	0.0000000E+000	0.0000000E+000	0.0000000E+000	6.4165173E+000	8.8920584E+000	6.4165173E+000	-9.706038721899197E-004
2.4923906E+003	1.2029738E-001	1.4746716E-002	1.2119788E-001	-6.9887643E+000	1.132158037766931E+001	-6.8761228E-004	-2.9552064E+000	4.3302075E+003	6.4107567E+001	1.000000000000000E+000	65	1.0914654E-002	9.0056472E-002	0	-8.828189595757647E-003	8.1896658E+000	1.0039343E+000	8.2509699E+000	6.9887643E+000	6.4107543E+004	5.2296200E+005	5.2687669E+005	-8.3011238E+001	0.0000000E+000	0.0000000E+000	0.0000000E+000	8.3011238E+001	0.0000000E+000	0.0000000E+000	0.0000000E+000	-8.3011238E+001	0.0000000E+000	0.0000000E+000	0.0000000E+000	-6.9887643E+000	0.0000000E+000	0.0000000E+000	0.0000000E+000	6.9887643E+000	8.1575708E+000	6.9887643E+000	-8.840434789471312E-004
1.8605962E+003	1.2352013E-001	1.6098000E-002	1.2456471E-001	-7.4253316E+000	1.224668892837508E+001	-6.7700556E-004	-2.8510544E+000	5.3136885E+003	8.8746216E+001	1.000000000000000E+000	65	1.0077947E-002	8.0905311E-002	0	-9.957939115181721E-003	7.9606347E+000	1.0374850E+000	8.0279560E+000	7.4253316E+000	8.8746211E+004	6.8095069E+005	6.8670938E+005	-8.2574669E+001	0.0000000E+000	0.0000000E+000	0.0000000E+000	8.2574669E+001	0.0000000E+000	0.0000000E+000	0.0000000E+000	-8.2574669E+001	0.0000000E+000	0.0000000E+000	0.0000000E+000	-7.4253316E+000	0.0000000E+000	0.0000000E+000	0.0000000E+000	7.4253316E+000	7.6730108E+000	7.4253316E+000	-1.129749519424074E-003
1.3886691E+003	1.2726745E-001	1.7392991E-002	1.2845045E-001	-7.7821107E+000	1.293896304123336E+001	-6.8874937E-004	-3.0118480E+000	6.5894189E+003	1.2081598E+002	1.000000000000000E+000	65	1.0119301E-002	7.8779802E-002	0	-1.035028619103418E-002	7.7134032E+000	1.0541514E+000	7.7851028E+000	7.7821107E+000	1.2081600E+005	8.8403088E+005	8.9224831E+005	-8.2217888E+001	0.0000000E+000	0.0000000E+000	0.0000000E+000	8.2217888E+001	0.0000000E+000	0.0000000E+000	0.0000000E+000	-8.2217888E+001	0.0000000E+000	0.0000000E+000	0.0000000E+000	-7.7821107E+000	0.0000000E+000	0.0000000E+000	0.0000000E+000	7.7821107E+000	7.3171687E+000	7.7821107E+000	-3.923470758524610E-004
1.0366589E+003	1.3132218E-001	1.8095534E-002	1.3256305E-001	-7.8456626E+000	1.362943846065900E+001	-6.8826473E-004	-2.8424842E+000	8.4842383E+003	1.5809227E+002	1.000000000000000E+000	65	1.0120295E-002	7.6343253E-002	0	-1.123925951255439E-002	7.4729671E+000	1.0297372E+000	7.5435801E+000	7.8456626E+000	1.5809233E+005	1.1473008E+006	1.1581418E+006	-8.2154335E+001	0.0000000E+000	0.0000000E+000	0.0000000E+000	8.2154335E+001	0.0000000E+000	0.0000000E+000	0.0000000E+000	-8.2154335E+001	0.0000000E+000	0.0000000E+000	0.0000000E+000	-7.8456626E+000	0.0000000E+000	0.0000000E+000	0.0000000E+000	7.8456626E+000	7.2571592E+000	7.8456626E+000	-8.889733215202075E-004
7.7376514E+002	1.3546886E-001	1.8288711E-002	1.3669780E-001	-7.6886201E+000	1.432106593356002E+001	-6.9130323E-004	-2.8842196E+000	1.1246771E+004	2.0131262E+002	1.000000000000000E+000	65	1.0107110E-002	7.3937625E-002	0	-1.195494170463928E-002	7.2496400E+000	9.7872359E-001	7.3154068E+000	7.6886201E+000	2.0131267E+005	1.4911709E+006	1.5046984E+006	-8.2311378E+001	0.0000000E+000	0.0000000E+000	0.0000000E+000	8.2311378E+001	0.0000000E+000	0.0000000E+000	0.0000000E+000	-8.2311378E+001	0.0000000E+000	0.0000000E+000	0.0000000E+000	-7.6886201E+000	0.0000000E+000	0.0000000E+000	0.0000000E+000	7.6886201E+000	7.4072390E+000	7.6886201E+000	-7.156821920848953E-004
5.7796539E+002	1.4007492E-001	1.7928496E-002	1.4121762E-001	-7.2937560E+000	1.501546988650807E+001	-6.9072534E-004	-2.8309326E+000	1.5359407E+004	2.4756223E+002	1.000000000000000E+000	65	1.0091795E-002	7.1462713E-002	0	-1.262672847044908E-002	7.0239697E+000	8.9901328E-001	7.0812693E+000	7.2937560E+000	2.4756219E+005	1.9341980E+006	1.9499766E+006	-8.2706245E+001	0.0000000E+000	0.0000000E+000	0.0000000E+000	8.2706245E+001	0.0000000E+000	0.0000000E+000	0.0000000E+000	-8.2706245E+001	0.0000000E+000	0.0000000E+000	0.0000000E+000	-7.2937560E+000	0.0000000E+000	0.0000000E+000	0.0000000E+000	7.2937560E+000	7.8129768E+000	7.2937560E+000	-6.717867658097929E-004
4.3124185E+002	1.4407402E-001	1.6976280E-002	1.4507073E-001	-6.7201905E+000	1.570417943919892E+001	-6.8638200E-004	-2.7303200E+000	2.1739857E+004	2.9770227E+002	1.000000000000000E+000	65	1.0074036E-002	6.9442235E-002	0	-1.312893387804010E-002	6.8458295E+000	8.0664593E-001	6.8931894E+000	6.7201905E+000	2.9770234E+005	2.5265348E+006	2.5440135E+006	-8.3279808E+001	0.0000000E+000	0.0000000E+000	0.0000000E+000	8.3279808E+001	0.0000000E+000	0.0000000E+000	0.0000000E+000	-8.3279808E+001	0.0000000E+000	0.0000000E+000	0.0000000E+000	-6.7201905E+000	0.0000000E+000	0.0000000E+000	0.0000000E+000	6.7201905E+000	8.4867840E+000	6.7201905E+000	-5.022054075910186E-004
3.2195746E+002	1.4766315E-001	1.5518497E-002	1.4847636E-001	-5.9994144E+000	1.639254528525635E+001	-6.8477885E-004	-2.7763412E+000	3.1854590E+004	3.4798190E+002	1.000000000000000E+000	65	1.0063556E-002	6.7778841E-002	0	-1.380608630636723E-002	6.6981907E+000	7.0393896E-001	6.7350788E+000	5.9994144E+000	3.4798181E+005	3.3111523E+006	3.3293875E+006	-8.4000587E+001	0.0000000E+000	0.0000000E+000	0.0000000E+000	8.4000587E+001	0.0000000E+000	0.0000000E+000	0.0000000E+000	-8.4000587E+001	0.0000000E+000	0.0000000E+000	0.0000000E+000	-5.9994144E+000	0.0000000E+000	0.0000000E+000	0.0000000E+000	5.9994144E+000	9.5152998E+000	5.9994144E+000	-6.771524283271293E-004
2.4038478E+002	1.5060920E-001	1.3806542E-002	1.5124071E-001	-5.2377400E+000	1.708443254479789E+001	-6.9486361E-004	-2.8411801E+000	4.7954375E+004	3.9963242E+002	1.000000000000000E+000	65	1.0052232E-002	6.6465124E-002	0	-1.440042123378772E-002	6.5843682E+000	6.0359770E-001	6.6119766E+000	5.2377400E+000	3.9963238E+005	4.3594055E+006	4.3776845E+006	-8.4762260E+001	0.0000000E+000	0.0000000E+000	0.0000000E+000	8.4762260E+001	0.0000000E+000	0.0000000E+000	0.0000000E+000	-8.4762260E+001	0.0000000E+000	0.0000000E+000	0.0000000E+000	-5.2377400E+000	0.0000000E+000	0.0000000E+000	0.0000000E+000	5.2377400E+000	1.0908538E+001	5.2377400E+000	-5.943349274204930E-004
1.7948300E+002	1.5305422E-001	1.2068285E-002	1.5352927E-001	-4.5084291E+000	1.777734273768147E+001	-6.9169467E-004	-2.8361495E+000	7.3476977E+004	4.5400430E+002	1.000000000000000E+000	65	1.0051655E-002	6.5470606E-002	0	-1.492554217437344E-002	6.4932618E+000	5.1199198E-001	6.5134158E+000	4.5084291E+000	4.5400444E+005	5.7578415E+006	5.7757130E+006	-8.5491570E+001	0.0000000E+000	0.0000000E+000	0.0000000E+000	8.5491570E+001	0.0000000E+000	0.0000000E+000	0.0000000E+000	-8.5491570E+001	0.0000000E+000	0.0000000E+000	0.0000000E+000	-4.5084291E+000	0.0000000E+000	0.0000000E+000	0.0000000E+000	4.5084291E+000	1.2682351E+001	4.5084291E+000	-5.251209405857243E-004
1.3392865E+002	1.5498759E-001	1.0327822E-002	1.5533131E-001	-3.8123507E+000	1.847438162410981E+001	-6.8024907E-004	-2.8696871E+000	1.1506359E+005	5.0867142E+002	1.000000000000000E+000	65	1.0040646E-002	6.4640194E-002	0	-1.538637554818444E-002	6.4236059E+000	4.2804626E-001	6.4378519E+000	3.8123507E+000	5.0867094E+005	7.6335320E+006	7.6504610E+006	-8.6187653E+001	0.0000000E+000	0.0000000E+000	0.0000000E+000	8.6187653E+001	0.0000000E+000	0.0000000E+000	0.0000000E+000	-8.6187653E+001	0.0000000E+000	0.0000000E+000	0.0000000E+000	-3.8123507E+000	0.0000000E+000	0.0000000E+000	0.0000000E+000	3.8123507E+000	1.5006804E+001	3.8123507E+000	-4.608333738109933E-004
