EC-Lab ASCII FILE
Nb header lines : 66                          

Potentio Electrochemical Impedance Spectroscopy

Run on channel : 1 (SN 5680)
User : 
Electrode connection : standard
Potential control : Ewe
Ewe ctrl range : min = 0.00 V, max = 5.00 V
Ewe,I filtering : <None>
Safety Limits :
	Do not start on E overload
Channel : Floating
Acquisition started on : 06/29/2023 21:00:50.888
Loaded Setting File :  C:\Data\baili\Electrode Combination Tests\20230622\old\AF DL\AFDL_ve2_20mL_EIS_2_C01.mpr
Saved on :
	File : AvCarb_ve5_30mL_EIS_C01.mpr
	Directory : C:\Data\baili\Electrode Combination Tests\20230622\new tests\positive\
	Host : 192.168.0.1
Device : SP-300 (SN 0955)
Address : 192.168.0.4
EC-Lab for windows v11.46 (software)
Internet server v11.40 (firmware)
Command interpretor v11.46 (firmware)
Electrode material : 
Initial state : 
Electrolyte : 
Comments : 
Current amplifier : B-10A5V
Cable : standard
Electrode surface area : 0.001 cm2
Characteristic mass : 0.001 g
Equivalent Weight : 0.000 g/eq.
Density : 0.000 g/cm3
Volume (V) : 0.001 cm3
Cycle Definition : Charge/Discharge alternance
Mode                Single sine         
E (V)               0.0000              
vs.                 Eoc                 
tE (h:m:s)          0:00:0.0000         
record              0                   
dI                  0.000               
unit dI             mA                  
dt (s)              0.000               
fi                  200.000             
unit fi             kHz                 
ff                  50.000              
unit ff             mHz                 
Nd                  8                   
Points              per decade          
spacing             Logarithmic         
Va (mV)             10.0                
pw                  0.10                
Na                  3                   
corr                0                   
E range min (V)     0.000               
E range max (V)     5.000               
I Range             Auto                
Bandwidth           8                   
nc cycles           3                   
goto Ns'            0                   
nr cycles           0                   
inc. cycle          0                   

freq/Hz	Re(Z)/Ohm	-Im(Z)/Ohm	|Z|/Ohm	Phase(Z)/deg	time/s	<Ewe>/V	<I>/mA	Cs/uF	Cp/uF	cycle number	I Range	|Ewe|/V	|I|/A	Ns	(Q-Qo)/mA.h	Re(Y)/Ohm-1	Im(Y)/Ohm-1	|Y|/Ohm-1	Phase(Y)/deg	Re(C)/nF	Im(C)/nF	|C|/nF	Phase(C)/deg	Re(M)	Im(M)	|M|	Phase(M)/deg	Re(Permittivity)	Im(Permittivity)	|Permittivity|	Phase(Permittivity)/deg	Re(Resistivity)/Ohm.cm	Im(Resistivity)/Ohm.cm	|Resistivity|/Ohm.cm	Phase(Resistivity)/deg	Re(Conductivity)/mS/cm	Im(Conductivity)/mS/cm	|Conductivity|/mS/cm	Phase(Conductivity)/deg	Tan(Delta)	Loss Angle(Delta)/deg	dq/mA.h	
1.9999814E+005	9.7930320E-002	-2.1890661E-002	1.0034714E-001	1.2600358E+001	2.114489807077916E+000	2.8652919E-004	-1.3744202E+001	-3.6352585E+001	-1.7299879E+000	1.000000000000000E+000	65	9.6585006E-003	9.6250884E-002	0	-2.707662445908619E-003	9.7253933E+000	-2.1739469E+000	9.9654064E+000	-1.2600358E+001	-1.7299879E+003	7.7392944E+003	7.9302925E+003	-1.0260036E+002	0.0000000E+000	0.0000000E+000	0.0000000E+000	1.0260036E+002	0.0000000E+000	0.0000000E+000	0.0000000E+000	-1.0260036E+002	0.0000000E+000	0.0000000E+000	0.0000000E+000	1.2600358E+001	0.0000000E+000	0.0000000E+000	0.0000000E+000	-1.2600358E+001	-4.4736118E+000	-1.2600358E+001	-2.707662445908619E-003
1.4930041E+005	9.9137649E-002	-1.5189635E-002	1.0029456E-001	8.7109795E+000	2.691482047812315E+000	2.9817986E-004	3.9574251E+000	-7.0179749E+001	-1.6097251E+000	1.000000000000000E+000	65	1.0730330E-002	1.0698815E-001	0	-2.214426509975559E-003	9.8556185E+000	-1.5100543E+000	9.9706306E+000	-8.7109795E+000	-1.6097260E+003	1.0506137E+004	1.0628740E+004	-9.8710983E+001	0.0000000E+000	0.0000000E+000	0.0000000E+000	9.8710983E+001	0.0000000E+000	0.0000000E+000	0.0000000E+000	-9.8710983E+001	0.0000000E+000	0.0000000E+000	0.0000000E+000	8.7109795E+000	0.0000000E+000	0.0000000E+000	0.0000000E+000	-8.7109795E+000	-6.5266643E+000	-8.7109795E+000	4.932359359330605E-004
1.1145338E+005	1.0005421E-001	-1.0257805E-002	1.0057867E-001	5.8536530E+000	3.267493701860076E+000	2.9191648E-004	3.8491740E+000	-1.3921065E+002	-1.4480034E+000	1.000000000000000E+000	65	1.0903407E-002	1.0840675E-001	0	-1.969835149974045E-003	9.8906231E+000	-1.0140111E+000	9.9424667E+000	-5.8536530E+000	-1.4480034E+003	1.4123767E+004	1.4197799E+004	-9.5853653E+001	0.0000000E+000	0.0000000E+000	0.0000000E+000	9.5853653E+001	0.0000000E+000	0.0000000E+000	0.0000000E+000	-9.5853653E+001	0.0000000E+000	0.0000000E+000	0.0000000E+000	5.8536530E+000	0.0000000E+000	0.0000000E+000	0.0000000E+000	-5.8536530E+000	-9.7539597E+000	-5.8536530E+000	2.445913600015140E-004
8.3200344E+004	1.0076980E-001	-6.2157060E-003	1.0096131E-001	3.5296597E+000	3.843479755887529E+000	2.9536508E-004	3.8771219E+000	-3.0775458E+002	-1.1664752E+000	1.000000000000000E+000	65	1.0910933E-002	1.0807043E-001	0	-1.674576009298778E-003	9.8859959E+000	-6.0979027E-001	9.9047842E+000	-3.5296597E+000	-1.1664762E+003	1.8911039E+004	1.8946980E+004	-9.3529663E+001	0.0000000E+000	0.0000000E+000	0.0000000E+000	9.3529663E+001	0.0000000E+000	0.0000000E+000	0.0000000E+000	-9.3529663E+001	0.0000000E+000	0.0000000E+000	0.0000000E+000	3.5296597E+000	0.0000000E+000	0.0000000E+000	0.0000000E+000	-3.5296597E+000	-1.6212124E+001	-3.5296597E+000	2.952591406752668E-004
6.2110305E+004	1.0136770E-001	-2.9730352E-003	1.0141128E-001	1.6799588E+000	4.419480583193945E+000	2.9348233E-004	3.7731557E+000	-8.6189911E+002	-7.4077100E-001	1.000000000000000E+000	65	1.0880616E-002	1.0729196E-001	0	-9.326586937894010E-004	9.8565979E+000	-2.8908631E-001	9.8608360E+000	-1.6799588E+000	-7.4077252E+002	2.5257102E+004	2.5267963E+004	-9.1679962E+001	0.0000000E+000	0.0000000E+000	0.0000000E+000	9.1679962E+001	0.0000000E+000	0.0000000E+000	0.0000000E+000	-9.1679962E+001	0.0000000E+000	0.0000000E+000	0.0000000E+000	1.6799588E+000	0.0000000E+000	0.0000000E+000	0.0000000E+000	-1.6799588E+000	-3.4095692E+001	-1.6799588E+000	7.419173155093772E-004
4.6364680E+004	1.0216140E-001	-2.1594486E-004	1.0216163E-001	1.2110945E-001	4.995485517225461E+000	2.9741559E-004	3.9207203E+000	-1.5896078E+004	-7.1023181E-002	1.000000000000000E+000	65	1.0795069E-002	1.0566657E-001	0	3.692995309076375E-004	9.7883892E+000	-2.0690324E-002	9.7884111E+000	-1.2110945E-001	-7.1022919E+001	3.3600371E+004	3.3600445E+004	-9.0121109E+001	0.0000000E+000	0.0000000E+000	0.0000000E+000	9.0121109E+001	0.0000000E+000	0.0000000E+000	0.0000000E+000	-9.0121109E+001	0.0000000E+000	0.0000000E+000	0.0000000E+000	1.2110945E-001	0.0000000E+000	0.0000000E+000	0.0000000E+000	-1.2110945E-001	-4.7309021E+002	-1.2110945E-001	1.301958224697039E-003
3.4618094E+004	1.0305995E-001	2.3260254E-003	1.0308620E-001	-1.2929251E+000	5.571497971279314E+000	3.0338069E-004	3.7088752E+000	1.9765260E+003	1.0063066E+000	1.000000000000000E+000	65	1.0716739E-002	1.0395900E-001	0	5.972771800292863E-004	9.6981487E+000	2.1888365E-001	9.7006187E+000	1.2929251E+000	1.0063049E+003	4.4586750E+004	4.4598105E+004	-8.8707077E+001	0.0000000E+000	0.0000000E+000	0.0000000E+000	8.8707077E+001	0.0000000E+000	0.0000000E+000	0.0000000E+000	-8.8707077E+001	0.0000000E+000	0.0000000E+000	0.0000000E+000	-1.2929251E+000	0.0000000E+000	0.0000000E+000	0.0000000E+000	1.2929251E+000	4.4307320E+001	1.2929251E+000	2.279776491216488E-004
2.5840633E+004	1.0427106E-001	4.4630454E-003	1.0436653E-001	-2.4508975E+000	6.147492878633784E+000	3.0269098E-004	3.7509832E+000	1.3800210E+003	2.5236306E+000	1.000000000000000E+000	65	1.0636655E-002	1.0191634E-001	0	9.414065087023709E-004	9.5728502E+000	4.0974042E-001	9.5816154E+000	2.4508975E+000	2.5236304E+003	5.8960105E+004	5.9014090E+004	-8.7549103E+001	0.0000000E+000	0.0000000E+000	0.0000000E+000	8.7549103E+001	0.0000000E+000	0.0000000E+000	0.0000000E+000	-8.7549103E+001	0.0000000E+000	0.0000000E+000	0.0000000E+000	-2.4508975E+000	0.0000000E+000	0.0000000E+000	0.0000000E+000	2.4508975E+000	2.3363209E+001	2.4508975E+000	3.441293286730846E-004
1.9290008E+004	1.0567595E-001	6.4201108E-003	1.0587079E-001	-3.4766064E+000	6.723501092666993E+000	3.0002531E-004	3.6738470E+000	1.2851245E+003	4.7258282E+000	1.000000000000000E+000	65	1.0561402E-002	9.9757470E-002	0	2.145309060670435E-003	9.4280930E+000	5.7278311E-001	9.4454756E+000	3.4766064E+000	4.7258311E+003	7.7787820E+004	7.7931242E+004	-8.6523392E+001	0.0000000E+000	0.0000000E+000	0.0000000E+000	8.6523392E+001	0.0000000E+000	0.0000000E+000	0.0000000E+000	-8.6523392E+001	0.0000000E+000	0.0000000E+000	0.0000000E+000	-3.4766064E+000	0.0000000E+000	0.0000000E+000	0.0000000E+000	3.4766064E+000	1.6460144E+001	3.4766064E+000	1.203902551968065E-003
1.4400236E+004	1.0734384E-001	8.3834324E-003	1.0767071E-001	-4.4656706E+000	7.299487120035337E+000	3.0776134E-004	3.6511159E+000	1.3183436E+003	7.9924006E+000	1.000000000000000E+000	65	1.0477266E-002	9.7308420E-002	0	1.663929921367102E-003	9.2593813E+000	7.2314715E-001	9.2875767E+000	4.4656706E+000	7.9923945E+003	1.0233695E+005	1.0264858E+005	-8.5534332E+001	0.0000000E+000	0.0000000E+000	0.0000000E+000	8.5534332E+001	0.0000000E+000	0.0000000E+000	0.0000000E+000	-8.5534332E+001	0.0000000E+000	0.0000000E+000	0.0000000E+000	-4.4656706E+000	0.0000000E+000	0.0000000E+000	0.0000000E+000	4.4656706E+000	1.2804282E+001	4.4656706E+000	-4.813791393033333E-004
1.0753788E+004	1.0925027E-001	1.0197978E-002	1.0972520E-001	-5.3328271E+000	7.875481094029965E+000	3.0507700E-004	3.6973233E+000	1.4512579E+003	1.2536027E+001	1.000000000000000E+000	65	1.0397360E-002	9.4758175E-002	0	2.525036700478859E-003	9.0742292E+000	8.4703481E-001	9.1136770E+000	5.3328271E+000	1.2536021E+004	1.3429766E+005	1.3488147E+005	-8.4667175E+001	0.0000000E+000	0.0000000E+000	0.0000000E+000	8.4667175E+001	0.0000000E+000	0.0000000E+000	0.0000000E+000	-8.4667175E+001	0.0000000E+000	0.0000000E+000	0.0000000E+000	-5.3328271E+000	0.0000000E+000	0.0000000E+000	0.0000000E+000	5.3328271E+000	1.0712934E+001	5.3328271E+000	8.611067791117564E-004
8.0234409E+003	1.1159243E-001	1.1906024E-002	1.1222577E-001	-6.0899658E+000	8.524732938254601E+000	2.2339216E-004	3.1903484E+000	1.6660679E+003	1.8751717E+001	1.000000000000000E+000	65	1.0480247E-002	9.3385391E-002	0	3.293072453129002E-003	8.8603230E+000	9.4532591E-001	8.9106092E+000	6.0899658E+000	1.8751717E+004	1.7575553E+005	1.7675303E+005	-8.3910034E+001	0.0000000E+000	0.0000000E+000	0.0000000E+000	8.3910034E+001	0.0000000E+000	0.0000000E+000	0.0000000E+000	-8.3910034E+001	0.0000000E+000	0.0000000E+000	0.0000000E+000	-6.0899658E+000	0.0000000E+000	0.0000000E+000	0.0000000E+000	6.0899658E+000	9.3727703E+000	6.0899658E+000	7.680357526501434E-004
5.9921147E+003	1.1424193E-001	1.3561355E-002	1.1504403E-001	-6.7697496E+000	9.338135430210968E+000	2.1088403E-004	3.0548942E+000	1.9585602E+003	2.7215414E+001	1.000000000000000E+000	65	1.0281443E-002	8.9369632E-002	0	3.665214859374385E-003	8.6317205E+000	1.0246485E+000	8.6923246E+000	6.7697496E+000	2.7215424E+004	2.2926478E+005	2.3087447E+005	-8.3230247E+001	0.0000000E+000	0.0000000E+000	0.0000000E+000	8.3230247E+001	0.0000000E+000	0.0000000E+000	0.0000000E+000	-8.3230247E+001	0.0000000E+000	0.0000000E+000	0.0000000E+000	-6.7697496E+000	0.0000000E+000	0.0000000E+000	0.0000000E+000	6.7697496E+000	8.4240789E+000	6.7697496E+000	3.721424062453830E-004
4.4714287E+003	1.1731853E-001	1.5101990E-002	1.1828654E-001	-7.3351407E+000	1.026369099418662E+001	2.0870303E-004	3.1070635E+000	2.3568918E+003	3.8418228E+001	1.000000000000000E+000	65	1.0156665E-002	8.5864924E-002	0	4.113473716041280E-003	8.3848619E+000	1.0793530E+000	8.4540472E+000	7.3351407E+000	3.8418242E+004	2.9844872E+005	3.0091128E+005	-8.2664856E+001	0.0000000E+000	0.0000000E+000	0.0000000E+000	8.2664856E+001	0.0000000E+000	0.0000000E+000	0.0000000E+000	-8.2664856E+001	0.0000000E+000	0.0000000E+000	0.0000000E+000	-7.3351407E+000	0.0000000E+000	0.0000000E+000	0.0000000E+000	7.3351407E+000	7.7684150E+000	7.3351407E+000	4.482588566668954E-004
3.3389331E+003	1.2091255E-001	1.6351186E-002	1.2201314E-001	-7.7014737E+000	1.095579681372328E+001	2.0227191E-004	3.0942075E+000	2.9151653E+003	5.2353828E+001	1.000000000000000E+000	65	1.0888112E-002	8.9237206E-002	0	5.000255971319560E-003	8.1219091E+000	1.0983380E+000	8.1958380E+000	7.7014737E+000	5.2353848E+004	3.8714225E+005	3.9066616E+005	-8.2298523E+001	0.0000000E+000	0.0000000E+000	0.0000000E+000	8.2298523E+001	0.0000000E+000	0.0000000E+000	0.0000000E+000	-8.2298523E+001	0.0000000E+000	0.0000000E+000	0.0000000E+000	-7.7014737E+000	0.0000000E+000	0.0000000E+000	0.0000000E+000	7.7014737E+000	7.3947268E+000	7.7014737E+000	8.867822552782794E-004
2.4923906E+003	1.2475466E-001	1.7212776E-002	1.2593651E-001	-7.8556738E+000	1.188058195091435E+001	2.1925384E-004	3.1204782E+000	3.7098223E+003	6.9302940E+001	1.000000000000000E+000	65	1.0146139E-002	8.0565512E-002	0	5.980864389677014E-003	7.8659916E+000	1.0852946E+000	7.9405093E+000	7.8556738E+000	6.9302945E+004	5.0229338E+005	5.0705181E+005	-8.2144325E+001	0.0000000E+000	0.0000000E+000	0.0000000E+000	8.2144325E+001	0.0000000E+000	0.0000000E+000	0.0000000E+000	-8.2144325E+001	0.0000000E+000	0.0000000E+000	0.0000000E+000	-7.8556738E+000	0.0000000E+000	0.0000000E+000	0.0000000E+000	7.8556738E+000	7.2477942E+000	7.8556738E+000	9.806084183574546E-004
1.8605962E+003	1.2890646E-001	1.7436303E-002	1.3008036E-001	-7.7032590E+000	1.257270206385874E+001	2.1513418E-004	3.1644495E+000	4.9058423E+003	8.8145264E+001	1.000000000000000E+000	65	1.0297003E-002	7.9158790E-002	0	6.938799264604096E-003	7.6181798E+000	1.0304596E+000	7.6875558E+000	7.7032590E+000	8.8145305E+004	6.5165731E+005	6.5759169E+005	-8.2296738E+001	0.0000000E+000	0.0000000E+000	0.0000000E+000	8.2296738E+001	0.0000000E+000	0.0000000E+000	0.0000000E+000	-8.2296738E+001	0.0000000E+000	0.0000000E+000	0.0000000E+000	-7.7032590E+000	0.0000000E+000	0.0000000E+000	0.0000000E+000	7.7032590E+000	7.3929925E+000	7.7032590E+000	9.579348749270819E-004
1.3886691E+003	1.3314405E-001	1.7091194E-002	1.3423653E-001	-7.3148379E+000	1.326494471004116E+001	2.0715583E-004	3.0725939E+000	6.7057754E+003	1.0870571E+002	1.000000000000000E+000	65	1.0356605E-002	7.7151917E-002	0	7.532447328231401E-003	7.3889093E+000	9.4848609E-001	7.4495373E+000	7.3148379E+000	1.0870565E+005	8.4684063E+005	8.5378919E+005	-8.2685165E+001	0.0000000E+000	0.0000000E+000	0.0000000E+000	8.2685165E+001	0.0000000E+000	0.0000000E+000	0.0000000E+000	-8.2685165E+001	0.0000000E+000	0.0000000E+000	0.0000000E+000	-7.3148379E+000	0.0000000E+000	0.0000000E+000	0.0000000E+000	7.3148379E+000	7.7902136E+000	7.3148379E+000	5.936480636273044E-004
1.0366589E+003	1.3714109E-001	1.6093016E-002	1.3808209E-001	-6.6928463E+000	1.395643050284707E+001	2.1582389E-004	3.0725937E+000	9.5399658E+003	1.2958269E+002	1.000000000000000E+000	65	1.0363582E-002	7.5053774E-002	0	7.873345116629989E-003	7.1927156E+000	8.4403944E-001	7.2420688E+000	6.6928463E+000	1.2958273E+005	1.1042748E+006	1.1118518E+006	-8.3307152E+001	0.0000000E+000	0.0000000E+000	0.0000000E+000	8.3307152E+001	0.0000000E+000	0.0000000E+000	0.0000000E+000	-8.3307152E+001	0.0000000E+000	0.0000000E+000	0.0000000E+000	-6.6928463E+000	0.0000000E+000	0.0000000E+000	0.0000000E+000	6.6928463E+000	8.5217772E+000	6.6928463E+000	3.408977883985883E-004
7.7376514E+002	1.4069591E-001	1.4661255E-002	1.4145774E-001	-5.9490514E+000	1.464806514908560E+001	2.1955209E-004	3.0064502E+000	1.4029422E+004	1.5070537E+002	1.000000000000000E+000	65	1.0358149E-002	7.3224336E-002	0	8.324730475841763E-003	7.0311775E+000	7.3268574E-001	7.0692492E+000	5.9490514E+000	1.5070536E+005	1.4462355E+006	1.4540665E+006	-8.4050949E+001	0.0000000E+000	0.0000000E+000	0.0000000E+000	8.4050949E+001	0.0000000E+000	0.0000000E+000	0.0000000E+000	-8.4050949E+001	0.0000000E+000	0.0000000E+000	0.0000000E+000	-5.9490514E+000	0.0000000E+000	0.0000000E+000	0.0000000E+000	5.9490514E+000	9.5964441E+000	5.9490514E+000	4.513853592117735E-004
5.7796539E+002	1.4373334E-001	1.2966270E-002	1.4431700E-001	-5.1547337E+000	1.534247680872795E+001	2.0827429E-004	2.9544671E+000	2.1237492E+004	1.7143456E+002	1.000000000000000E+000	65	1.0342672E-002	7.1666345E-002	0	8.845711931599304E-003	6.9011669E+000	6.2255836E-001	6.9291906E+000	5.1547337E+000	1.7143448E+005	1.9003816E+006	1.9080985E+006	-8.4845268E+001	0.0000000E+000	0.0000000E+000	0.0000000E+000	8.4845268E+001	0.0000000E+000	0.0000000E+000	0.0000000E+000	-8.4845268E+001	0.0000000E+000	0.0000000E+000	0.0000000E+000	-5.1547337E+000	0.0000000E+000	0.0000000E+000	0.0000000E+000	5.1547337E+000	1.1085173E+001	5.1547337E+000	5.209814557575413E-004
4.3124185E+002	1.4609160E-001	1.1047960E-002	1.4650874E-001	-4.3246770E+000	1.603118497473770E+001	2.0160081E-004	2.8324277E+000	3.3405434E+004	1.8995654E+002	1.000000000000000E+000	65	1.0331654E-002	7.0519030E-002	0	9.488059742719350E-003	6.8060975E+000	5.1470107E-001	6.8255315E+000	4.3246770E+000	1.8995655E+005	2.5118715E+006	2.5190438E+006	-8.5675323E+001	0.0000000E+000	0.0000000E+000	0.0000000E+000	8.5675323E+001	0.0000000E+000	0.0000000E+000	0.0000000E+000	-8.5675323E+001	0.0000000E+000	0.0000000E+000	0.0000000E+000	-4.3246770E+000	0.0000000E+000	0.0000000E+000	0.0000000E+000	4.3246770E+000	1.3223400E+001	4.3246770E+000	6.423478111200458E-004
3.2195746E+002	1.4790486E-001	9.1868043E-003	1.4818989E-001	-3.5542428E+000	1.671954727408593E+001	2.1276677E-004	2.8670831E+000	5.3809281E+004	2.0679926E+002	1.000000000000000E+000	65	1.0323969E-002	6.9667161E-002	0	9.845355084430426E-003	6.7351193E+000	4.1833800E-001	6.7480989E+000	3.5542428E+000	2.0679939E+005	3.3294075E+006	3.3358238E+006	-8.6445755E+001	0.0000000E+000	0.0000000E+000	0.0000000E+000	8.6445755E+001	0.0000000E+000	0.0000000E+000	0.0000000E+000	-8.6445755E+001	0.0000000E+000	0.0000000E+000	0.0000000E+000	-3.5542428E+000	0.0000000E+000	0.0000000E+000	0.0000000E+000	3.5542428E+000	1.6099707E+001	3.5542428E+000	3.572953417110766E-004
2.4038478E+002	1.4917894E-001	7.6003298E-003	1.4937243E-001	-2.9165688E+000	1.741042528024991E+001	2.0631698E-004	2.8326139E+000	8.7112555E+004	2.2553021E+002	1.000000000000000E+000	65	1.0319950E-002	6.9088720E-002	0	1.015661147469862E-002	6.6860042E+000	3.4063682E-001	6.6946759E+000	2.9165688E+000	2.2552992E+005	4.4266970E+006	4.4324385E+006	-8.7083435E+001	0.0000000E+000	0.0000000E+000	0.0000000E+000	8.7083435E+001	0.0000000E+000	0.0000000E+000	0.0000000E+000	-8.7083435E+001	0.0000000E+000	0.0000000E+000	0.0000000E+000	-2.9165688E+000	0.0000000E+000	0.0000000E+000	0.0000000E+000	2.9165688E+000	1.9627956E+001	2.9165688E+000	3.112563902681904E-004
1.7948300E+002	1.5016845E-001	6.1668530E-003	1.5029502E-001	-2.3516006E+000	1.810331216649502E+001	2.0952323E-004	2.8942857E+000	1.4379150E+005	2.4208687E+002	1.000000000000000E+000	65	1.0318705E-002	6.8656333E-002	0	1.100747787859084E-002	6.6479774E+000	2.7300739E-001	6.6535807E+000	2.3516006E+000	2.4208688E+005	5.8950345E+006	5.9000030E+006	-8.7648399E+001	0.0000000E+000	0.0000000E+000	0.0000000E+000	8.7648399E+001	0.0000000E+000	0.0000000E+000	0.0000000E+000	-8.7648399E+001	0.0000000E+000	0.0000000E+000	0.0000000E+000	-2.3516006E+000	0.0000000E+000	0.0000000E+000	0.0000000E+000	2.3516006E+000	2.4350904E+001	2.3516006E+000	8.508664038922222E-004
1.3392865E+002	1.5079355E-001	4.8629283E-003	1.5087195E-001	-1.8470865E+000	1.880036027959432E+001	2.1651361E-004	2.9470139E+000	2.4437048E+005	2.5387943E+002	1.000000000000000E+000	65	1.0313276E-002	6.8357810E-002	0	1.122810366138568E-002	6.6246939E+000	2.1363918E-001	6.6281376E+000	1.8470865E+000	2.5387909E+005	7.8724955E+006	7.8765880E+006	-8.8152916E+001	0.0000000E+000	0.0000000E+000	0.0000000E+000	8.8152916E+001	0.0000000E+000	0.0000000E+000	0.0000000E+000	-8.8152916E+001	0.0000000E+000	0.0000000E+000	0.0000000E+000	-1.8470865E+000	0.0000000E+000	0.0000000E+000	0.0000000E+000	1.8470865E+000	3.1008797E+001	1.8470865E+000	2.206257827948362E-004
